# Hz S DB R 50.000000
+1.000000e+06	+1.413655e+00	+1.743374e+02	-1.234998e+01	+1.401466e+02	-2.402247e+01	+1.369987e+02	-4.824070e+00	-1.186287e+02
+8.688963e+06	-6.914343e+00	+1.234308e+02	-6.743326e-01	+6.858163e+01	+3.538779e-01	+5.649652e+01	-7.313181e+00	+1.659578e+02
+1.637793e+07	-1.221098e+01	+1.022623e+02	-1.905946e-01	+6.895416e+01	+1.338920e+00	+5.285235e+01	-1.368449e+01	+1.337375e+02
+2.406689e+07	-2.171657e+01	-6.393581e+01	-3.471081e-01	+6.102574e+01	+1.118197e+00	+4.027673e+01	-1.999682e+01	+1.038580e+02
+3.175585e+07	-2.800763e+01	-4.960265e+01	-1.215017e-01	+5.602833e+01	+9.614028e-01	+3.806225e+01	-2.347548e+01	+1.186915e+02
+3.944482e+07	-2.915562e+01	-1.862989e+01	-1.082623e-01	+5.172595e+01	+6.685770e-01	+3.343862e+01	-3.038337e+01	+1.144225e+02
+4.713378e+07	-2.440122e+01	+8.964350e+01	+8.175777e-02	+4.755915e+01	-7.734150e-02	+3.472309e+01	-3.713906e+01	+1.713485e+02
+5.482274e+07	-2.748555e+01	+8.832626e+01	-2.539217e-02	+4.395944e+01	-2.262124e-01	+2.913089e+01	-4.474962e+01	+1.222238e+02
+6.251171e+07	-3.375317e+01	+1.038799e+02	-5.677163e-04	+4.036534e+01	-2.273139e-01	+2.501039e+01	-4.335203e+01	+6.149911e+01
+7.020067e+07	-2.948193e+01	+1.463254e+02	-7.642147e-02	+5.492461e+01	-4.292422e-01	+2.384027e+01	-5.564131e+01	+9.246437e+01
+7.788963e+07	-3.437668e+01	+1.294460e+02	-5.123497e-02	+3.312721e+01	-4.551560e-01	+2.317210e+01	-4.988884e+01	+1.750686e+02
+8.557860e+07	-2.846035e+01	+1.410370e+02	-2.049457e-01	-6.892977e+00	-4.277896e-01	+2.222242e+01	-4.260711e+01	+5.465171e+01
+9.326756e+07	-3.291135e+01	-7.481267e+01	-1.836023e-01	+1.833617e+01	-3.427709e-01	+2.094262e+01	-4.951440e+01	+6.480552e+01
+1.009565e+08	-3.743059e+01	-1.396723e+02	-2.013185e-01	+2.639367e+01	-1.798361e-01	+1.925377e+01	-4.957994e+01	-6.065410e+00
+1.086455e+08	-3.984482e+01	-1.605521e+02	-2.302833e-01	+2.397041e+01	-1.414360e-01	+1.792925e+01	-2.697173e+01	+1.699827e+00
+1.163344e+08	-3.726825e+01	-1.565208e+02	-1.503099e-01	+2.128612e+01	-7.285907e-02	+1.469653e+01	-3.873006e+01	-1.880842e+01
+1.240234e+08	-3.189242e+01	-1.425211e+02	-1.991708e-01	+1.796424e+01	-1.381778e-02	+2.644530e+01	-3.360691e+01	+1.372424e+02
+1.317124e+08	-2.551065e+01	-3.849235e+01	-1.747530e-01	+1.569693e+01	+2.023990e-02	-3.369960e+00	-3.001064e+01	-4.098645e+01
+1.394013e+08	-3.175141e+01	+1.738092e+02	-3.004861e-01	+1.283665e+01	-5.837269e-02	+2.710293e+00	-3.157339e+01	-4.757556e+01
+1.470903e+08	-3.336727e+01	-1.401498e+02	-2.727973e-01	+1.087194e+01	-1.288110e-01	+4.779868e+00	-3.235649e+01	-5.086034e+01
+1.547793e+08	-3.168136e+01	-1.348182e+02	-2.203833e-01	+7.914592e+00	-2.360518e-01	+3.151380e+00	-3.242830e+01	-5.785589e+01
+1.624682e+08	-3.101270e+01	-1.446910e+02	-1.866600e-01	+5.133093e+00	-3.746551e-01	+2.376479e+00	-3.126474e+01	-3.290667e+01
+1.701572e+08	-3.054004e+01	-1.505699e+02	-2.239118e-01	+2.725834e+00	-2.087066e-01	+1.029523e+00	-3.257501e+01	-4.671834e+01
+1.778462e+08	-2.620931e+01	-1.572507e+02	-3.029273e-01	-2.360050e+01	-1.154881e-01	-2.359921e+00	-2.810341e+01	-1.314636e+02
+1.855351e+08	-3.520903e+01	-1.005443e+02	-2.638831e-01	-2.744814e-01	-3.105828e-01	-4.879047e+00	-3.297049e+01	-6.146093e+01
+1.932241e+08	-3.294412e+01	-1.377511e+02	-1.587700e-01	-3.100354e+00	-3.415897e-01	-6.345332e+00	-3.348447e+01	-6.701954e+01
+2.009130e+08	-3.196911e+01	-1.453629e+02	-2.290327e-01	-7.520430e+00	-3.528409e-01	-7.776114e+00	-3.445853e+01	-9.050679e+01
+2.086020e+08	-3.228724e+01	-1.441249e+02	-2.456860e-01	-1.041145e+01	-3.823969e-01	-9.916016e+00	-3.435558e+01	-1.055976e+02
+2.162910e+08	-3.314738e+01	-1.410856e+02	-4.547215e-02	-1.289777e+01	-6.261166e-01	-1.200960e+01	-2.510946e+01	-9.197651e+01
+2.239799e+08	-3.133211e+01	-1.314399e+02	-2.387265e-01	-1.625116e+01	-1.776702e-01	-1.080667e+01	-2.583284e+01	+1.074343e+02
+2.316689e+08	-3.122251e+01	-1.176844e+02	-2.907181e-01	-1.904595e+01	-5.722615e-01	-1.334941e+01	-3.424491e+01	-1.654953e+02
+2.393579e+08	-3.421974e+01	-9.776891e+01	-3.468323e-01	-2.114104e+01	-6.251638e-01	-1.453537e+01	-3.163898e+01	-1.582988e+02
+2.470468e+08	-2.195886e+01	-1.573332e+02	-2.874387e-01	-2.243444e+01	-3.000298e-01	-1.311278e+01	-2.670575e+01	+1.701104e+02
+2.547358e+08	-4.147588e+01	-1.057646e+02	-3.914473e-01	-2.606399e+01	-7.628461e-01	-1.728269e+01	-3.899352e+01	+1.454978e+02
+2.624247e+08	-2.127670e+01	-6.414886e+01	-1.690516e-01	-3.125505e+01	-4.285735e-01	-1.842591e+01	-3.909187e+01	-1.591819e+02
+2.701137e+08	-1.966007e+01	-8.806098e+01	-4.502846e-01	-6.351590e+01	-4.086771e-01	-2.886019e+01	-3.742499e+01	+4.747710e+01
+2.778027e+08	-4.020184e+01	-1.497437e+02	-4.316121e-01	-3.752596e+01	-1.121035e-01	-1.547280e+01	-4.743687e+01	-1.484711e+02
+2.854916e+08	-3.473309e+01	-1.318019e+02	-3.830286e-01	-2.898673e+01	+1.686781e-01	-1.689417e+01	-4.557307e+01	+1.675054e+02
+2.931806e+08	-3.910013e+01	+9.928872e+01	-4.416996e-01	-1.085229e+01	+4.948253e-01	-1.524612e+01	-4.476210e+01	-1.014003e+02
+3.008696e+08	-2.259301e+01	-1.741252e+01	-5.607197e-01	-3.363228e+01	+8.436261e-01	-2.863633e+01	-3.594312e+01	-1.179137e+02
+3.085585e+08	-2.628961e+01	-8.328860e+01	-4.121366e-01	-4.367534e+01	+7.751144e-01	-2.963696e+01	-4.143552e+01	-1.007462e+02
+3.162475e+08	-2.423984e+01	-1.152923e+02	-1.813758e-01	-4.702761e+01	+8.174205e-01	-3.315555e+01	-3.309418e+01	-9.312584e+01
+3.239365e+08	-2.545917e+01	-1.674487e+02	-1.836154e-01	-5.031682e+01	+8.349673e-01	-3.698513e+01	-3.106738e+01	-1.038845e+02
+3.316254e+08	-2.447944e+01	-1.329376e+02	-3.234675e-01	-5.343399e+01	+6.922569e-01	-4.052745e+01	-2.954653e+01	-1.154187e+02
+3.393144e+08	-2.562096e+01	-1.264994e+02	-2.980044e-01	-5.546836e+01	+3.305202e-01	-4.343316e+01	-3.047012e+01	-1.081747e+02
+3.470033e+08	-2.727954e+01	-1.628622e+02	-4.004859e-01	-5.821537e+01	-4.906007e-02	-4.815442e+01	-2.487067e+01	+1.594142e+02
+3.546923e+08	-4.620687e+01	+1.773713e+02	-6.411154e-01	-6.007027e+01	-1.992022e-01	-4.759987e+01	-2.730981e+01	-1.455560e+02
+3.623813e+08	-4.346000e+01	-8.608808e+01	-7.089597e-01	-6.168448e+01	-3.973275e-01	-4.813121e+01	-2.711398e+01	-1.513421e+02
+3.700702e+08	-3.860203e+01	-5.650773e+01	-8.795902e-01	-7.156479e+01	-4.122374e-01	-4.876901e+01	-2.695292e+01	-1.534742e+02
+3.777592e+08	-2.895090e+01	-1.463228e+02	-6.315927e-01	-5.382755e+01	-5.252217e-01	-4.875557e+01	-2.454595e+01	-1.572692e+02
+3.854482e+08	-2.651851e+01	-1.643780e+02	-5.383912e-01	-4.926358e+01	-3.199149e-01	-5.079522e+01	-2.766788e+01	+1.749245e+02
+3.931371e+08	-2.380890e+01	-1.437391e+02	-3.379593e-01	-5.229223e+01	-2.149726e-01	-5.248826e+01	-2.754838e+01	+1.740207e+02
+4.008261e+08	-2.242986e+01	-1.058657e+02	-3.319725e-01	-5.500009e+01	-7.873949e-02	-5.440473e+01	-3.028499e+01	+1.545364e+02
+4.085151e+08	-2.365141e+01	-1.168816e+02	-2.787696e-01	-5.771301e+01	+7.115911e-02	-7.260988e+01	-3.054240e+01	+1.448653e+02
+4.162040e+08	-2.500176e+01	-1.186682e+02	-2.572899e-01	-7.414182e+01	+1.125083e-01	-5.896590e+01	-2.832679e+01	+1.630677e+02
+4.238930e+08	-2.986902e+01	+1.598077e+01	-4.064700e-01	-8.270619e+01	+5.185366e-02	-5.627096e+01	-2.671134e+01	+1.729078e+02
+4.315819e+08	-3.494745e+01	-7.392554e+01	-5.141200e-01	-8.521491e+01	-1.228092e-01	-5.866287e+01	-2.816059e+01	+1.620609e+02
+4.392709e+08	-3.139404e+01	-1.154455e+02	-4.812164e-01	-8.758045e+01	-2.179994e-01	-6.127329e+01	-2.722657e+01	+1.529675e+02
+4.469599e+08	-3.115624e+01	+5.882019e+01	-4.135739e-01	-9.032214e+01	-3.588934e-01	-6.291122e+01	-2.635219e+01	+1.453695e+02
+4.546488e+08	-2.872088e+01	+1.751957e+02	-5.780699e-01	-9.397020e+01	-5.421483e-01	-6.421412e+01	-2.632476e+01	+1.365632e+02
+4.623378e+08	-2.977274e+01	-1.744907e+02	-4.809629e-01	-1.147074e+02	-7.343641e-01	-7.446067e+01	-2.615546e+01	+1.198076e+02
+4.700268e+08	-2.598765e+01	-1.696621e+02	-5.076436e-01	-9.469893e+01	-8.593146e-01	-7.027436e+01	-2.150173e+01	+1.295140e+02
+4.777157e+08	-2.203802e+01	-1.428646e+02	-5.296037e-01	-9.409875e+01	-7.136311e-01	-7.770567e+01	-2.546979e+01	+1.211944e+02
+4.854047e+08	-2.695229e+01	+1.754210e+02	-8.503166e-01	-9.631276e+01	-6.702749e-01	-8.185834e+01	-2.776290e+01	+1.230454e+02
+4.930936e+08	-2.712872e+01	+1.648632e+02	-9.475927e-01	-9.858938e+01	-5.300526e-01	-8.304986e+01	-3.361463e+01	+1.208251e+02
+5.007826e+08	-2.859782e+01	+1.517501e+02	-3.846171e-01	-1.009148e+02	+2.169490e-01	-8.766661e+01	-4.342014e+01	-1.632644e+02
+5.084716e+08	-3.041842e+01	+1.418558e+02	-5.226300e-01	-1.031264e+02	+4.611315e-01	-8.692151e+01	-4.439794e+01	+1.774446e+02
+5.161605e+08	-2.851413e+01	+1.366535e+02	-2.981017e-01	-1.056405e+02	+5.269405e-01	-9.374725e+01	-3.940223e+01	-1.361094e+02
+5.238495e+08	-2.978743e+01	-1.506905e+02	-3.903336e-01	-1.041874e+02	+2.889802e-01	-9.646734e+01	-3.230832e+01	-1.631246e+02
+5.315385e+08	-2.809269e+01	-1.398202e+02	-4.279456e-01	-1.181869e+02	-5.907847e-02	-9.725721e+01	-2.688114e+01	+1.643916e+02
+5.392274e+08	-2.998430e+01	-1.595302e+02	-4.134202e-01	-1.219278e+02	-3.926590e-01	-9.877043e+01	-2.305802e+01	+1.484354e+02
+5.469164e+08	-2.895226e+01	+1.604654e+02	-2.638329e-01	-1.244717e+02	-9.341352e-01	-1.044302e+02	-2.070101e+01	+1.030117e+02
+5.546054e+08	-2.106453e+01	-1.143200e+02	-9.347372e-01	-1.467108e+02	-1.022401e+00	-9.814637e+01	-2.599442e+01	+1.245927e+02
+5.622943e+08	-1.927766e+01	-1.181778e+02	-1.027485e+00	-1.229323e+02	-1.235977e+00	-9.619859e+01	-2.165805e+01	+9.864312e+01
+5.699833e+08	-1.796743e+01	-1.242810e+02	-9.804953e-01	-1.100893e+02	-1.069426e+00	-9.255162e+01	-1.773781e+01	+1.099998e+02
+5.776722e+08	-1.713842e+01	-1.302412e+02	-8.724720e-01	-1.116347e+02	-1.156196e+00	-9.583402e+01	-2.296325e+01	+7.965743e+01
+5.853612e+08	-1.658762e+01	-1.361064e+02	-7.303150e-01	-1.132214e+02	-1.009398e+00	-9.651859e+01	-1.774878e+01	+6.200981e+01
+5.930502e+08	-1.602866e+01	-1.445749e+02	-4.939503e-01	-1.148494e+02	-6.876058e-01	-9.014576e+01	-1.507096e+01	+5.568372e+01
+6.007391e+08	-1.700823e+01	-1.753763e+02	-4.227288e-01	-1.178978e+02	-4.236938e-01	-9.338482e+01	-1.460153e+01	+4.576305e+01
+6.084281e+08	-1.631021e+01	-1.535710e+02	+2.783365e-02	-1.192521e+02	-1.073480e-01	-9.498255e+01	-1.406249e+01	+3.455686e+01
+6.161171e+08	-1.469796e+01	-1.460415e+02	+3.157053e-01	-1.234118e+02	-1.257414e-01	-9.845643e+01	-1.433767e+01	+3.999973e+01
+6.238060e+08	-1.692828e+01	-1.794649e+02	+2.212471e-01	-1.400127e+02	+3.849292e-01	-1.018587e+02	-1.679428e+01	+5.037684e+01
+6.314950e+08	-1.852238e+01	+1.708895e+02	+3.675361e-01	-1.213785e+02	+3.931970e-01	-1.038374e+02	-1.553095e+01	+1.549602e+01
+6.391839e+08	-1.388708e+01	-1.038877e+02	+7.238830e-01	-1.399502e+02	+1.032507e+00	-1.024266e+02	-1.838677e+01	+6.219830e+01
+6.468729e+08	-1.979639e+01	-1.521236e+02	+3.793510e-01	-1.558722e+02	+3.079276e-01	+1.534275e+02	-1.076445e+01	+3.624926e+01
+6.545619e+08	-1.747543e+01	-1.400885e+02	+1.985221e-01	-1.779451e+02	+4.539795e-02	-1.237170e+02	-1.790523e+01	+3.083677e+01
+6.622508e+08	-1.855099e+01	-1.491043e+02	+3.157411e-02	-1.593968e+02	-3.925294e-01	-1.246307e+02	-2.566275e+01	-6.011489e+01
+6.699398e+08	-1.940377e+01	+1.641390e+02	-2.204550e-01	-1.565151e+02	-8.339033e-01	-1.278698e+02	-2.391125e+01	+9.585073e-01
+6.776288e+08	-1.965261e+01	+1.683548e+02	-2.825085e-01	-1.600922e+02	-1.154654e+00	-1.291511e+02	-2.292692e+01	+2.874561e+00
+6.853177e+08	-2.287596e+01	+1.482539e+02	-4.169248e-01	-1.635571e+02	-1.476756e+00	-1.471026e+02	-2.209764e+01	-1.957246e+00
+6.930067e+08	-1.796251e+01	+1.682734e+02	-7.042623e-01	-1.668536e+02	-2.072716e+00	-1.350173e+02	-2.315607e+01	-1.784325e+01
+7.006957e+08	-1.749338e+01	-1.765241e+02	-8.613597e-01	-1.694922e+02	-1.901366e+00	-1.280382e+02	-3.151167e+01	-2.486254e+01
+7.083846e+08	-1.681539e+01	-1.769282e+02	-1.117153e+00	-1.718929e+02	-2.079731e+00	-1.265529e+02	-3.552847e+01	-3.097742e+01
+7.160736e+08	-1.619790e+01	-1.714102e+02	-1.316909e+00	-1.736216e+02	-2.296685e+00	-1.269959e+02	-3.915536e+01	-2.412854e+01
+7.237625e+08	-1.614117e+01	-1.762353e+02	-1.483412e+00	-1.750110e+02	-2.432379e+00	-1.270628e+02	-4.591204e+01	+1.722653e+01
+7.314515e+08	-1.626737e+01	-1.791134e+02	-1.550508e+00	-1.762049e+02	-2.345939e+00	-1.280703e+02	-3.157810e+01	+1.325234e+02
+7.391405e+08	-1.598217e+01	+1.685061e+02	-1.621951e+00	-1.770590e+02	-2.744407e+00	-1.266917e+02	-3.282390e+01	+1.013623e+02
+7.468294e+08	-1.530637e+01	+1.692049e+02	-1.571151e+00	-1.546491e+02	-2.963429e+00	-1.223415e+02	-3.013325e+01	+9.036411e+01
+7.545184e+08	-1.639130e+01	+1.633034e+02	-1.416993e+00	-1.761053e+02	-2.974617e+00	-1.281961e+02	-2.564881e+01	+1.025719e+02
+7.622074e+08	-1.867979e+01	+1.673335e+02	-1.160642e+00	-1.750372e+02	-2.898305e+00	-1.285211e+02	-2.222573e+01	+1.004524e+02
+7.698963e+08	-1.645829e+01	-4.477642e+01	-9.431535e-01	-1.791095e+02	-2.673809e+00	-1.281581e+02	-2.008322e+01	+9.207729e+01
+7.775853e+08	-2.245431e+01	-5.046663e+01	-1.039575e+00	+1.780645e+02	-2.477802e+00	-1.281862e+02	-1.753761e+01	+8.116668e+01
+7.852742e+08	-2.807050e+01	-9.421441e+01	-1.157543e+00	+1.756724e+02	-2.144222e+00	-1.285716e+02	-1.555574e+01	+7.000110e+01
+7.929632e+08	-2.604398e+01	-1.440543e+02	-1.339052e+00	+1.736925e+02	-1.743785e+00	-1.296153e+02	-1.414351e+01	+5.907976e+01
+8.006522e+08	-1.654488e+01	-1.793482e+02	-9.287424e-01	+1.730475e+02	-1.268795e+00	-1.250172e+02	-1.266761e+01	+5.069578e+01
+8.083411e+08	-1.571107e+01	+1.734690e+02	-7.756412e-01	+1.725600e+02	-6.769999e-01	-1.362337e+02	-1.182824e+01	+2.938218e+01
+8.160301e+08	-1.990158e+01	+1.490966e+02	-2.269984e-01	+1.705826e+02	-2.834218e-01	-1.467799e+02	-1.104158e+01	-9.061016e-02
+8.237191e+08	-1.576031e+01	+1.558494e+02	-7.763725e-03	+1.680156e+02	-2.835327e-01	-1.471137e+02	-1.087268e+01	+9.518198e+00
+8.314080e+08	-1.594672e+01	+1.515550e+02	+2.195567e-01	+1.639760e+02	-1.368297e-01	-1.587536e+02	-1.109845e+01	+1.292137e+00
+8.390970e+08	-1.975447e+01	+1.076913e+02	+3.319350e-01	+1.593098e+02	-1.837931e-01	-1.522700e+02	-1.152010e+01	-1.222556e+01
+8.467860e+08	-1.767941e+01	+1.439609e+02	+2.580222e-01	+1.394992e+02	-1.757724e-01	-1.516585e+02	-1.718336e+01	-1.597219e+01
+8.544749e+08	-1.673139e+01	+1.376888e+02	+1.236797e-01	+1.549799e+02	-6.278318e-01	-1.554135e+02	-1.859408e+01	-5.210339e+01
+8.621639e+08	-1.646506e+01	+1.316115e+02	-8.477187e-02	+1.713238e+02	-1.022946e+00	-1.565651e+02	-1.649642e+01	-7.444090e+01
+8.698528e+08	-1.820542e+01	+1.391875e+02	-3.726645e-01	+1.490552e+02	-1.245046e+00	-1.534438e+02	-1.664901e+01	-1.166161e+02
+8.775418e+08	-1.871406e+01	+1.511826e+02	-3.843584e-01	+1.342333e+02	-1.643003e+00	-1.576615e+02	-1.781520e+01	-8.001007e+01
+8.852308e+08	-2.123657e+01	+6.141121e+01	-4.088193e-01	+1.338414e+02	-1.781011e+00	-1.579159e+02	-1.898623e+01	-8.297938e+01
+8.929197e+08	-2.359943e+01	+6.555405e+01	-3.527349e-01	+1.319879e+02	-1.970231e+00	-1.593047e+02	-2.501643e+01	-7.495249e+01
+9.006087e+08	-2.620964e+01	+8.842024e+01	-7.726921e-01	+1.292578e+02	-1.862678e+00	-1.572509e+02	-2.057354e+01	-1.017182e+02
+9.082977e+08	-2.631541e+01	+1.040459e+02	-6.274619e-01	+1.265747e+02	-1.493992e+00	-1.572307e+02	-2.090314e+01	-1.136639e+02
+9.159866e+08	-2.427379e+01	+1.025061e+02	-6.492097e-01	+1.234976e+02	-1.236509e+00	-1.582075e+02	-2.348311e+01	-1.164386e+02
+9.236756e+08	-1.763858e+01	+1.596881e+02	-7.507802e-01	+1.197629e+02	-1.099046e+00	-1.601767e+02	-2.681560e+01	-1.176535e+02
+9.313645e+08	-1.703837e+01	+1.527317e+02	-9.329531e-01	+1.166443e+02	-8.955434e-01	-1.625107e+02	-3.173797e+01	-1.145742e+02
+9.390535e+08	-1.809310e+01	+1.442613e+02	-1.093836e+00	+9.576598e+01	-8.676698e-01	-1.652019e+02	-3.839714e+01	-8.226541e+01
+9.467425e+08	-1.778508e+01	+1.421093e+02	-1.231316e+00	+1.181829e+02	-1.084197e+00	-1.690291e+02	-3.965011e+01	+6.066599e+00
+9.544314e+08	-1.547019e+01	+1.376037e+02	-1.291476e+00	+1.295946e+02	-1.042707e+00	-1.714370e+02	-3.423977e+01	+2.736764e+01
+9.621204e+08	-1.600864e+01	+1.306768e+02	-1.178548e+00	+1.282608e+02	-1.103654e+00	-1.746756e+02	-2.969717e+01	+4.549232e+01
+9.698094e+08	-1.635712e+01	+1.249269e+02	-1.232897e+00	+1.273948e+02	-1.238243e+00	+1.777662e+02	-2.383210e+01	+5.875364e+01
+9.774983e+08	-1.557710e+01	+1.160998e+02	-1.100731e+00	+1.423564e+02	-1.544700e+00	+1.797438e+02	-2.458548e+01	+5.263836e+01
+9.851873e+08	-1.702964e+01	+1.027828e+02	-9.903149e-01	+1.208021e+02	-1.688943e+00	-1.769091e+02	-2.281971e+01	+3.108607e+01
+9.928763e+08	-1.937743e+01	+1.153222e+02	-7.109731e-01	+1.098433e+02	-1.887266e+00	+1.787151e+02	-1.895668e+01	+3.759164e+01
+1.000565e+09	-2.093674e+01	+1.215461e+02	-6.376702e-01	+1.064993e+02	-1.947538e+00	+1.763930e+02	-1.662819e+01	+3.473453e+01
+1.008254e+09	-1.917673e+01	+1.772860e+02	-5.333609e-01	+1.038301e+02	-1.860820e+00	+1.756036e+02	-1.510445e+01	+2.623944e+01
+1.015943e+09	-1.735229e+01	+1.630661e+02	-4.822559e-01	+1.001017e+02	-1.704023e+00	+1.747003e+02	-1.392829e+01	+1.595278e+01
+1.023632e+09	-1.957110e+01	+1.626864e+02	-4.359119e-01	+9.709468e+01	-1.388071e+00	+1.731810e+02	-1.312281e+01	+3.939273e+00
+1.031321e+09	-2.058417e+01	+1.657667e+02	-4.116088e-01	+9.338715e+01	-8.153948e-01	+1.687251e+02	-1.326949e+01	-3.674194e+01
+1.039010e+09	-1.845742e+01	+1.284261e+02	-3.323422e-01	+8.226279e+01	-7.929915e-01	+1.672087e+02	-1.296023e+01	-2.877678e+01
+1.046699e+09	-1.869002e+01	+1.323055e+02	-2.035264e-01	+9.490090e+01	-1.638680e-01	+1.568453e+02	-1.268583e+01	-1.682600e+01
+1.054388e+09	-2.031084e+01	+1.331029e+02	-1.823858e-01	+9.279258e+01	-6.949781e-01	+1.561896e+02	-1.260809e+01	-5.331066e+01
+1.062077e+09	-1.622724e+01	+1.189218e+02	-1.975333e-01	+8.787276e+01	-1.042549e+00	+1.540433e+02	-1.390864e+01	-9.994341e+01
+1.069766e+09	-1.574522e+01	+1.140043e+02	-3.450563e-01	+8.334744e+01	-1.670460e+00	+1.503079e+02	-1.338727e+01	-1.012631e+02
+1.077455e+09	-1.581302e+01	+1.075140e+02	-7.357013e-01	+7.982687e+01	-2.298772e+00	+1.487184e+02	-1.406760e+01	-1.167216e+02
+1.085144e+09	-1.801843e+01	+1.051765e+02	-1.167411e+00	+7.769047e+01	-3.007886e+00	+1.489120e+02	-1.472809e+01	-1.317587e+02
+1.092833e+09	-1.618169e+01	+9.365328e+01	-1.459467e+00	+7.782108e+01	-3.140075e+00	+1.525804e+02	-1.409805e+01	-1.528023e+02
+1.100522e+09	-1.699727e+01	+9.089901e+01	-1.302461e+00	+6.361566e+01	-2.509943e+00	+1.532555e+02	-1.657508e+01	-1.509774e+02
+1.108211e+09	-1.738930e+01	+9.037098e+01	-1.348880e+00	+5.539252e+01	-3.177297e+00	+1.489427e+02	-2.206021e+01	-1.476961e+02
+1.115900e+09	-2.121574e+01	+8.324956e+01	-1.330201e+00	+5.399053e+01	-3.524980e+00	+1.590286e+02	-1.859115e+01	-1.574740e+02
+1.123589e+09	-2.343861e+01	+7.124482e+01	-1.194390e+00	+5.292006e+01	-3.280898e+00	+1.681531e+02	-1.998301e+01	-1.617007e+02
+1.131278e+09	-2.216472e+01	+8.927706e+01	-9.186902e-01	+4.184130e+01	-3.084915e+00	+1.721815e+02	-2.487576e+01	-1.504070e+02
+1.138967e+09	-1.721676e+01	-1.019758e+02	-7.306146e-01	+5.719026e+01	-1.696672e+00	-1.785342e+02	-2.034778e+01	+1.756530e+02
+1.146656e+09	-2.254224e+01	-1.366701e+02	-7.950374e-01	+6.284666e+01	-8.267641e-01	+1.690252e+02	-2.290979e+01	+1.692597e+02
+1.154344e+09	-2.463665e+01	-1.699951e+02	-8.909789e-01	+5.949507e+01	+5.201190e-01	+1.580614e+02	-2.835361e+01	+1.499713e+02
+1.162033e+09	-2.397818e+01	+1.639614e+02	-9.870737e-01	+5.640781e+01	-1.302342e-01	+1.577474e+02	-3.658917e+01	-1.028783e+02
+1.169722e+09	-2.169642e+01	+1.339092e+02	-1.283510e+00	+5.525691e+01	+1.450518e-01	+1.538510e+02	-3.407367e+01	-4.672267e+01
+1.177411e+09	-2.042621e+01	+1.197543e+02	-1.419872e+00	+5.360594e+01	-2.409620e-01	+1.508787e+02	-2.957252e+01	-6.344992e+01
+1.185100e+09	-1.811595e+01	+1.017449e+02	-1.399013e+00	+5.307232e+01	-2.133983e-01	+1.474648e+02	-2.689926e+01	-7.061933e+01
+1.192789e+09	-1.403028e+01	+9.759622e+01	-1.362562e+00	+5.153078e+01	-1.578339e-01	+1.443740e+02	-2.858967e+01	-6.859430e+01
+1.200478e+09	-1.355010e+01	+8.833968e+01	-1.202727e+00	+4.984582e+01	-4.820457e-01	+1.408107e+02	-3.168873e+01	-4.214720e+01
+1.208167e+09	-1.334133e+01	+7.630016e+01	-1.060350e+00	+5.314126e+01	+5.432378e-02	+1.373992e+02	-3.852566e+01	-2.658078e+01
