# Hz S DB R 50.000000
+1.000000e+06	-1.685809e+01	+9.000626e+01	-3.652767e+01	+1.145580e+02	-3.559350e+01	+8.059878e+01	-4.572822e-01	+1.719463e+02
+8.688963e+06	-7.713242e+00	+1.154438e+02	-2.065321e+01	-1.739830e+02	-2.029420e+01	-1.682009e+02	-6.067046e+00	+1.116788e+02
+1.637793e+07	-1.297577e+01	+1.011253e+02	-2.089124e+01	-1.795657e+02	-2.066368e+01	-1.732894e+02	-1.088969e+01	+9.379584e+01
+2.406689e+07	-1.663195e+01	+9.461185e+01	-2.095390e+01	+1.778081e+02	-2.099768e+01	-1.785910e+02	-1.437360e+01	+4.461177e+01
+3.175585e+07	-1.957361e+01	+9.038315e+01	-2.098323e+01	+1.758217e+02	-2.096307e+01	-1.788506e+02	-1.661381e+01	+8.858381e+01
+3.944482e+07	-1.893756e+01	+9.408352e+01	-2.087171e+01	-1.686668e+02	-2.139419e+01	+1.794719e+02	-1.853068e+01	+9.463444e+01
+4.713378e+07	-2.940276e+01	+1.154778e+02	-2.100161e+01	+1.730424e+02	-2.081667e+01	+1.789570e+02	-1.925173e+01	-1.760613e+02
+5.482274e+07	-2.539931e+01	+8.225730e+01	-2.087928e+01	+1.713981e+02	-2.076423e+01	-1.712329e+02	-1.998225e+01	-1.293198e+02
+6.251171e+07	-2.752116e+01	+7.918838e+01	-2.085560e+01	+1.701946e+02	-2.062671e+01	+1.756693e+02	-2.096267e+01	-8.699445e+01
+7.020067e+07	-2.988066e+01	+7.530844e+01	-2.082572e+01	+1.694004e+02	-2.066736e+01	+1.741349e+02	-2.285444e+01	-6.195667e+01
+7.788963e+07	-3.224088e+01	+7.422864e+01	-2.070177e+01	+1.680920e+02	-2.072216e+01	+1.725385e+02	-2.540733e+01	-3.042412e+01
+8.557860e+07	-3.248456e+01	+7.695410e+01	-2.073934e+01	+1.608263e+02	-2.087168e+01	+1.707940e+02	-2.874552e+01	-3.631517e-01
+9.326756e+07	-4.019355e+01	+3.966284e+01	-2.071521e+01	-1.763807e+02	-2.088594e+01	+1.696514e+02	-3.229498e+01	+2.110210e+01
+1.009565e+08	-4.472948e+01	+4.305709e+01	-2.073100e+01	+1.734651e+02	-2.084501e+01	+1.685126e+02	-3.440474e+01	+2.445932e+01
+1.086455e+08	-5.145259e+01	+1.773082e+01	-2.076112e+01	+1.713399e+02	-2.088698e+01	+1.678121e+02	-3.605065e+01	+2.563314e+01
+1.163344e+08	-5.051687e+01	-5.952312e+01	-2.078524e+01	+1.697786e+02	-2.077530e+01	+1.670605e+02	-4.270961e+01	-7.049464e+00
+1.240234e+08	-4.490716e+01	-8.287543e+01	-2.076381e+01	+1.683751e+02	-2.079809e+01	+1.486220e+02	-4.009253e+01	-1.014283e+01
+1.317124e+08	-4.119572e+01	-8.862146e+01	-2.073102e+01	+1.664575e+02	-2.075032e+01	+1.654730e+02	-3.882445e+01	-2.981753e+01
+1.394013e+08	-3.780545e+01	-9.269241e+01	-2.075456e+01	-1.320819e+00	-2.074542e+01	+1.756962e+02	-2.944155e+01	+9.653472e+01
+1.470903e+08	-3.614496e+01	-9.463163e+01	-2.070398e+01	+3.078902e+01	-2.079605e+01	+1.641633e+02	-2.687982e+01	+1.320412e+02
+1.547793e+08	-3.460235e+01	-9.620615e+01	-2.074727e+01	+6.287122e+01	-2.089046e+01	+1.608544e+02	-2.505955e+01	+1.641745e+02
+1.624682e+08	-3.353728e+01	-9.620455e+01	-2.068579e+01	+9.528029e+01	-2.114556e+01	+1.600494e+02	-2.355705e+01	-1.681349e+02
+1.701572e+08	-3.316528e+01	-9.767680e+01	-2.069606e+01	+1.273450e+02	-2.146939e+01	+1.620797e+02	-2.334972e+01	-1.423323e+02
+1.778462e+08	-3.234278e+01	-9.396785e+01	-2.079361e+01	+1.553165e+02	-2.087206e+01	+1.634546e+02	-2.359378e+01	-1.207730e+02
+1.855351e+08	-3.146569e+01	-9.212316e+01	-2.086967e+01	+1.671747e+02	-2.065634e+01	+1.603416e+02	-2.418476e+01	-1.041161e+02
+1.932241e+08	-3.047093e+01	-9.151826e+01	-2.084886e+01	+1.557821e+02	-2.076104e+01	+1.577658e+02	-2.476248e+01	-9.183013e+01
+2.009130e+08	-2.965766e+01	-9.221596e+01	-2.076320e+01	+1.497071e+02	-2.064544e+01	+1.561667e+02	-2.484619e+01	-9.156224e+01
+2.086020e+08	-2.677389e+01	-1.298145e+02	-2.067963e+01	+1.487098e+02	-2.075615e+01	+1.553079e+02	-2.970036e+01	-1.008371e+02
+2.162910e+08	-2.663379e+01	-1.237166e+02	-2.033406e+01	+1.446535e+02	-2.094291e+01	+1.546502e+02	-2.875588e+01	-1.005472e+02
+2.239799e+08	-2.678733e+01	-1.184128e+02	-2.038892e+01	+1.453848e+02	-2.073892e+01	+5.260800e+01	-2.814993e+01	-9.876917e+01
+2.316689e+08	-2.656557e+01	-1.119808e+02	-2.039117e+01	+1.436987e+02	-2.068148e+01	+7.359456e+01	-2.709010e+01	-9.724490e+01
+2.393579e+08	-2.614454e+01	-1.061198e+02	-2.048597e+01	+1.422012e+02	-2.069325e+01	+9.491265e+01	-2.602387e+01	-9.790754e+01
+2.470468e+08	-2.572392e+01	-1.004361e+02	-2.091571e+01	+1.409878e+02	-2.054543e+01	+1.175956e+02	-2.523869e+01	-1.004514e+02
+2.547358e+08	-2.727731e+01	-9.897553e+01	-2.275775e+01	+1.414430e+02	-2.181423e+01	+1.372530e+02	-2.330785e+01	+6.216870e+01
+2.624247e+08	-2.716373e+01	-1.064476e+02	-2.273293e+01	+1.239722e+02	-2.204215e+01	+1.485711e+02	-2.539620e+01	+9.655716e+01
+2.701137e+08	-2.692179e+01	-9.662857e+01	-2.229523e+01	+1.510339e+02	-2.186840e+01	+1.510854e+02	-2.762786e+01	+1.359270e+02
+2.778027e+08	-2.686017e+01	-9.686429e+01	-2.224411e+01	+1.609803e+02	-2.172225e+01	+1.621834e+02	-2.776085e+01	+1.766199e+02
+2.854916e+08	-2.642962e+01	-9.423670e+01	-2.225785e+01	+1.617106e+02	-2.155785e+01	+1.473474e+02	-2.841506e+01	-1.425701e+02
+2.931806e+08	-2.597776e+01	-9.419318e+01	-2.222397e+01	+1.500620e+02	-2.135312e+01	+1.456470e+02	-2.890548e+01	-1.183567e+02
+3.008696e+08	-2.560153e+01	-9.517890e+01	-2.225540e+01	+1.475838e+02	-2.126401e+01	+1.438608e+02	-2.892225e+01	-1.095039e+02
+3.085585e+08	-2.543666e+01	-9.548976e+01	-2.230394e+01	+1.457868e+02	-2.121354e+01	+1.415979e+02	-2.865474e+01	-1.055116e+02
+3.162475e+08	-2.510956e+01	-9.552543e+01	-2.245568e+01	+1.445340e+02	-2.119505e+01	+1.399430e+02	-2.791453e+01	-1.043042e+02
+3.239365e+08	-2.470951e+01	-9.518748e+01	-2.250719e+01	-7.426677e+00	-2.123737e+01	+1.384240e+02	-2.658136e+01	-1.114990e+02
+3.316254e+08	-2.449308e+01	-9.505900e+01	-2.269670e+01	+2.597682e+01	-2.140415e+01	+1.372957e+02	-2.522410e+01	-1.182704e+02
+3.393144e+08	-2.418183e+01	-9.519245e+01	-2.285302e+01	+5.910072e+01	-2.125734e+01	+1.366813e+02	-2.584286e+01	-1.518099e+02
+3.470033e+08	-2.380098e+01	-9.581206e+01	-2.313995e+01	+9.152636e+01	-2.129003e+01	+1.364063e+02	-2.306418e+01	-1.228632e+02
+3.546923e+08	-2.366018e+01	-9.730452e+01	-2.332286e+01	+1.206410e+02	-2.116987e+01	+1.355481e+02	-2.194009e+01	-1.190948e+02
+3.623813e+08	-2.338515e+01	-9.807427e+01	-2.304709e+01	+1.413283e+02	-2.116945e+01	+1.345263e+02	-2.155517e+01	-1.187846e+02
+3.700702e+08	-2.319287e+01	-9.809936e+01	-2.331578e+01	+1.462663e+02	-2.135398e+01	+1.353184e+02	-2.158567e+01	-2.411906e+01
+3.777592e+08	-2.295618e+01	-9.797202e+01	-2.304107e+01	+1.462957e+02	-2.138834e+01	+1.353795e+02	-2.200626e+01	+1.955283e+01
+3.854482e+08	-2.270238e+01	-9.827597e+01	-2.243838e+01	+1.350596e+02	-2.148068e+01	+1.161953e+02	-2.335588e+01	+6.508793e+01
+3.931371e+08	-2.236776e+01	-9.818282e+01	-2.198108e+01	+1.244578e+02	-2.134318e+01	+1.313596e+02	-2.449218e+01	+1.146333e+02
+4.008261e+08	-2.219226e+01	-9.617509e+01	-2.185996e+01	+1.218456e+02	-2.130538e+01	+1.366462e+02	-2.414544e+01	+1.680770e+02
+4.085151e+08	-2.181620e+01	-1.010499e+02	-2.168768e+01	+1.190111e+02	-2.143610e+01	+1.361795e+02	-2.251442e+01	-1.494165e+02
+4.162040e+08	-2.153580e+01	-1.024167e+02	-2.171137e+01	+1.164663e+02	-2.157206e+01	+1.359396e+02	-2.226907e+01	-1.320836e+02
+4.238930e+08	-2.125201e+01	-1.025535e+02	-2.156966e+01	+1.153538e+02	-2.174211e+01	+1.446789e+02	-2.222471e+01	-1.293847e+02
+4.315819e+08	-2.088241e+01	-1.032409e+02	-2.162544e+01	+1.139450e+02	-2.175535e+01	+1.326033e+02	-2.170669e+01	-1.271038e+02
+4.392709e+08	-2.066708e+01	-1.052722e+02	-2.180484e+01	+1.144244e+02	-2.192866e+01	+1.315782e+02	-2.111638e+01	-1.276770e+02
+4.469599e+08	-2.053662e+01	-1.070369e+02	-2.159899e+01	+1.174427e+02	-2.175489e+01	+1.322754e+02	-2.071053e+01	-1.292817e+02
+4.546488e+08	-2.051942e+01	-1.078254e+02	-2.139840e+01	+1.319999e+02	-2.183658e+01	+1.422630e+02	-2.073030e+01	-1.296219e+02
+4.623378e+08	-2.042535e+01	-1.060228e+02	-2.136745e+01	+1.306510e+02	-2.145146e+01	+1.305844e+02	-2.070767e+01	-1.316259e+02
+4.700268e+08	-2.031463e+01	-1.091139e+02	-2.152513e+01	+1.298166e+02	-2.140410e+01	+1.303802e+02	-2.112343e+01	-1.458029e+02
+4.777157e+08	-2.030846e+01	-1.114598e+02	-2.148550e+01	+1.368038e+02	-2.130749e+01	+1.304446e+02	-2.168060e+01	-1.564254e+02
+4.854047e+08	-2.018896e+01	-1.115687e+02	-2.156484e+01	+1.230519e+02	-2.104019e+01	+1.671017e+01	-2.267115e+01	-1.342784e+02
+4.930936e+08	-2.004693e+01	-1.119619e+02	-2.170796e+01	+1.225420e+02	-2.091305e+01	+3.813455e+01	-2.430818e+01	-8.920658e+01
+5.007826e+08	-1.968537e+01	-1.128582e+02	-2.072131e+01	-4.279253e+01	-2.062795e+01	+5.946652e+01	-2.594237e+01	-5.021054e+01
+5.084716e+08	-1.992498e+01	-1.118353e+02	-2.056862e+01	-1.242276e+01	-2.010806e+01	+8.081810e+01	-3.116097e+01	+3.754440e+00
+5.161605e+08	-1.960220e+01	-1.117305e+02	-2.046926e+01	+1.871712e+01	-2.006417e+01	+1.054286e+02	-3.256703e+01	+1.211028e+02
+5.238495e+08	-1.949125e+01	-1.140787e+02	-2.066940e+01	+5.126912e+01	-2.027876e+01	+1.193367e+02	-2.433330e+01	-1.690702e+02
+5.315385e+08	-1.978616e+01	-1.132054e+02	-2.105852e+01	+8.314005e+01	-2.006990e+01	+1.203928e+02	-2.054449e+01	-1.403913e+02
+5.392274e+08	-1.968030e+01	-1.121300e+02	-2.156554e+01	+1.081985e+02	-2.017353e+01	+1.200933e+02	-1.983919e+01	-1.419822e+02
+5.469164e+08	-1.965176e+01	-1.124983e+02	-2.191852e+01	+1.215694e+02	-2.055133e+01	+1.168652e+02	-1.962918e+01	-1.417140e+02
+5.546054e+08	-1.942134e+01	-1.112857e+02	-2.213653e+01	+1.219925e+02	-2.097135e+01	+1.153999e+02	-1.888397e+01	-1.429957e+02
+5.622943e+08	-1.921715e+01	-1.112132e+02	-2.245708e+01	+1.216551e+02	-2.114865e+01	+1.141588e+02	-1.846416e+01	-1.420882e+02
+5.699833e+08	-1.900978e+01	-1.114939e+02	-2.252529e+01	+1.228306e+02	-2.142807e+01	+1.152062e+02	-1.812803e+01	-1.400333e+02
+5.776722e+08	-1.895168e+01	-1.114849e+02	-2.243839e+01	+1.140578e+02	-2.155980e+01	+1.058501e+02	-1.802560e+01	-1.382898e+02
+5.853612e+08	-1.886267e+01	-1.111334e+02	-2.228486e+01	+1.020601e+02	-2.164090e+01	+1.041604e+02	-1.799919e+01	-1.375405e+02
+5.930502e+08	-1.879849e+01	-1.101009e+02	-2.215256e+01	+1.000165e+02	-2.166954e+01	+1.027788e+02	-1.839226e+01	-1.410602e+02
+6.007391e+08	-1.868854e+01	-1.134971e+02	-2.219300e+01	+9.727527e+01	-2.178555e+01	+1.012260e+02	-1.845508e+01	-1.406213e+02
+6.084281e+08	-1.856894e+01	-1.107331e+02	-2.215745e+01	+9.454522e+01	-2.209165e+01	+9.924648e+01	-1.940867e+01	-1.609140e+02
+6.161171e+08	-1.846599e+01	-1.089253e+02	-2.219393e+01	+9.203223e+01	-2.226438e+01	+9.862694e+01	-1.960324e+01	-1.522538e+02
+6.238060e+08	-1.836147e+01	-1.080999e+02	-2.214850e+01	+5.965703e+01	-2.235584e+01	+9.749544e+01	-1.955447e+01	-1.390866e+02
+6.314950e+08	-1.834121e+01	-1.083241e+02	-2.207593e+01	+9.039577e+01	-2.235664e+01	+9.685361e+01	-1.963890e+01	-1.397963e+02
+6.391839e+08	-1.831955e+01	-1.081755e+02	-2.215324e+01	+1.038030e+02	-2.212512e+01	+9.544745e+01	-1.787236e+01	+7.208185e+00
+6.468729e+08	-1.822665e+01	-1.082210e+02	-2.211806e+01	+1.028569e+02	-2.203735e+01	+8.234941e+01	-1.846509e+01	+5.130014e+01
+6.545619e+08	-1.816583e+01	-1.081775e+02	-2.214763e+01	+8.577078e+01	-2.205026e+01	+9.601072e+01	-2.045514e+01	+1.058098e+02
+6.622508e+08	-1.773356e+01	-1.143058e+02	-2.204849e+01	+1.008317e+02	-2.202739e+01	+1.069889e+02	-2.075262e+01	+1.266313e+02
+6.699398e+08	-1.769074e+01	-1.144235e+02	-2.199048e+01	+9.991285e+01	-2.198726e+01	+1.175705e+02	-1.964891e+01	-1.576645e+02
+6.776288e+08	-1.758400e+01	-1.139911e+02	-2.184659e+01	+9.731513e+01	-2.184037e+01	+9.847530e+01	-1.903407e+01	-1.533106e+02
+6.853177e+08	-1.758509e+01	-1.146933e+02	-2.175493e+01	-6.429574e+01	-2.165381e+01	+9.751981e+01	-1.917151e+01	-1.533390e+02
+6.930067e+08	-1.747274e+01	-1.150510e+02	-2.168929e+01	-3.336910e+01	-2.150646e+01	+9.620875e+01	-1.931671e+01	-1.537203e+02
+7.006957e+08	-1.753263e+01	-1.146424e+02	-2.153877e+01	-2.853059e+00	-2.147893e+01	+9.515507e+01	-1.963783e+01	-1.544259e+02
+7.083846e+08	-1.728560e+01	-1.157190e+02	-2.133917e+01	+2.511958e+01	-2.131998e+01	+9.462264e+01	-1.996732e+01	-1.550800e+02
+7.160736e+08	-1.753646e+01	-1.158799e+02	-2.119243e+01	+5.683173e+01	-2.116754e+01	+9.992995e+01	-2.008571e+01	-1.552553e+02
+7.237625e+08	-1.759762e+01	-1.161264e+02	-2.103945e+01	+6.634181e+01	-2.117359e+01	+8.831784e+01	-2.020737e+01	-1.553016e+02
+7.314515e+08	-1.759012e+01	-1.164404e+02	-2.085123e+01	+9.423511e+01	-2.107037e+01	+8.436377e+01	-2.051474e+01	+1.642196e+02
+7.391405e+08	-1.761310e+01	-1.167826e+02	-2.063450e+01	+9.701460e+01	-2.097613e+01	+8.388405e+01	-2.023990e+01	-1.675116e+02
+7.468294e+08	-1.765314e+01	-1.171000e+02	-2.056837e+01	+9.704194e+01	-2.113911e+01	-1.819090e+01	-1.997082e+01	-1.513501e+02
+7.545184e+08	-1.778794e+01	-1.169314e+02	-2.055441e+01	+9.686789e+01	-2.114296e+01	+2.038331e+00	-1.968881e+01	-1.527739e+02
+7.622074e+08	-1.774347e+01	-1.165152e+02	-2.045573e+01	+9.713482e+01	-2.132476e+01	+2.131262e+01	-1.978097e+01	-1.534348e+02
+7.698963e+08	-1.770102e+01	-1.162861e+02	-2.036776e+01	+1.038371e+02	-2.177453e+01	+4.013989e+01	-1.450967e+01	+3.464067e+00
+7.775853e+08	-1.766838e+01	-1.163369e+02	-2.035089e+01	+8.516215e+01	-2.193678e+01	+5.860639e+01	-1.427500e+01	+3.767370e+01
+7.852742e+08	-1.759878e+01	-1.165800e+02	-2.019508e+01	+7.881832e+01	-2.199051e+01	+7.327514e+01	-1.482648e+01	+7.232128e+01
+7.929632e+08	-1.755057e+01	-1.165336e+02	-2.025299e+01	+7.934206e+01	-2.196956e+01	+8.111388e+01	-1.948779e+01	+1.293635e+02
+8.006522e+08	-1.817937e+01	-1.139370e+02	-2.035990e+01	+9.487808e+01	-2.235557e+01	+8.499353e+01	-1.936254e+01	+1.657105e+02
+8.083411e+08	-1.806016e+01	-1.164435e+02	-2.058853e+01	+7.903738e+01	-2.240180e+01	+8.533214e+01	-1.962131e+01	-1.594315e+02
+8.160301e+08	-1.801670e+01	-1.160103e+02	-2.071289e+01	+6.211446e+01	-2.250173e+01	+8.532198e+01	-2.031569e+01	-1.494390e+02
+8.237191e+08	-1.796584e+01	-1.168334e+02	-2.089787e+01	+8.553746e+01	-2.246026e+01	+8.516742e+01	-2.060280e+01	-1.564022e+02
+8.314080e+08	-1.791976e+01	-1.172305e+02	-2.106477e+01	+9.624266e+01	-2.251606e+01	+8.426674e+01	-2.056593e+01	-1.609828e+02
+8.390970e+08	-1.794278e+01	-1.173766e+02	-2.121058e+01	+9.644588e+01	-2.262086e+01	+8.383464e+01	-2.037211e+01	-1.640854e+02
+8.467860e+08	-1.796099e+01	-1.176697e+02	-2.126257e+01	+9.580471e+01	-2.259028e+01	+8.336579e+01	-2.010767e+01	-1.652468e+02
+8.544749e+08	-1.802081e+01	-1.181578e+02	-2.140392e+01	+9.472259e+01	-2.257363e+01	+8.264462e+01	-2.048746e+01	-1.683829e+02
+8.621639e+08	-1.799896e+01	-1.186482e+02	-2.143612e+01	+9.349313e+01	-2.271804e+01	+8.681888e+01	-2.082187e+01	-1.758186e+02
+8.698528e+08	-1.804327e+01	-1.195844e+02	-2.148263e+01	+1.021249e+02	-2.273578e+01	+7.665147e+01	-1.980129e+01	-1.611259e+02
+8.775418e+08	-1.791558e+01	-1.124385e+02	-2.174414e+01	-7.495338e+01	-2.269023e+01	+7.394431e+01	-2.010593e+01	-1.609731e+02
+8.852308e+08	-1.784505e+01	-1.154926e+02	-2.184670e+01	-4.515583e+01	-2.267162e+01	+7.375994e+01	-2.050520e+01	-1.611439e+02
+8.929197e+08	-1.790007e+01	-1.195919e+02	-2.186905e+01	-1.119883e+01	-2.257468e+01	+7.368372e+01	-2.075957e+01	-1.616108e+02
+9.006087e+08	-1.791489e+01	-1.217076e+02	-2.186415e+01	+2.177794e+01	-2.247065e+01	+7.298721e+01	-2.117571e+01	-1.613337e+02
+9.082977e+08	-1.784437e+01	-1.230825e+02	-2.193059e+01	+5.423129e+01	-2.288009e+01	+7.404699e+01	-1.333887e+01	+2.131356e+01
+9.159866e+08	-1.786434e+01	-1.235610e+02	-2.193297e+01	+7.556469e+01	-2.277134e+01	+5.026709e+01	-1.366117e+01	+5.249807e+01
+9.236756e+08	-1.787364e+01	-1.237679e+02	-2.176145e+01	+8.080287e+01	-2.232342e+01	+6.570862e+01	-1.450844e+01	+8.616107e+01
+9.313645e+08	-1.781294e+01	-1.238837e+02	-2.144788e+01	+7.824644e+01	-2.216562e+01	+7.327581e+01	-1.612970e+01	+1.259078e+02
+9.390535e+08	-1.777755e+01	-1.241029e+02	-2.134905e+01	+7.674733e+01	-2.207207e+01	+7.350296e+01	-1.887676e+01	+1.543599e+02
+9.467425e+08	-1.779216e+01	-1.242187e+02	-2.123614e+01	+7.622144e+01	-2.216964e+01	+7.266682e+01	-2.130426e+01	-1.424645e+02
+9.544314e+08	-1.784697e+01	-1.241020e+02	-2.123805e+01	+7.476523e+01	-2.216057e+01	+7.107759e+01	-2.172272e+01	-1.538904e+02
+9.621204e+08	-1.775965e+01	-1.240994e+02	-2.117842e+01	+7.407836e+01	-2.219932e+01	+6.977358e+01	-2.052104e+01	-1.652039e+02
+9.698094e+08	-1.766521e+01	-1.243359e+02	-2.110715e+01	+6.552970e+01	-2.214979e+01	+6.830247e+01	-1.992859e+01	-1.677682e+02
+9.774983e+08	-1.813910e+01	-1.547542e+02	-2.114848e+01	+5.381965e+01	-2.214336e+01	+6.800227e+01	-1.991966e+01	-1.673490e+02
+9.851873e+08	-1.802323e+01	-1.488487e+02	-2.124690e+01	+5.231930e+01	-2.223076e+01	+6.787304e+01	-2.035093e+01	-1.673629e+02
+9.928763e+08	-1.785228e+01	-1.436252e+02	-2.120270e+01	+5.165539e+01	-2.225577e+01	+6.781414e+01	-2.103919e+01	-1.657244e+02
+1.000565e+09	-1.781661e+01	-1.381851e+02	-2.124720e+01	+4.343093e+01	-2.269078e+01	+8.779195e+01	-2.062128e+01	+1.640286e+02
+1.008254e+09	-1.776190e+01	-1.334232e+02	-2.138508e+01	+6.376245e+01	-2.235773e+01	+7.066802e+01	-2.191389e+01	-1.768302e+02
+1.015943e+09	-1.769626e+01	-1.295319e+02	-2.133547e+01	+6.960414e+01	-2.233497e+01	-4.715428e+01	-2.257769e+01	-1.635611e+02
+1.023632e+09	-1.773667e+01	-1.254934e+02	-2.156859e+01	+6.888322e+01	-2.244189e+01	-2.665825e+01	-2.287957e+01	-1.664870e+02
+1.031321e+09	-1.764548e+01	-1.237877e+02	-2.178407e+01	+6.740572e+01	-2.235436e+01	-3.411245e+00	-1.773110e+01	-1.545873e+01
+1.039010e+09	-1.754419e+01	-1.218723e+02	-2.194498e+01	+6.523654e+01	-2.239812e+01	+1.805280e+01	-1.704263e+01	+2.034527e+01
+1.046699e+09	-1.773474e+01	-1.205903e+02	-2.210798e+01	+6.308295e+01	-2.243965e+01	+3.500899e+01	-1.726100e+01	+5.352555e+01
+1.054388e+09	-1.763797e+01	-1.213524e+02	-2.233733e+01	-1.048119e+02	-2.245378e+01	+4.924861e+01	-1.814467e+01	+8.906502e+01
+1.062077e+09	-1.761419e+01	-1.193489e+02	-2.248751e+01	-7.146181e+01	-2.266113e+01	+5.670886e+01	-2.029532e+01	+1.361894e+02
+1.069766e+09	-1.754029e+01	-1.266644e+02	-2.265175e+01	-4.030479e+01	-2.247574e+01	+5.861700e+01	-2.329752e+01	-1.732490e+02
+1.077455e+09	-1.738004e+01	-1.258214e+02	-2.266060e+01	-1.458063e+01	-2.254629e+01	+5.864196e+01	-2.388263e+01	-1.641746e+02
+1.085144e+09	-1.736300e+01	-1.252189e+02	-2.272996e+01	+1.829545e+01	-2.254799e+01	+5.847462e+01	-2.419451e+01	-1.714587e+02
+1.092833e+09	-1.736796e+01	-1.250148e+02	-2.271121e+01	+4.249130e+01	-2.252485e+01	+5.759327e+01	-2.415540e+01	-1.774817e+02
+1.100522e+09	-1.728092e+01	-1.217915e+02	-2.256043e+01	+5.264678e+01	-2.264972e+01	+5.742984e+01	-2.484618e+01	-1.794961e+02
+1.108211e+09	-1.735187e+01	-1.217876e+02	-2.292004e+01	+5.173128e+01	-2.245561e+01	+5.648242e+01	-2.524025e+01	-1.798782e+02
+1.115900e+09	-1.734912e+01	-1.216511e+02	-2.270885e+01	+5.081233e+01	-2.238021e+01	+5.512059e+01	-2.570249e+01	-1.788513e+02
+1.123589e+09	-1.749175e+01	-1.243805e+02	-2.247543e+01	+4.879748e+01	-2.218437e+01	+5.365226e+01	-2.590122e+01	-1.765602e+02
+1.131278e+09	-1.749744e+01	-1.248700e+02	-2.225498e+01	+4.747969e+01	-2.211455e+01	+5.192960e+01	-2.603931e+01	-1.743950e+02
+1.138967e+09	-1.757966e+01	-1.251231e+02	-2.205880e+01	+4.639596e+01	-2.203349e+01	+4.938169e+01	-2.151980e+01	+1.321482e+02
+1.146656e+09	-1.766742e+01	-1.250195e+02	-2.199266e+01	+4.557481e+01	-2.211227e+01	+6.362547e+01	-2.503111e+01	+1.666258e+02
+1.154344e+09	-1.775611e+01	-1.248065e+02	-2.182638e+01	+4.493851e+01	-2.228080e+01	+4.855289e+01	-2.696765e+01	-1.742911e+02
+1.162033e+09	-1.766137e+01	-1.247755e+02	-2.180701e+01	+3.708642e+01	-2.242178e+01	+3.924246e+01	-2.585915e+01	-1.744883e+02
+1.169722e+09	-1.781713e+01	-1.247943e+02	-2.178005e+01	+2.327202e+01	-2.253552e+01	+3.391816e+01	-2.471328e+01	-5.503074e+00
+1.177411e+09	-1.789865e+01	-1.243224e+02	-2.179978e+01	+7.796423e+00	-2.259365e+01	+1.410199e+01	-2.227915e+01	+4.153539e+01
+1.185100e+09	-1.798892e+01	-1.236243e+02	-2.175994e+01	+3.081696e+01	-2.266374e+01	+2.752863e+01	-2.115830e+01	+7.815256e+01
+1.192789e+09	-1.784718e+01	-1.235598e+02	-2.193941e+01	+4.018859e+01	-2.265396e+01	+3.453502e+01	-2.151309e+01	+1.170804e+02
+1.200478e+09	-1.781704e+01	-1.235253e+02	-2.198127e+01	+4.244290e+01	-2.267976e+01	+3.678404e+01	-2.258422e+01	+1.580006e+02
+1.208167e+09	-1.785000e+01	-1.234708e+02	-2.219379e+01	+4.203858e+01	-2.253521e+01	+3.507431e+01	-2.482266e+01	-1.593778e+02
