# Hz S DB R 50.000000
+1.000000e+06	+1.129484e+01	+1.530792e+02	-3.266862e+00	+6.756598e+01	-1.016581e+01	+7.689150e+01	+1.072493e+01	+1.646921e+02
+8.688963e+06	+2.033548e+00	+1.011730e+02	+8.476246e+00	+0.000000e+00	+8.165161e+00	-8.445748e+00	+2.229912e+00	+7.759531e+01
+1.637793e+07	-4.098065e+00	+8.041056e+01	+9.038416e+00	-1.143695e+01	+8.803871e+00	-5.806452e+00	-2.954545e+00	+3.642229e+01
+2.406689e+07	-8.888387e+00	-6.879765e+01	+9.225806e+00	-3.167155e+01	+9.059355e+00	-1.953079e+01	-6.390029e+00	-4.926686e+00
+3.175585e+07	-1.304000e+01	-6.563050e+01	+9.288270e+00	-5.014663e+01	+9.250968e+00	-3.202346e+01	-9.325806e+00	-4.046921e+00
+3.944482e+07	-1.642516e+01	-7.178886e+01	+9.225806e+00	-6.774194e+01	+9.314839e+00	-4.398827e+01	-1.238651e+01	-2.568915e+01
+4.713378e+07	-1.693613e+01	+8.146628e+01	+9.225806e+00	-8.498534e+01	+9.314839e+00	-5.577713e+01	-1.607185e+01	+4.046921e+01
+5.482274e+07	-1.623355e+01	+8.304985e+01	+9.100880e+00	-1.015249e+02	+9.314839e+00	-6.721408e+01	-2.019443e+01	+4.046921e+01
+6.251171e+07	-1.514774e+01	+7.636364e+01	+9.100880e+00	-1.177126e+02	+9.250968e+00	-7.812317e+01	-2.194340e+01	-1.882698e+01
+7.020067e+07	-1.438129e+01	+6.422287e+01	+9.038416e+00	-1.337243e+02	+9.187097e+00	-8.885630e+01	-1.950733e+01	-8.093842e+00
+7.788963e+07	-1.399806e+01	+4.909091e+01	+9.100880e+00	-1.493842e+02	+9.187097e+00	-9.923754e+01	-1.682141e+01	-1.530792e+01
+8.557860e+07	-1.387032e+01	+3.501466e+01	+9.038416e+00	+1.652199e+02	+9.187097e+00	-1.097947e+02	-1.507243e+01	-3.202346e+01
+9.326756e+07	-1.406194e+01	-1.214076e+01	+9.100880e+00	+1.770088e+02	+9.187097e+00	-1.203519e+02	-1.401056e+01	-5.331378e+01
+1.009565e+08	-1.476452e+01	-5.630499e+00	+9.100880e+00	+1.719062e+02	+9.187097e+00	-1.310850e+02	-1.357331e+01	-7.636364e+01
+1.086455e+08	-1.553097e+01	-2.780059e+01	+9.038416e+00	+1.557185e+02	+9.123226e+00	-1.416422e+02	-1.388563e+01	-1.015249e+02
+1.163344e+08	-1.661677e+01	-5.507331e+01	+9.038416e+00	+1.397067e+02	+9.059355e+00	-1.520235e+02	-1.482258e+01	-1.303812e+02
+1.240234e+08	-1.757484e+01	-8.516129e+01	+8.975953e+00	+1.236950e+02	+9.059355e+00	-1.624047e+02	-1.607185e+01	+1.629326e+02
+1.317124e+08	-1.846903e+01	-1.177126e+02	+8.913490e+00	+1.082111e+02	+8.995484e+00	+1.719062e+02	-1.725865e+01	+1.664516e+02
+1.394013e+08	-1.872452e+01	+1.544868e+02	+8.913490e+00	+9.290323e+01	+8.995484e+00	+1.775367e+02	-1.757097e+01	+1.226393e+02
+1.470903e+08	-1.814968e+01	+1.727859e+02	+8.975953e+00	+7.724340e+01	+9.059355e+00	+1.734897e+02	-1.669648e+01	+7.847507e+01
+1.547793e+08	-1.700000e+01	+1.412903e+02	+9.038416e+00	+6.087977e+01	+9.187097e+00	+1.638123e+02	-1.494751e+01	+3.906158e+01
+1.624682e+08	-1.572258e+01	+1.113783e+02	+9.100880e+00	+4.451613e+01	+9.314839e+00	+1.536070e+02	-1.313607e+01	-5.806452e+00
+1.701572e+08	-1.476452e+01	+8.252199e+01	+9.100880e+00	+2.832845e+01	+9.570323e+00	+1.419941e+02	-1.169941e+01	-6.158358e+00
+1.778462e+08	-1.431742e+01	+5.296188e+01	+9.038416e+00	-1.196481e+01	+9.506452e+00	+1.291496e+02	-1.070000e+01	-3.378299e+01
+1.855351e+08	-1.380645e+01	-2.850440e+01	+8.975953e+00	+0.000000e+00	+9.250968e+00	+1.184164e+02	-1.032522e+01	-5.982405e+01
+1.932241e+08	-1.335935e+01	-5.102639e+00	+8.913490e+00	-2.815249e+00	+9.123226e+00	+1.082111e+02	-1.032522e+01	-8.568915e+01
+2.009130e+08	-1.284839e+01	-1.565982e+01	+8.788563e+00	-1.847507e+01	+9.059355e+00	+9.818182e+01	-1.070000e+01	-1.113783e+02
+2.086020e+08	-1.252903e+01	-4.011730e+01	+8.726100e+00	-3.395894e+01	+8.995484e+00	+8.797654e+01	-1.144956e+01	-1.375953e+02
+2.162910e+08	-1.220968e+01	-6.439883e+01	+8.851026e+00	-4.926686e+01	+8.995484e+00	+7.812317e+01	-1.263636e+01	+1.641642e+02
+2.239799e+08	-1.176258e+01	-8.938416e+01	+8.663636e+00	-6.475073e+01	+8.995484e+00	+6.826979e+01	-1.438534e+01	+1.726100e+02
+2.316689e+08	-1.125161e+01	-1.145455e+02	+8.726100e+00	-8.041056e+01	+9.059355e+00	+5.824047e+01	-1.675894e+01	+1.365396e+02
+2.393579e+08	-1.054903e+01	-1.388270e+02	+8.788563e+00	-9.624633e+01	+9.187097e+00	+4.785924e+01	-1.869531e+01	+8.252199e+01
+2.470468e+08	-1.003806e+01	+1.648680e+02	+8.975953e+00	-1.122581e+02	+9.314839e+00	+3.677419e+01	-1.844545e+01	-2.392962e+01
+2.547358e+08	-1.144399e+01	+1.741935e+02	+8.787977e+00	-1.296774e+02	+8.854311e+00	+2.480938e+01	-1.787842e+01	-4.574780e+00
+2.624247e+08	-1.184199e+01	+1.525513e+02	+8.721642e+00	-1.478006e+02	+8.655308e+00	+1.390029e+01	-1.549038e+01	-4.099707e+01
+2.701137e+08	-1.204100e+01	+1.302053e+02	+8.323636e+00	+1.645161e+02	+8.522639e+00	-3.695015e+00	-1.363302e+01	-6.826979e+01
+2.778027e+08	-1.270434e+01	+1.071554e+02	+8.058299e+00	+1.771848e+02	+8.323636e+00	-2.287390e+00	-1.230633e+01	-9.571848e+01
+2.854916e+08	-1.350035e+01	+8.551320e+01	+7.925630e+00	+1.729619e+02	+8.124633e+00	-1.108504e+01	-1.151032e+01	-1.212317e+02
+2.931806e+08	-1.449537e+01	+6.404692e+01	+7.792962e+00	+1.601173e+02	+8.124633e+00	-2.023460e+01	-1.104598e+01	-1.451613e+02
+3.008696e+08	-1.575572e+01	-4.046921e+01	+7.792962e+00	+1.455132e+02	+8.124633e+00	-2.973607e+01	-1.071431e+01	+1.683871e+02
+3.085585e+08	-1.748041e+01	-1.178886e+01	+7.925630e+00	+1.303812e+02	+8.257302e+00	-3.958944e+01	-1.058164e+01	+1.745455e+02
+3.162475e+08	-1.854176e+01	-1.988270e+01	+8.124633e+00	+1.143695e+02	+8.323636e+00	-4.997067e+01	-1.064798e+01	+1.490323e+02
+3.239365e+08	-1.880710e+01	-6.052786e+01	+8.124633e+00	+9.747801e+01	+8.456305e+00	-6.087977e+01	-1.117865e+01	+1.201760e+02
+3.316254e+08	-1.794475e+01	-1.009971e+02	+8.190968e+00	+8.076246e+01	+8.456305e+00	-7.214076e+01	-1.197466e+01	+8.832845e+01
+3.393144e+08	-1.615372e+01	-1.365396e+02	+8.058299e+00	+6.404692e+01	+8.323636e+00	-8.340176e+01	-1.277067e+01	+5.436950e+01
+3.470033e+08	-1.429636e+01	+1.655718e+02	+7.859296e+00	+4.803519e+01	+8.124633e+00	-9.431085e+01	-1.356669e+01	-1.935484e+01
+3.546923e+08	-1.283701e+01	+1.752493e+02	+7.660293e+00	+3.290323e+01	+7.859296e+00	-1.043402e+02	-1.403103e+01	+0.000000e+00
+3.623813e+08	-1.157666e+01	+1.578299e+02	+7.527625e+00	+1.777126e+01	+7.726628e+00	-1.136657e+02	-1.409736e+01	-3.061584e+01
+3.700702e+08	-1.064798e+01	+1.398827e+02	+7.527625e+00	-2.991202e+00	+7.660293e+00	-1.228152e+02	-1.369935e+01	-6.052786e+01
+3.777592e+08	-9.984633e+00	+1.233431e+02	+7.461290e+00	+0.000000e+00	+7.660293e+00	-1.317889e+02	-1.303601e+01	-8.797654e+01
+3.854482e+08	-9.586628e+00	+1.069795e+02	+7.527625e+00	-8.269795e+00	+7.792962e+00	-1.412903e+02	-1.243900e+01	-1.131378e+02
+3.931371e+08	-9.586628e+00	+9.061584e+01	+7.726628e+00	-2.357771e+01	+7.925630e+00	-1.511437e+02	-1.210733e+01	-1.374194e+02
+4.008261e+08	-1.024997e+01	+7.478006e+01	+7.859296e+00	-3.976540e+01	+8.124633e+00	-1.613490e+02	-1.197466e+01	-1.595894e+02
+4.085151e+08	-1.078065e+01	+6.035191e+01	+7.925630e+00	-5.648094e+01	+8.323636e+00	+1.720821e+02	-1.217367e+01	+1.766569e+02
+4.162040e+08	-1.210733e+01	+4.785924e+01	+7.925630e+00	-7.302053e+01	+8.456305e+00	+1.773607e+02	-1.290334e+01	+1.696188e+02
+4.238930e+08	-1.396469e+01	-3.818182e+01	+7.859296e+00	-8.973607e+01	+8.456305e+00	+1.704985e+02	-1.383202e+01	+1.539589e+02
+4.315819e+08	-1.648540e+01	-3.413490e+01	+7.726628e+00	-1.057478e+02	+8.456305e+00	+1.592375e+02	-1.502604e+01	+1.423460e+02
+4.392709e+08	-1.880710e+01	-4.082111e+01	+7.726628e+00	-1.214076e+02	+8.389971e+00	+1.474487e+02	-1.568938e+01	+1.360117e+02
+4.469599e+08	-2.000111e+01	-5.472141e+01	+7.726628e+00	-1.379472e+02	+8.257302e+00	+1.365396e+02	-1.575572e+01	+1.284457e+02
+4.546488e+08	-1.893977e+01	+7.108504e+01	+7.660293e+00	-1.543109e+02	+8.124633e+00	+1.256305e+02	-1.555672e+01	+1.203519e+02
+4.623378e+08	-1.655173e+01	+7.636364e+01	+7.660293e+00	+1.710264e+02	+7.991965e+00	+1.147214e+02	-1.495971e+01	+1.097947e+02
+4.700268e+08	-1.456170e+01	+7.214076e+01	+7.527625e+00	+1.775367e+02	+7.792962e+00	+1.036364e+02	-1.429636e+01	+9.589443e+01
+4.777157e+08	-1.316868e+01	+6.404692e+01	+7.394956e+00	+1.650440e+02	+7.593959e+00	+9.325513e+01	-1.383202e+01	+7.847507e+01
+4.854047e+08	-1.237267e+01	+5.436950e+01	+7.129619e+00	+1.486804e+02	+7.394956e+00	+8.304985e+01	-1.363302e+01	+5.788856e+01
+4.930936e+08	-1.204100e+01	+4.398827e+01	+6.930616e+00	+1.328446e+02	+7.129619e+00	+7.354839e+01	-1.356669e+01	+3.519062e+01
+5.007826e+08	-1.180000e+01	+3.413490e+01	+7.282933e+00	+1.168328e+02	+7.334897e+00	+6.439883e+01	-1.202686e+01	-9.677419e+00
+5.084716e+08	-1.245982e+01	+2.586510e+01	+7.028856e+00	+1.015249e+02	+7.334897e+00	+5.542522e+01	-1.196334e+01	-1.231672e+00
+5.161605e+08	-1.338358e+01	-1.953079e+01	+6.838299e+00	+8.692082e+01	+7.400880e+00	+4.592375e+01	-1.158223e+01	-3.325513e+01
+5.238495e+08	-1.490117e+01	-2.410557e+01	+6.774780e+00	+7.214076e+01	+7.466862e+00	+3.642229e+01	-1.075648e+01	-6.739003e+01
+5.315385e+08	-1.694663e+01	-1.829912e+01	+6.774780e+00	+5.718475e+01	+7.598827e+00	+2.604106e+01	-9.676657e+00	-1.020528e+02
+5.392274e+08	-1.787038e+01	-3.325513e+01	+6.711261e+00	+4.187683e+01	+7.664809e+00	+1.495601e+01	-8.469795e+00	-1.351320e+02
+5.469164e+08	-1.661672e+01	-4.750733e+01	+6.774780e+00	+2.639296e+01	+7.598827e+00	-4.046921e+00	-7.517009e+00	+1.668035e+02
+5.546054e+08	-1.443930e+01	+5.366569e+01	+6.584223e+00	-1.073314e+01	+7.400880e+00	-3.519062e+00	-6.818299e+00	+1.740176e+02
+5.622943e+08	-1.219589e+01	+5.278592e+01	+6.393666e+00	+0.000000e+00	+7.136950e+00	-1.196481e+01	-6.246628e+00	+1.493842e+02
+5.699833e+08	-1.034839e+01	+4.733138e+01	+6.330147e+00	+0.000000e+00	+6.873021e+00	-2.164223e+01	-5.801994e+00	+1.268622e+02
+5.776722e+08	-8.962757e+00	+3.976540e+01	+6.330147e+00	-1.442815e+01	+6.675073e+00	-3.026393e+01	-5.357361e+00	+1.052199e+02
+5.853612e+08	-7.841056e+00	+3.096774e+01	+6.393666e+00	-2.868035e+01	+6.543109e+00	-3.835777e+01	-5.039765e+00	+8.428152e+01
+5.930502e+08	-6.983284e+00	+2.129032e+01	+6.520704e+00	-4.328446e+01	+6.609091e+00	-4.645161e+01	-4.722170e+00	+6.351906e+01
+6.007391e+08	-6.389443e+00	-1.038123e+01	+6.647742e+00	-5.824047e+01	+6.741056e+00	-5.472141e+01	-4.531613e+00	+4.258065e+01
+6.084281e+08	-6.059531e+00	-2.287390e+00	+6.838299e+00	-7.337243e+01	+7.070968e+00	-6.369501e+01	-4.404575e+00	+2.058651e+01
+6.161171e+08	-5.993548e+00	-7.038123e+00	+6.965337e+00	-8.903226e+01	+7.400880e+00	-7.372434e+01	-4.404575e+00	+0.000000e+00
+6.238060e+08	-6.389443e+00	-1.935484e+01	+7.092375e+00	-1.052199e+02	+7.730792e+00	-8.480938e+01	-4.531613e+00	-8.973607e+00
+6.314950e+08	-7.247214e+00	-3.131965e+01	+7.219413e+00	-1.215836e+02	+7.928739e+00	-9.677419e+01	-4.976246e+00	-3.589443e+01
+6.391839e+08	-8.698827e+00	+4.293255e+01	+7.282933e+00	-1.379472e+02	+7.928739e+00	-9.677419e+01	-4.912727e+00	-3.589443e+01
+6.468729e+08	-1.100821e+01	+5.173021e+01	+7.282933e+00	-1.544868e+02	+7.928739e+00	+1.530792e+02	-5.611437e+00	-9.307918e+01
+6.545619e+08	-1.430733e+01	+5.489736e+01	+7.219413e+00	+1.710264e+02	+7.664809e+00	-1.328446e+02	-7.644047e+00	-1.233431e+02
+6.622508e+08	-1.859619e+01	+4.187683e+01	+7.155894e+00	+1.771848e+02	+7.334897e+00	-1.434018e+02	-8.596833e+00	+1.534311e+02
+6.699398e+08	-1.925601e+01	-8.093842e+00	+7.092375e+00	+1.675073e+02	+7.070968e+00	-1.530792e+02	-9.359062e+00	+1.764809e+02
+6.776288e+08	-1.490117e+01	+1.161290e+01	+7.028856e+00	+1.511437e+02	+6.939003e+00	-1.625806e+02	-9.867214e+00	+1.599413e+02
+6.853177e+08	-1.120616e+01	-1.038123e+01	+6.901818e+00	+1.353079e+02	+6.807038e+00	+1.719062e+02	-1.005777e+01	+1.337243e+02
+6.930067e+08	-8.698827e+00	-1.055718e+01	+6.838299e+00	+1.189443e+02	+6.807038e+00	+1.764809e+02	-1.018481e+01	+1.094428e+02
+7.006957e+08	-6.917302e+00	-4.046921e+00	+6.711261e+00	+1.031085e+02	+6.807038e+00	+1.747214e+02	-1.024833e+01	+8.709677e+01
+7.083846e+08	-5.729619e+00	-1.372434e+01	+6.520704e+00	+8.727273e+01	+6.873021e+00	+1.664516e+02	-1.037537e+01	+6.668622e+01
+7.160736e+08	-5.003812e+00	-2.604106e+01	+6.330147e+00	+7.196481e+01	+6.939003e+00	+1.562463e+02	-1.056592e+01	+4.873900e+01
+7.237625e+08	-4.739883e+00	-3.800587e+01	+6.139589e+00	+5.700880e+01	+7.004985e+00	+1.460411e+02	-1.075648e+01	+3.325513e+01
+7.314515e+08	-4.739883e+00	-4.961877e+01	+6.012551e+00	+4.240469e+01	+7.004985e+00	+1.358358e+02	-1.094704e+01	+2.023460e+01
+7.391405e+08	-5.003812e+00	-6.087977e+01	+5.949032e+00	+2.815249e+01	+7.004985e+00	+1.252786e+02	-1.088352e+01	+8.621701e+00
+7.468294e+08	-5.597654e+00	-7.178886e+01	+5.949032e+00	+1.302053e+01	+7.004985e+00	+1.150733e+02	-1.056592e+01	+0.000000e+00
+7.545184e+08	-6.521408e+00	-8.217009e+01	+6.012551e+00	+0.000000e+00	+6.939003e+00	+1.048680e+02	-9.994252e+00	+0.000000e+00
+7.622074e+08	-7.841056e+00	-9.219941e+01	+6.139589e+00	+0.000000e+00	+6.939003e+00	+9.483871e+01	-9.422581e+00	-9.149560e+00
+7.698963e+08	-9.688563e+00	+1.004692e+02	+6.266628e+00	-1.302053e+01	+6.939003e+00	+8.463343e+01	-8.914428e+00	-2.445748e+01
+7.775853e+08	-1.232786e+01	+1.045161e+02	+6.330147e+00	-2.938416e+01	+6.939003e+00	+7.442815e+01	-8.469795e+00	-4.117302e+01
+7.852742e+08	-1.562698e+01	+9.941349e+01	+6.393666e+00	-4.521994e+01	+6.939003e+00	+6.422287e+01	-8.215718e+00	-5.964809e+01
+7.929632e+08	-1.787038e+01	+7.495601e+01	+6.330147e+00	-6.123167e+01	+6.939003e+00	+5.419355e+01	-8.152199e+00	-7.970674e+01
+8.006522e+08	-1.613226e+01	-4.997067e+01	+6.812669e+00	-7.706745e+01	+7.170968e+00	+4.416422e+01	-7.790029e+00	-1.015249e+02
+8.083411e+08	-1.267742e+01	-4.275660e+01	+6.812669e+00	-9.272727e+01	+7.238710e+00	+3.448680e+01	-7.854076e+00	-1.251026e+02
+8.160301e+08	-9.967742e+00	-4.733138e+01	+6.876716e+00	-1.085630e+02	+7.238710e+00	+2.428152e+01	-7.982170e+00	+1.504399e+02
+8.237191e+08	-8.070968e+00	-5.542522e+01	+6.940762e+00	-1.243988e+02	+7.306452e+00	+1.354839e+01	-8.110264e+00	+1.750733e+02
+8.314080e+08	-6.716129e+00	-6.563050e+01	+6.940762e+00	-1.404106e+02	+7.374194e+00	-4.750733e+00	-8.174311e+00	+1.629326e+02
+8.390970e+08	-1.233871e+01	-7.689150e+01	+7.004809e+00	-1.567742e+02	+7.374194e+00	-4.046921e+00	-8.174311e+00	+1.314370e+02
+8.467860e+08	-5.496774e+00	-8.868035e+01	+6.940762e+00	+1.726100e+02	+7.306452e+00	-1.178886e+01	-7.982170e+00	+9.941349e+01
+8.544749e+08	-5.496774e+00	-1.002933e+02	+6.876716e+00	+1.763050e+02	+7.170968e+00	-2.252199e+01	-7.597889e+00	+6.879765e+01
+8.621639e+08	-5.835484e+00	-1.110264e+02	+6.812669e+00	+1.662757e+02	+7.035484e+00	-3.272727e+01	-7.149560e+00	+4.046921e+01
+8.698528e+08	-6.377419e+00	-1.212317e+02	+6.812669e+00	+1.504399e+02	+6.967742e+00	-4.205279e+01	-6.637185e+00	-1.390029e+01
+8.775418e+08	-7.393548e+00	-1.312610e+02	+6.812669e+00	+1.351320e+02	+6.967742e+00	-5.137830e+01	-6.252903e+00	+0.000000e+00
+8.852308e+08	-8.816129e+00	+1.398827e+02	+6.812669e+00	+1.198240e+02	+6.967742e+00	-6.070381e+01	-5.996716e+00	-1.442815e+01
+8.929197e+08	-1.050968e+01	+1.458651e+02	+6.812669e+00	+1.041642e+02	+7.035484e+00	-7.020528e+01	-5.740528e+00	-3.782991e+01
+9.006087e+08	-1.274516e+01	+1.458651e+02	+6.876716e+00	+8.832845e+01	+7.170968e+00	-8.005865e+01	-5.612434e+00	-6.000000e+01
+9.082977e+08	-1.477742e+01	+1.375953e+02	+6.940762e+00	+7.249267e+01	+7.306452e+00	-9.008798e+01	-5.676481e+00	-8.217009e+01
+9.159866e+08	-1.518387e+01	+1.222874e+02	+6.876716e+00	+5.648094e+01	+7.441935e+00	-1.004692e+02	-5.996716e+00	-1.041642e+02
+9.236756e+08	-1.349032e+01	-1.113783e+02	+6.876716e+00	+4.064516e+01	+7.509677e+00	-1.113783e+02	-6.573138e+00	-1.256305e+02
+9.313645e+08	-1.132258e+01	-1.101466e+02	+6.748622e+00	+2.480938e+01	+7.577419e+00	-1.221114e+02	-7.533842e+00	-1.463930e+02
+9.390535e+08	-9.561290e+00	-1.148974e+02	+6.684575e+00	-8.973607e+00	+7.577419e+00	-1.326686e+02	-8.878827e+00	-1.652199e+02
+9.467425e+08	-8.206452e+00	-1.228152e+02	+6.620528e+00	+0.000000e+00	+7.577419e+00	-1.432258e+02	-1.054405e+01	+1.750733e+02
+9.544314e+08	-7.258065e+00	-1.321408e+02	+6.620528e+00	-1.759531e+00	+7.577419e+00	-1.537830e+02	-1.252950e+01	+1.717302e+02
+9.621204e+08	-6.580645e+00	-1.425220e+02	+6.684575e+00	-1.601173e+01	+7.577419e+00	-1.645161e+02	-1.457900e+01	+1.650440e+02
+9.698094e+08	-6.241935e+00	-1.539589e+02	+6.812669e+00	-3.167155e+01	+7.645161e+00	+1.733138e+02	-1.624422e+01	+1.618768e+02
+9.774983e+08	-6.241935e+00	-1.660997e+02	+6.876716e+00	-4.715543e+01	+7.645161e+00	+1.754252e+02	-1.669255e+01	+1.611730e+02
+9.851873e+08	-6.512903e+00	+1.729619e+02	+7.004809e+00	-6.316716e+01	+7.645161e+00	+1.703226e+02	-1.605208e+01	+1.573021e+02
+9.928763e+08	-7.190323e+00	+1.736657e+02	+7.132903e+00	-7.935484e+01	+7.645161e+00	+1.601173e+02	-1.496328e+01	+1.458651e+02
+1.000565e+09	-8.341935e+00	+1.660997e+02	+7.196950e+00	-9.571848e+01	+7.577419e+00	+1.488563e+02	-1.393853e+01	+1.277419e+02
+1.008254e+09	-9.900000e+00	-1.578299e+02	+7.260997e+00	-1.119062e+02	+7.509677e+00	+1.382991e+02	-1.304188e+01	+1.050440e+02
+1.015943e+09	-1.186452e+01	-1.537830e+02	+7.260997e+00	-1.280938e+02	+7.509677e+00	+1.280938e+02	-1.214522e+01	+7.953079e+01
+1.023632e+09	-1.396452e+01	-1.576540e+02	+7.325044e+00	-1.442815e+02	+7.509677e+00	+1.178886e+02	-1.124856e+01	+5.225806e+01
+1.031321e+09	-1.498065e+01	-1.682111e+02	+7.389091e+00	-1.611730e+02	+7.509677e+00	+1.075073e+02	-1.028786e+01	-2.375367e+01
+1.039010e+09	-1.389677e+01	+1.724340e+02	+7.453138e+00	+1.745455e+02	+7.577419e+00	+9.695015e+01	-9.263109e+00	+0.000000e+00
+1.046699e+09	-1.172903e+01	+1.726100e+02	+7.517185e+00	+1.740176e+02	+7.645161e+00	+8.568915e+01	-8.174311e+00	-1.530792e+01
+1.054388e+09	-9.696774e+00	+1.738416e+02	+7.517185e+00	+1.592375e+02	+7.577419e+00	+7.407625e+01	-7.085513e+00	-4.539589e+01
+1.062077e+09	-8.138710e+00	+1.715543e+02	+7.389091e+00	+1.412903e+02	+7.509677e+00	+6.228739e+01	-6.188856e+00	-7.372434e+01
+1.069766e+09	-7.122581e+00	+1.629326e+02	+7.196950e+00	+1.242229e+02	+7.170968e+00	+5.085044e+01	-5.420293e+00	-1.011730e+02
+1.077455e+09	-6.512903e+00	+1.504399e+02	+6.876716e+00	+1.080352e+02	+6.832258e+00	+4.011730e+01	-4.907918e+00	-1.266862e+02
+1.085144e+09	-6.377419e+00	+1.377713e+02	+6.620528e+00	+9.255132e+01	+6.425806e+00	+3.026393e+01	-4.523636e+00	-1.509677e+02
+1.092833e+09	-6.241935e+00	+1.256305e+02	+6.428387e+00	+7.759531e+01	+6.154839e+00	+2.093842e+01	-4.331496e+00	+1.719062e+02
+1.100522e+09	-6.118651e+00	+1.138416e+02	+6.635191e+00	+6.334311e+01	+7.397009e+00	+1.284457e+01	-4.062581e+00	+1.729619e+02
+1.108211e+09	-6.594076e+00	+1.018768e+02	+6.569560e+00	+4.926686e+01	+6.378240e+00	-7.038123e+00	-3.931320e+00	+1.543109e+02
+1.115900e+09	-7.341173e+00	+9.079179e+01	+6.635191e+00	+3.448680e+01	+6.446158e+00	-4.750733e+00	-3.800059e+00	+1.323167e+02
+1.123589e+09	-8.427859e+00	+7.882698e+01	+6.700821e+00	+1.917889e+01	+6.649912e+00	-7.038123e+00	-3.734428e+00	+1.106745e+02
+1.131278e+09	-1.012581e+01	+6.791789e+01	+6.832082e+00	-4.398827e+00	+6.989501e+00	-1.407625e+01	-3.734428e+00	+8.780059e+01
+1.138967e+09	-1.270669e+01	-6.105572e+01	+6.963343e+00	+0.000000e+00	+7.261173e+00	-2.445748e+01	-3.931320e+00	+6.439883e+01
+1.146656e+09	-1.651009e+01	-6.052786e+01	+6.963343e+00	-7.917889e+00	+7.464927e+00	-3.607038e+01	-4.259472e+00	+3.958944e+01
+1.154344e+09	-1.657801e+01	-6.070381e+01	+6.963343e+00	-2.445748e+01	+7.600762e+00	-4.768328e+01	-4.850147e+00	-1.372434e+01
+1.162033e+09	-2.017765e+01	-8.938416e+01	+6.897713e+00	-4.082111e+01	+7.600762e+00	-5.929619e+01	-5.703343e+00	+0.000000e+00
+1.169722e+09	-1.705343e+01	+1.236950e+02	+6.832082e+00	-5.648094e+01	+7.464927e+00	-7.055718e+01	-6.687801e+00	-1.495601e+01
+1.177411e+09	-1.297836e+01	+1.231672e+02	+6.832082e+00	-7.196481e+01	+7.261173e+00	-8.129032e+01	-7.737889e+00	-3.958944e+01
+1.185100e+09	-1.005789e+01	+1.136657e+02	+6.897713e+00	-8.744868e+01	+7.125337e+00	-9.149560e+01	-8.722346e+00	-6.211144e+01
+1.192789e+09	-6.322405e+00	+1.018768e+02	+6.963343e+00	-1.032845e+02	+6.989501e+00	-1.011730e+02	-9.575543e+00	-8.357771e+01
+1.200478e+09	-5.235718e+00	+8.938416e+01	+7.094604e+00	-1.194721e+02	+6.921584e+00	-1.106745e+02	-1.029748e+01	-1.036364e+02
+1.208167e+09	-4.488622e+00	+7.565982e+01	+7.094604e+00	-1.365396e+02	+6.921584e+00	-1.203519e+02	-1.069126e+01	-1.231672e+02
