# Hz S DB R 50.000000								
1.00000E+06	-4.30975E+00	1.79491E+02	-3.03983E+01	-1.97008E+01	-4.36317E+01	6.51411E+00	-1.12983E+00	-4.07853E+00
8.68896E+06	-4.29397E+00	1.78222E+02	-4.00411E+01	-8.11585E+01	-4.35591E+01	1.59564E+01	-7.68530E-02	2.00896E-02
1.63779E+07	-4.16248E+00	1.77976E+02	-4.01612E+01	-6.76265E+01	-4.32073E+01	2.85094E+01	6.88286E-03	6.25425E-01
2.40669E+07	-4.14350E+00	1.77913E+02	-4.03300E+01	-5.39841E+01	-4.27529E+01	3.96673E+01	-3.97803E-02	2.28235E+00
3.17559E+07	-4.12465E+00	1.77735E+02	-4.06114E+01	-3.95832E+01	-4.23740E+01	4.88908E+01	-6.85170E-02	4.05592E+00
3.94448E+07	-3.82908E+00	1.77722E+02	-4.08597E+01	-2.51556E+01	-4.20517E+01	5.71840E+01	-6.69883E-02	6.11728E+00
4.71338E+07	-4.02825E+00	1.77518E+02	-4.12115E+01	1.65016E+02	-4.18284E+01	6.43467E+01	1.58880E-02	8.60349E+00
5.48227E+07	-4.12451E+00	1.77485E+02	-4.15310E+01	-1.79267E+02	-4.16099E+01	7.11804E+01	3.62177E-02	1.14588E+01
6.25117E+07	-4.29172E+00	1.75550E+02	-4.17265E+01	-1.63493E+02	-4.14992E+01	7.83448E+01	5.10204E-02	1.44091E+01
7.02007E+07	-4.39165E+00	-1.77774E+02	-4.19601E+01	-1.47330E+02	-4.12883E+01	8.61411E+01	9.99805E-02	1.81391E+01
7.78896E+07	-4.57606E+00	1.78205E+02	-4.20666E+01	-1.31211E+02	-4.14002E+01	9.43265E+01	1.78380E-01	2.19216E+01
8.55786E+07	-4.77443E+00	1.77741E+02	-4.22044E+01	-1.15066E+02	-4.16810E+01	1.05123E+02	1.88043E-01	2.62137E+01
9.32676E+07	-4.90622E+00	1.77914E+02	-4.13959E+01	9.19307E+01	-4.18500E+01	1.16981E+02	1.77471E-01	3.09311E+01
1.00957E+08	-4.95753E+00	1.78024E+02	-3.60710E+01	9.53045E+01	-4.12123E+01	1.29684E+02	8.85661E-02	3.59444E+01
1.08646E+08	-4.91261E+00	1.78141E+02	-4.13659E+01	1.11655E+02	-4.09431E+01	1.42429E+02	-1.76822E-03	4.11664E+01
1.16334E+08	-4.70508E+00	1.78252E+02	-4.12948E+01	1.28577E+02	-4.10925E+01	1.53950E+02	-1.48008E-01	4.65124E+01
1.24023E+08	-4.23691E+00	1.53661E+02	-4.18036E+01	1.44359E+02	-4.12058E+01	1.63332E+02	-2.90962E-01	5.20933E+01
1.31712E+08	-4.24095E+00	1.79028E+02	-4.18381E+01	1.61051E+02	-4.12956E+01	1.71311E+02	-5.43950E-01	5.75098E+01
1.39401E+08	-4.14464E+00	1.75529E+02	-4.20569E+01	-5.82523E+00	-4.10798E+01	-1.69286E+02	-8.01495E-01	6.26164E+01
1.47090E+08	-3.94866E+00	1.75580E+02	-4.23464E+01	1.20287E+01	-4.11918E+01	-1.72761E+02	-9.60158E-01	6.79315E+01
1.54779E+08	-3.89772E+00	1.75976E+02	-4.21449E+01	2.92788E+01	-4.14297E+01	-1.69013E+02	-1.18744E+00	7.28667E+01
1.62468E+08	-3.60974E+00	1.75573E+02	-4.19314E+01	4.68715E+01	-4.17261E+01	-1.62713E+02	-1.44875E+00	7.76586E+01
1.70157E+08	-3.94447E+00	1.75286E+02	-4.19015E+01	6.41224E+01	-4.12935E+01	-1.52156E+02	-1.68183E+00	7.86814E+01
1.77846E+08	-4.16105E+00	1.74786E+02	-4.09626E+01	7.89405E+01	-4.03010E+01	-1.38447E+02	-1.13658E+00	8.39731E+01
1.85535E+08	-4.72583E+00	1.30200E+02	-4.03658E+01	9.38200E+01	-3.41759E+01	-1.22392E+02	-9.37554E-01	8.67963E+01
1.93224E+08	-4.35180E+00	1.76015E+02	-4.02240E+01	9.67822E+01	-4.03509E+01	-1.14458E+02	-8.01901E-01	9.04098E+01
2.00913E+08	-4.38518E+00	1.76293E+02	-3.97814E+01	1.04959E+02	-3.61317E+01	-1.06761E+02	-6.25977E-01	9.37151E+01
2.08602E+08	-4.28440E+00	1.74909E+02	-3.92648E+01	1.19176E+02	-4.01826E+01	-9.21961E+01	-3.48312E-01	9.62976E+01
2.16291E+08	-4.24902E+00	1.75094E+02	-3.94706E+01	-3.24805E+01	-4.08487E+01	-8.09541E+01	-5.16875E-02	9.82861E+01
2.23980E+08	-4.16827E+00	1.75113E+02	-3.82994E+01	-1.40453E+01	-4.07096E+01	-7.15236E+01	3.04193E-01	9.99330E+01
2.31669E+08	-4.13413E+00	1.74919E+02	-3.79477E+01	2.17708E+00	-4.06934E+01	-6.34442E+01	7.34140E-01	1.00937E+02
2.39358E+08	-4.00222E+00	1.75147E+02	-3.77459E+01	3.05728E+00	-3.96601E+01	-5.68757E+01	1.16125E+00	1.01425E+02
2.47047E+08	-3.98109E+00	1.74419E+02	-3.78017E+01	-4.73457E+00	-3.81158E+01	-5.10015E+01	1.48912E+00	1.01651E+02
2.54736E+08	-5.01068E+00	1.25978E+02	-4.10979E+01	-1.49703E+02	-4.30595E+01	-4.83594E+01	1.70521E+00	1.01351E+02
2.62425E+08	-4.73418E+00	1.63526E+02	-4.09667E+01	-1.35055E+02	-4.24650E+01	-3.50148E+01	2.06990E+00	1.01542E+02
2.70114E+08	-4.80728E+00	1.76987E+02	-4.09278E+01	-1.25383E+02	-4.23384E+01	-2.55860E+01	2.39601E+00	1.00873E+02
2.77803E+08	-5.06426E+00	1.71125E+02	-4.11756E+01	-1.08319E+02	-4.25733E+01	-6.32972E+00	2.65671E+00	1.00518E+02
2.85492E+08	-5.42543E+00	1.69611E+02	-4.11318E+01	-1.06631E+02	-4.25815E+01	-1.03176E+01	2.87433E+00	1.00549E+02
2.93181E+08	-5.81905E+00	1.69756E+02	-4.13554E+01	-1.17543E+02	-4.24483E+01	1.04936E+00	3.04231E+00	1.00807E+02
3.00870E+08	-5.98451E+00	1.70374E+02	-4.12064E+01	9.85386E+01	-4.22061E+01	1.43762E+01	2.98816E+00	1.02744E+02
3.08559E+08	-5.97751E+00	1.70784E+02	-4.10750E+01	-8.77491E+01	-4.19134E+01	2.80714E+01	2.83168E+00	1.05443E+02
3.16248E+08	-5.33666E+00	1.41721E+02	-4.13446E+01	-7.11493E+01	-4.14264E+01	3.86153E+01	2.72483E+00	1.08912E+02
3.23937E+08	-5.48628E+00	1.74659E+02	-4.13098E+01	-5.52565E+01	-4.20584E+01	5.05031E+01	2.50876E+00	1.11149E+02
3.31625E+08	-4.92438E+00	1.74109E+02	-4.14124E+01	-3.55670E+01	-4.24411E+01	5.95056E+01	1.93584E+00	1.19569E+02
3.39314E+08	-4.54973E+00	1.72346E+02	-4.16198E+01	-1.90164E+01	-4.23583E+01	7.08192E+01	1.38839E+00	1.25849E+02
3.47003E+08	-4.34102E+00	1.71611E+02	-4.08421E+01	-1.40672E+01	-4.26634E+01	7.98920E+01	7.88930E-01	1.32834E+02
3.54692E+08	-4.15551E+00	1.72436E+02	-4.09620E+01	-1.22715E+01	-4.27340E+01	8.60571E+01	1.15878E-01	1.39282E+02
3.62381E+08	-4.10563E+00	1.73352E+02	-4.09038E+01	6.00108E+00	-4.28670E+01	9.15277E+01	-6.17895E-01	1.46174E+02
3.70070E+08	-4.02659E+00	1.73552E+02	-4.07909E+01	-5.03657E+01	-4.30714E+01	9.71530E+01	-1.23752E+00	1.52754E+02
3.77759E+08	-4.18401E+00	1.73512E+02	-4.15350E+01	-3.64917E+01	-4.26976E+01	1.04135E+02	-1.33592E+00	1.59104E+02
3.85448E+08	-4.27222E+00	1.72675E+02	-4.26877E+01	-4.14953E+01	-4.23256E+01	1.13145E+02	-2.33925E+00	1.64941E+02
3.93137E+08	-4.55319E+00	1.54971E+02	-4.41135E+01	5.85569E+01	-4.25298E+01	1.27887E+02	-2.60105E+00	1.70425E+02
4.00826E+08	-4.22117E+00	1.76088E+02	-4.43605E+01	7.77342E+01	-4.21409E+01	1.41906E+02	-2.95500E+00	-1.79854E+02
4.08515E+08	-4.64927E+00	1.67735E+02	-4.41056E+01	9.01793E-01	-4.28827E+01	1.54650E+02	-3.00789E+00	1.78598E+02
4.16204E+08	-4.86737E+00	1.67445E+02	-4.39149E+01	1.56542E+01	-4.26268E+01	1.70205E+02	-3.01322E+00	-1.77618E+02
4.23893E+08	-4.99648E+00	1.68204E+02	-4.34230E+01	2.68378E+01	-4.22670E+01	-1.67297E+02	-2.89774E+00	-1.72591E+02
4.31582E+08	-4.82795E+00	1.68615E+02	-4.31350E+01	3.22923E+01	-4.17904E+01	-1.67216E+02	-2.68185E+00	-1.67925E+02
4.39271E+08	-4.82362E+00	1.68407E+02	-4.29970E+01	4.21573E+01	-4.13994E+01	-1.59066E+02	-2.40886E+00	-1.63844E+02
4.46960E+08	-4.60105E+00	1.68450E+02	-4.01461E+01	4.68772E+01	-4.08706E+01	-1.50188E+02	-1.99861E+00	-1.59874E+02
4.54649E+08	-4.55118E+00	1.57761E+02	-4.17840E+01	5.49808E+01	-4.00446E+01	-1.45201E+02	-1.48896E+00	-1.56065E+02
4.62338E+08	-4.64856E+00	-1.79553E+02	-4.12231E+01	5.92792E+01	-3.98831E+01	-1.38025E+02	-7.49185E-01	-1.52352E+02
4.70027E+08	-4.72695E+00	1.69049E+02	-4.07760E+01	-7.50788E+01	-3.93706E+01	-1.30871E+02	-1.65974E-01	-1.49301E+02
4.77716E+08	-5.02617E+00	1.67819E+02	-4.01675E+01	-5.77719E+01	-3.85105E+01	-1.22412E+02	5.09664E-01	-1.46532E+02
4.85405E+08	-5.26759E+00	1.65466E+02	-3.94787E+01	-3.85046E+01	-3.78527E+01	-1.12953E+02	1.61360E+00	-1.43638E+02
4.93094E+08	-5.60498E+00	1.63839E+02	-3.89097E+01	-2.90906E+01	-3.75674E+01	-1.02891E+02	2.81288E+00	-1.42382E+02
5.00783E+08	-5.75904E+00	1.63566E+02	-3.65522E+01	-3.71730E+01	-3.81082E+01	-9.02820E+01	3.30370E+00	-1.43246E+02
5.08472E+08	-5.90443E+00	1.64531E+02	-3.56484E+01	-5.22771E+01	-3.88516E+01	-7.73361E+01	4.32903E+00	-1.43880E+02
5.16161E+08	-6.17484E+00	1.40673E+02	-3.32985E+01	-1.62827E+02	-3.96542E+01	-6.54701E+01	5.34188E+00	-1.45588E+02
5.23850E+08	-5.60706E+00	1.75935E+02	-3.32966E+01	-1.47007E+02	-3.96555E+01	-5.15497E+01	6.27481E+00	-1.47784E+02
5.31539E+08	-5.08250E+00	1.70298E+02	-3.24776E+01	-3.40683E+01	-3.96646E+01	-4.36892E+01	7.06048E+00	-1.51061E+02
5.39227E+08	-4.67204E+00	1.66314E+02	-3.47431E+01	-9.02002E+00	-3.95680E+01	-3.19678E+01	4.97782E+00	-1.50307E+02
5.46916E+08	-4.46741E+00	1.65218E+02	-3.25013E+01	-7.88504E+00	-3.88226E+01	-2.58494E+01	8.60231E+00	-1.57549E+02
5.54605E+08	-4.18098E+00	1.64981E+02	-3.24960E+01	-1.19527E+02	-3.89214E+01	-2.00708E+01	8.23024E+00	-1.65057E+02
5.62294E+08	-3.98985E+00	1.65265E+02	-3.27174E+01	-9.82821E+01	-3.91551E+01	-1.45528E+01	7.43204E+00	-1.64636E+02
5.69983E+08	-3.90337E+00	1.65602E+02	-3.29673E+01	-8.83680E+01	-3.94426E+01	-7.48877E+00	6.62323E+00	-1.62099E+02
5.77672E+08	-4.04892E+00	1.66465E+02	-3.31577E+01	-8.77678E+01	-3.97764E+01	-1.02215E+01	5.70373E+00	-1.57634E+02
5.85361E+08	-4.14702E+00	1.66836E+02	-3.35166E+01	-9.92435E+01	-4.01578E+01	-4.24800E+00	4.70913E+00	-1.51693E+02
5.93050E+08	-4.35886E+00	1.56420E+02	-3.41539E+01	-1.00948E+02	-3.36016E+01	4.70126E+00	3.75301E+00	-1.45146E+02
6.00739E+08	-3.86942E+00	-1.75194E+02	-3.22482E+01	-9.64572E+01	-4.00232E+01	1.60610E+01	2.82530E+00	-1.38975E+02
6.08428E+08	-4.68846E+00	1.66333E+02	-3.73030E+01	-8.83463E+01	-4.11156E+01	2.13250E+01	1.90308E+00	-1.32780E+02
6.16117E+08	-5.56556E+00	1.46212E+02	-3.85463E+01	-7.56511E+01	-4.25821E+01	2.96539E+01	1.19926E+00	-1.26723E+02
6.23806E+08	-4.69245E+00	1.65381E+02	-3.91188E+01	-5.88711E+01	-4.11642E+01	5.04907E+01	4.63550E-01	-1.20752E+02
6.31495E+08	-4.73149E+00	1.64860E+02	-4.00699E+01	-5.23459E+01	-4.13048E+01	6.54259E+01	-1.82679E-01	-1.14858E+02
6.39184E+08	-4.60044E+00	1.64350E+02	-4.02942E+01	-3.10074E+01	-4.10220E+01	7.92000E+01	-6.67966E-01	-1.09004E+02
6.46873E+08	-4.54665E+00	1.63457E+02	-4.04672E+01	-1.07426E+02	-4.10308E+01	9.14315E+01	-1.06194E+00	-1.03474E+02
6.54562E+08	-4.37247E+00	1.58514E+02	-4.08381E+01	-1.01710E+02	-4.06412E+01	1.00888E+02	-1.35507E+00	-9.81613E+01
6.62251E+08	-4.44271E+00	1.69860E+02	-4.09453E+01	-7.01935E+01	-4.06529E+01	1.09511E+02	-1.58805E+00	-9.45239E+01
6.69940E+08	-4.35446E+00	1.63503E+02	-4.07035E+01	-5.47730E+01	-4.09209E+01	1.17747E+02	-1.67301E+00	-8.94515E+01
6.77629E+08	-4.25417E+00	1.62703E+02	-3.98931E+01	-4.19472E+01	-4.03165E+01	1.26136E+02	-1.71953E+00	-8.44756E+01
6.85318E+08	-4.34017E+00	1.62754E+02	-4.00529E+01	-3.72780E+01	-3.99784E+01	1.33116E+02	-1.75331E+00	-7.97666E+01
6.93007E+08	-4.38294E+00	1.62275E+02	-3.98170E+01	-2.42898E+01	-3.97590E+01	1.40453E+02	-1.63943E+00	-7.53667E+01
7.00696E+08	-4.49925E+00	1.61465E+02	-3.96071E+01	-1.30580E+01	-3.93392E+01	1.48796E+02	-1.48240E+00	-7.08080E+01
7.08385E+08	-4.66711E+00	1.60215E+02	-3.93501E+01	-9.01098E+00	-3.88141E+01	1.58417E+02	-1.21934E+00	-6.69054E+01
7.16074E+08	-4.83928E+00	1.60061E+02	-3.91842E+01	1.49046E+02	-3.84850E+01	1.74492E+02	-8.49904E-01	-6.28465E+01
7.23763E+08	-5.01299E+00	1.52076E+02	-3.90291E+01	1.47254E+02	-3.92386E+01	1.75223E+02	-5.40840E-01	-5.88878E+01
7.31452E+08	-4.89422E+00	1.79077E+02	-3.88421E+01	1.72136E+02	-3.88456E+01	-1.73458E+02	-1.40585E-01	-5.54738E+01
7.39141E+08	-5.01324E+00	1.61197E+02	-3.81464E+01	5.14734E+01	-3.96681E+01	-1.65478E+02	3.00829E-01	-5.22427E+01
7.46829E+08	-4.87138E+00	1.61997E+02	-3.78418E+01	6.61628E+01	-4.03654E+01	-1.55073E+02	7.60604E-01	-4.92595E+01
7.54518E+08	-4.79256E+00	1.62044E+02	-3.72060E+01	8.22081E+01	-4.09649E+01	-1.45392E+02	1.20070E+00	-4.69075E+01
7.62207E+08	-5.07270E+00	1.62213E+02	-3.69841E+01	9.68700E+01	-4.13048E+01	-1.35941E+02	1.49180E+00	-4.48052E+01
7.69896E+08	-4.56119E+00	1.61936E+02	-3.59329E+01	1.15416E+02	-4.00403E+01	-1.27319E+02	1.76322E+00	-4.29489E+01
7.77585E+08	-4.54141E+00	1.62150E+02	-3.56198E+01	1.08861E+02	-4.14099E+01	-1.18233E+02	1.86708E+00	-4.11461E+01
7.85274E+08	-4.62663E+00	1.14102E+02	-3.47617E+01	1.09872E+02	-4.22603E+01	-1.09855E+02	1.98628E+00	-3.93724E+01
7.92963E+08	-4.93107E+00	1.60760E+02	-3.44931E+01	1.15903E+02	-4.07724E+01	-9.79749E+01	2.00878E+00	-3.77591E+01
8.00652E+08	-4.65057E+00	1.72507E+02	-3.48921E+01	1.19975E+02	-4.15224E+01	-8.17176E+01	1.84033E+00	-3.62288E+01
8.08341E+08	-4.88854E+00	1.60956E+02	-3.50816E+01	1.25406E+02	-4.15325E+01	-7.40029E+01	1.57458E+00	-3.42071E+01
8.16030E+08	-4.88851E+00	1.59069E+02	-3.48908E+01	1.32528E+02	-4.13603E+01	-6.28372E+01	1.32062E+00	-3.17859E+01
8.23719E+08	-4.80385E+00	1.57746E+02	-3.56175E+01	1.41155E+02	-3.92301E+01	-5.15563E+01	9.65136E-01	-2.89563E+01
8.31408E+08	-4.78268E+00	1.57531E+02	-3.60549E+01	1.64293E+02	-4.08628E+01	-4.03134E+01	5.67074E-01	-2.57901E+01
8.39097E+08	-4.64811E+00	1.57534E+02	-3.64563E+01	6.93685E+01	-3.97300E+01	-2.94661E+01	2.89280E-01	-2.23916E+01
8.46786E+08	-4.63899E+00	1.57532E+02	-3.89675E+01	8.68153E+01	-4.11011E+01	-1.92372E+01	4.55194E-02	-1.86541E+01
8.54475E+08	-4.62602E+00	1.50030E+02	-3.38395E+01	9.89330E+01	-4.11918E+01	-1.05243E+01	-2.38255E-01	-1.47829E+01
8.62164E+08	-4.58744E+00	-1.79874E+02	-3.87360E+01	1.07743E+02	-4.13618E+01	7.04019E+00	-5.73902E-01	-1.07856E+01
8.69853E+08	-4.75569E+00	1.60302E+02	-3.96484E+01	1.25507E+02	-4.17044E+01	1.66327E+00	-8.61292E-01	-7.28692E+00
8.77542E+08	-4.75367E+00	1.57832E+02	-4.04256E+01	1.18923E+02	-4.15474E+01	8.67185E+00	-1.06769E+00	4.19350E+00
8.85231E+08	-5.27351E+00	1.58129E+02	-4.05535E+01	-8.95396E+01	-4.17742E+01	1.76495E+01	-1.05918E+00	3.19943E+00
8.92920E+08	-5.10720E+00	1.57229E+02	-4.05908E+01	-8.35752E+01	-4.12238E+01	2.67108E+01	-1.00545E+00	3.90765E+00
9.00609E+08	-5.24720E+00	1.57336E+02	-4.05374E+01	1.69008E+02	-4.08979E+01	3.67625E+01	-7.83167E-01	6.34780E+00
9.08298E+08	-5.20585E+00	1.57237E+02	-4.04510E+01	-1.75213E+02	-4.01114E+01	4.76009E+01	-5.22558E-01	9.97723E+00
9.15987E+08	-5.32631E+00	1.57598E+02	-4.01920E+01	-1.60324E+02	-3.96185E+01	5.99959E+01	-1.65852E-01	1.46284E+01
9.23676E+08	-5.05438E+00	1.38397E+02	-3.99785E+01	-1.46438E+02	-3.97641E+01	7.24186E+01	3.12981E-01	1.98720E+01
9.31365E+08	-5.23783E+00	1.73036E+02	-3.92347E+01	-1.30975E+02	-3.89168E+01	8.42092E+01	8.35905E-01	2.48430E+01
9.39054E+08	-4.90890E+00	1.57809E+02	-3.88310E+01	-1.16918E+02	-3.10522E+01	9.77039E+01	1.49081E+00	2.99332E+01
9.46743E+08	-5.13371E+00	1.57859E+02	-3.82951E+01	-1.06006E+02	-3.88495E+01	1.08113E+02	2.15860E+00	3.48410E+01
9.54431E+08	-4.56546E+00	1.56703E+02	-3.72301E+01	-9.55583E+01	-3.89688E+01	1.16825E+02	3.03661E+00	3.98056E+01
9.62120E+08	-4.14273E+00	1.57121E+02	-3.63057E+01	-8.41887E+01	-3.87570E+01	1.25401E+02	3.98462E+00	4.41059E+01
9.69809E+08	-3.98369E+00	1.57239E+02	-3.17660E+01	1.08678E+02	-3.87303E+01	1.32753E+02	4.97247E+00	4.81269E+01
9.77498E+08	-3.99987E+00	1.57367E+02	-3.41863E+01	1.11986E+02	-3.86837E+01	1.39434E+02	5.87854E+00	5.08570E+01
9.85187E+08	-4.38415E+00	1.18410E+02	-3.43167E+01	1.26294E+02	-3.88680E+01	1.48285E+02	6.64259E+00	5.29683E+01
9.92876E+08	-4.39835E+00	1.59390E+02	-3.34313E+01	1.36164E+02	-3.88146E+01	1.57794E+02	7.15519E+00	5.28066E+01
1.00057E+09	-4.05849E+00	1.76659E+02	-3.30349E+01	1.44144E+02	-3.82753E+01	-1.69340E+02	7.43030E+00	5.15300E+01
1.00825E+09	-4.74292E+00	1.55106E+02	-3.29529E+01	1.50761E+02	-3.85853E+01	1.72486E+02	7.27135E+00	4.97909E+01
1.01594E+09	-5.01656E+00	1.54320E+02	-3.31472E+01	1.58000E+02	-3.88437E+01	1.73422E+02	6.78858E+00	4.75977E+01
1.02363E+09	-5.02966E+00	1.54190E+02	-3.35617E+01	1.66866E+02	-3.87811E+01	-1.76039E+02	5.87439E+00	4.63548E+01
1.03132E+09	-5.03831E+00	1.53596E+02	-3.41932E+01	1.75598E+02	-3.95530E+01	-1.71490E+02	4.77986E+00	4.62001E+01
1.03901E+09	-5.15633E+00	1.54013E+02	-3.50466E+01	-1.73440E+02	-3.85081E+01	-1.50762E+02	3.63592E+00	4.66645E+01
1.04670E+09	-6.40116E+00	1.52364E+02	-3.59125E+01	-1.60472E+02	-3.85525E+01	-1.38858E+02	2.18452E+00	4.82987E+01
1.05439E+09	-4.79644E+00	1.42369E+02	-3.64816E+01	-1.46621E+02	-3.84070E+01	-1.31419E+02	1.59817E+00	5.09460E+01
1.06208E+09	-5.05243E+00	1.73672E+02	-3.71561E+01	-1.33650E+02	-3.89211E+01	-1.16593E+02	7.04145E-01	5.36103E+01
1.06977E+09	-5.19169E+00	1.56519E+02	-3.76937E+01	-1.24409E+02	-3.94667E+01	-1.14223E+02	-9.64301E-02	5.88211E+01
1.07746E+09	-5.03929E+00	1.50754E+02	-3.80891E+01	-1.21474E+02	-3.91568E+01	-1.07491E+02	-7.98945E-01	6.26780E+01
1.08514E+09	-4.91441E+00	1.50037E+02	-3.84677E+01	-1.08169E+02	-3.95968E+01	-9.88492E+01	-1.49335E+00	6.68173E+01
1.09283E+09	-5.07694E+00	1.48710E+02	-3.89555E+01	1.56201E+02	-3.91473E+01	-8.90532E+01	-1.97798E+00	7.13510E+01
1.10052E+09	-5.42846E+00	1.47343E+02	-4.08109E+01	1.73110E+02	-3.96740E+01	-7.86887E+01	-2.41207E+00	7.57534E+01
1.10821E+09	-6.00010E+00	1.72658E+02	-4.11889E+01	-1.68565E+02	-3.68691E+01	-6.49371E+01	-2.73528E+00	8.06735E+01
1.11590E+09	-6.57422E+00	-1.59654E+02	-4.12952E+01	-1.53462E+02	-3.80790E+01	-5.10801E+01	-2.95456E+00	8.57501E+01
1.12359E+09	-6.55670E+00	1.73026E+02	-4.18272E+01	-1.36651E+02	-3.99408E+01	-4.30175E+01	-3.05357E+00	9.08899E+01
1.13128E+09	-6.10823E+00	1.65122E+02	-4.19282E+01	-1.19759E+02	-3.98909E+01	-3.01684E+01	-3.07623E+00	9.62126E+01
1.13897E+09	-6.01114E+00	1.76752E+02	-4.01830E+01	-1.02163E+02	-3.93117E+01	-1.94989E+01	-2.97257E+00	1.01802E+02
1.14666E+09	-5.62803E+00	1.76047E+02	-4.21438E+01	-8.39733E+01	-3.89617E+01	9.65947E+00	-2.86671E+00	1.07450E+02
1.15434E+09	-5.27615E+00	1.75274E+02	-4.18407E+01	5.29133E+01	-3.91241E+01	8.72361E+00	-2.63004E+00	1.13003E+02
1.16203E+09	-4.83661E+00	1.74314E+02	-4.21044E+01	6.40416E+01	-3.95492E+01	1.24274E+01	-2.19266E+00	1.19082E+02
1.16972E+09	-4.68204E+00	1.69107E+02	-4.16987E+01	-4.91086E+01	-3.88127E+01	2.42910E+01	-1.83514E+00	1.25123E+02
1.17741E+09	-4.12966E+00	1.51720E+02	-4.09867E+01	-3.35225E+01	-3.96555E+01	2.54778E+01	-1.28812E+00	1.31104E+02
1.18510E+09	-4.35926E+00	1.20890E+02	-4.09926E+01	-1.77441E+01	-4.06776E+01	3.17925E+01	-1.12254E+00	1.37005E+02
1.19279E+09	-4.14707E+00	1.52118E+02	-4.05388E+01	-9.81288E-01	-4.06046E+01	4.05696E+01	-4.84765E-01	1.43015E+02
1.20048E+09	-3.43172E+00	1.74182E+02	-3.90287E+01	1.69434E+01	-4.07921E+01	5.92016E+01	5.87694E-01	1.50362E+02
1.20817E+09	-4.25905E+00	1.56055E+02	-3.99923E+01	1.58559E+02	-4.16140E+01	5.81517E+01	1.29174E+00	1.57048E+02
1.21586E+09	-4.66261E+00	1.48875E+02	-3.98264E+01	1.78051E+02	-4.14831E+01	6.79521E+01	1.84028E+00	1.63676E+02
1.22355E+09	-4.71827E+00	1.47901E+02	-3.92382E+01	-1.64892E+02	-4.10363E+01	8.18875E+01	2.48033E+00	1.70103E+02
1.23123E+09	-4.91220E+00	1.46654E+02	-3.83960E+01	-1.49525E+02	-3.94173E+01	9.71780E+01	2.90910E+00	1.75098E+02
1.23892E+09	-5.07795E+00	1.45897E+02	-3.83514E+01	-1.35976E+02	-4.05968E+01	1.12394E+02	3.29823E+00	1.78897E+02
1.24661E+09	-4.53450E+00	1.08774E+02	-3.81377E+01	1.41337E+02	-4.01879E+01	1.30055E+02	3.73401E+00	-1.78397E+02
1.25430E+09	-5.43307E+00	1.51195E+02	-3.75949E+01	1.49454E+02	-4.00665E+01	1.41882E+02	4.11065E+00	-1.77545E+02
1.26199E+09	-5.75429E+00	1.64197E+02	-3.71223E+01	1.60119E+02	-4.03125E+01	1.54380E+02	4.25290E+00	-1.77604E+02
1.26968E+09	-5.59369E+00	1.49462E+02	-3.65638E+01	1.69582E+02	-3.91822E+01	1.61261E+02	4.45143E+00	-1.78786E+02
1.27737E+09	-5.25768E+00	1.45832E+02	-3.64482E+01	1.79554E+02	-3.84113E+01	1.71940E+02	4.30673E+00	1.79168E+02
1.28506E+09	-4.98627E+00	1.46544E+02	-3.17406E+01	-4.79657E+01	-3.83225E+01	-1.78810E+02	3.27043E+00	-1.62720E+02
1.29275E+09	-4.98977E+00	1.46172E+02	-3.66883E+01	-1.48798E+02	-3.54920E+01	-1.56661E+02	3.05902E+00	-1.64533E+02
1.30044E+09	-4.94795E+00	1.46170E+02	-3.66653E+01	-2.75073E+01	-3.38289E+01	-1.61651E+02	2.85883E+00	-1.66163E+02
1.30812E+09	-5.19502E+00	1.44653E+02	-3.38089E+01	-1.65022E+01	-3.70801E+01	-1.64065E+02	2.60899E+00	-1.67352E+02
1.31581E+09	-6.76876E+00	9.44161E+01	-3.63880E+01	-8.63549E+00	-3.79107E+01	-1.60505E+02	2.20133E+00	-1.68860E+02
1.32350E+09	-5.97481E+00	1.29369E+02	-3.64709E+01	-1.08490E+02	-3.57948E+01	-1.52681E+02	1.74773E+00	-1.69962E+02
1.33119E+09	-5.43673E+00	1.47128E+02	-3.65957E+01	-9.51652E+01	-3.40900E+01	-1.38319E+02	1.57424E+00	-1.70250E+02
1.33888E+09	-5.55608E+00	1.46934E+02	-3.68371E+01	-8.38565E+01	-3.47586E+01	-1.33042E+02	1.05461E+00	-1.70835E+02
1.34657E+09	-6.21426E+00	1.36114E+02	-3.72897E+01	-6.79515E+01	-3.03769E+01	-1.19200E+02	4.33336E-01	-1.70863E+02
