# Hz S DB R 50.000000								
1.0000000E+06	-4.3097510E+00	1.7949060E+02	-3.0398340E+01	-1.9700780E+01	-4.3631660E+01	6.5141130E+00	-1.1298270E+00	-4.0785340E+00
8.6889630E+06	-4.2939710E+00	1.7822200E+02	-4.0041100E+01	-8.1158480E+01	-4.3559120E+01	1.5956370E+01	-7.6853010E-02	2.0089550E-02
1.6377930E+07	-4.1624780E+00	1.7797590E+02	-4.0161190E+01	-6.7626510E+01	-4.3207280E+01	2.8509390E+01	6.8828600E-03	6.2542500E-01
2.4066890E+07	-4.1434970E+00	1.7791250E+02	-4.0329970E+01	-5.3984080E+01	-4.2752860E+01	3.9667340E+01	-3.9780290E-02	2.2823480E+00
3.1755850E+07	-4.1246520E+00	1.7773530E+02	-4.0611390E+01	-3.9583200E+01	-4.2374000E+01	4.8890760E+01	-6.8517000E-02	4.0559230E+00
3.9444820E+07	-3.8290790E+00	1.7772190E+02	-4.0859720E+01	-2.5155590E+01	-4.2051660E+01	5.7184000E+01	-6.6988280E-02	6.1172810E+00
4.7133780E+07	-4.0282540E+00	1.7751820E+02	-4.1211540E+01	1.6501610E+02	-4.1828350E+01	6.4346720E+01	1.5888020E-02	8.6034880E+00
5.4822740E+07	-4.1245060E+00	1.7748470E+02	-4.1531020E+01	-1.7926650E+02	-4.1609870E+01	7.1180420E+01	3.6217700E-02	1.1458760E+01
6.2511710E+07	-4.2714070E+00	1.7712750E+02	-4.1728420E+01	-1.6352310E+02	-4.1485190E+01	7.8459580E+01	5.1020460E-02	1.4409110E+01
7.0200670E+07	-4.3916530E+00	-1.7777430E+02	-4.1960080E+01	-1.4732950E+02	-4.1288250E+01	8.6141100E+01	9.9980460E-02	1.8139100E+01
7.7889630E+07	-4.5760550E+00	1.7820510E+02	-4.2066560E+01	-1.3121110E+02	-4.1400200E+01	9.4326470E+01	1.7837970E-01	2.1921600E+01
8.5578600E+07	-4.7744330E+00	1.7774130E+02	-4.2204430E+01	-1.1506550E+02	-4.1680980E+01	1.0512300E+02	1.8804300E-01	2.6213690E+01
9.3267560E+07	-4.9062220E+00	1.7791380E+02	-4.1395930E+01	9.1930710E+01	-4.1849950E+01	1.1698100E+02	1.7747070E-01	3.0931100E+01
1.0095650E+08	-4.9575310E+00	1.7802430E+02	-3.6071040E+01	9.5304490E+01	-4.1212290E+01	1.2968410E+02	8.8566100E-02	3.5944380E+01
1.0864550E+08	-4.9126080E+00	1.7814070E+02	-4.1365860E+01	1.1165480E+02	-4.0943140E+01	1.4242890E+02	-1.7682160E-03	4.1166440E+01
1.1633440E+08	-4.7050830E+00	1.7825210E+02	-4.1294790E+01	1.2857700E+02	-4.1092450E+01	1.5394960E+02	-1.4800790E-01	4.6512410E+01
1.2402340E+08	-4.5046160E+00	1.7782930E+02	-4.1707250E+01	1.4475010E+02	-4.1425130E+01	1.6446340E+02	-2.9096290E-01	5.2093280E+01
1.3171240E+08	-4.2409470E+00	1.7902830E+02	-4.1838070E+01	1.6105120E+02	-4.1295640E+01	1.7131120E+02	-5.4395020E-01	5.7509770E+01
1.3940130E+08	-4.1446410E+00	1.7552900E+02	-4.2056940E+01	-5.8252280E+00	-4.1079830E+01	-1.6928620E+02	-8.0149480E-01	6.2616350E+01
1.4709030E+08	-3.9486620E+00	1.7557950E+02	-4.2346370E+01	1.2028700E+01	-4.1191760E+01	-1.7276140E+02	-9.6015830E-01	6.7931470E+01
1.5477930E+08	-3.8977190E+00	1.7597600E+02	-4.2144930E+01	2.9278750E+01	-4.1429650E+01	-1.6901280E+02	-1.1874420E+00	7.2866680E+01
1.6246820E+08	-3.6097370E+00	1.7557260E+02	-4.1931430E+01	4.6871540E+01	-4.1726100E+01	-1.6271300E+02	-1.4487460E+00	7.7658620E+01
1.7015720E+08	-3.9444720E+00	1.7528580E+02	-4.1901540E+01	6.4122350E+01	-4.1293500E+01	-1.5215590E+02	-1.6818300E+00	7.8681380E+01
1.7784620E+08	-4.1610480E+00	1.7478600E+02	-4.0962590E+01	7.8940470E+01	-4.0300980E+01	-1.3844710E+02	-1.1365790E+00	8.3973110E+01
1.8553510E+08	-4.3031180E+00	1.7422420E+02	-4.0610910E+01	9.3747560E+01	-3.4186030E+01	-1.2644140E+02	-9.3755480E-01	8.6796390E+01
1.9322410E+08	-4.3517990E+00	1.7601500E+02	-4.0224040E+01	9.6782180E+01	-4.0350940E+01	-1.1445840E+02	-8.0190090E-01	9.0409820E+01
2.0091300E+08	-4.3851750E+00	1.7629340E+02	-3.9781380E+01	1.0495870E+02	-3.6131650E+01	-1.0676140E+02	-6.2597660E-01	9.3715080E+01
2.0860200E+08	-4.2844010E+00	1.7490920E+02	-3.9264760E+01	1.1917580E+02	-4.0182610E+01	-9.2196120E+01	-3.4831200E-01	9.6297630E+01
2.1629100E+08	-4.2490230E+00	1.7509360E+02	-3.9470590E+01	-3.2480490E+01	-4.0848710E+01	-8.0954050E+01	-5.1687530E-02	9.8286130E+01
2.2397990E+08	-4.1682680E+00	1.7511270E+02	-3.8299350E+01	-1.4045320E+01	-4.0709640E+01	-7.1523560E+01	3.0419290E-01	9.9932980E+01
2.3166890E+08	-4.1341280E+00	1.7491920E+02	-3.7947650E+01	2.1770770E+00	-4.0693360E+01	-6.3444220E+01	7.3414040E-01	1.0093670E+02
2.3935790E+08	-4.0022150E+00	1.7514710E+02	-3.7745860E+01	3.0572790E+00	-3.9660110E+01	-5.6875660E+01	1.1612500E+00	1.0142460E+02
2.4704680E+08	-3.9810890E+00	1.7441930E+02	-3.7801690E+01	-4.7345650E+00	-3.8115810E+01	-5.1001450E+01	1.4891220E+00	1.0165110E+02
2.5473580E+08	-4.3662390E+00	1.7339990E+02	-4.0702350E+01	-1.4924940E+02	-4.2277840E+01	-4.4292810E+01	1.7052040E+00	1.0135040E+02
2.6242470E+08	-4.7341840E+00	1.6352560E+02	-4.0966680E+01	-1.3505460E+02	-4.2465020E+01	-3.5014760E+01	2.0699020E+00	1.0154240E+02
2.7011370E+08	-4.8072750E+00	1.7698650E+02	-4.0927760E+01	-1.2538340E+02	-4.2338410E+01	-2.5585970E+01	2.3960080E+00	1.0087320E+02
2.7780270E+08	-5.0642600E+00	1.7112510E+02	-4.1175600E+01	-1.0831900E+02	-4.2573260E+01	-6.3297200E+00	2.6567130E+00	1.0051800E+02
2.8549160E+08	-5.4254270E+00	1.6961110E+02	-4.1131800E+01	-1.0663060E+02	-4.2581490E+01	-1.0317640E+01	2.8743340E+00	1.0054940E+02
2.9318060E+08	-5.8190500E+00	1.6975550E+02	-4.1355370E+01	-1.1754290E+02	-4.2448260E+01	1.0493640E+00	3.0423100E+00	1.0080660E+02
3.0086960E+08	-5.9845130E+00	1.7037420E+02	-4.1206380E+01	9.8538550E+01	-4.2206120E+01	1.4376240E+01	2.9881610E+00	1.0274410E+02
3.0855850E+08	-5.9775110E+00	1.7078380E+02	-4.1074980E+01	-8.7749070E+01	-4.1913380E+01	2.8071390E+01	2.8316760E+00	1.0544310E+02
3.1624750E+08	-5.7245370E+00	1.7123480E+02	-4.1500950E+01	-7.1233830E+01	-4.1900010E+01	4.1201240E+01	2.7248270E+00	1.0891190E+02
3.2393650E+08	-5.4862750E+00	1.7465860E+02	-4.1309800E+01	-5.5256480E+01	-4.2058390E+01	5.0503140E+01	2.5087580E+00	1.1114860E+02
3.3162540E+08	-4.9243800E+00	1.7410930E+02	-4.1412400E+01	-3.5566960E+01	-4.2441120E+01	5.9505620E+01	1.9358350E+00	1.1956890E+02
3.3931440E+08	-4.5497340E+00	1.7234560E+02	-4.1619840E+01	-1.9016440E+01	-4.2358340E+01	7.0819200E+01	1.3883850E+00	1.2584870E+02
3.4700330E+08	-4.3410180E+00	1.7161100E+02	-4.0842050E+01	-1.4067170E+01	-4.2663350E+01	7.9891960E+01	7.8893000E-01	1.3283440E+02
3.5469230E+08	-4.1555080E+00	1.7243640E+02	-4.0962010E+01	-1.2271490E+01	-4.2733970E+01	8.6057120E+01	1.1587780E-01	1.3928160E+02
3.6238130E+08	-4.1056340E+00	1.7335180E+02	-4.0903780E+01	6.0010840E+00	-4.2866980E+01	9.1527710E+01	-6.1789500E-01	1.4617410E+02
3.7007020E+08	-4.0265930E+00	1.7355180E+02	-4.0790940E+01	-5.0365660E+01	-4.3071430E+01	9.7152950E+01	-1.2375210E+00	1.5275430E+02
3.7775920E+08	-4.1840080E+00	1.7351220E+02	-4.1535000E+01	-3.6491650E+01	-4.2697560E+01	1.0413500E+02	-1.3359230E+00	1.5910380E+02
3.8544820E+08	-4.2722230E+00	1.7267450E+02	-4.2687650E+01	-4.1495300E+01	-4.2325630E+01	1.1314480E+02	-2.3392520E+00	1.6494120E+02
3.9313710E+08	-4.5531850E+00	1.5497070E+02	-4.4113490E+01	5.8556940E+01	-4.2529760E+01	1.2788730E+02	-2.6010510E+00	1.7042540E+02
4.0082610E+08	-4.2211720E+00	1.7608780E+02	-4.4360490E+01	7.7734190E+01	-4.2140910E+01	1.4190580E+02	-2.9549950E+00	-1.7985350E+02
4.0851510E+08	-4.6492700E+00	1.6773490E+02	-4.4105590E+01	9.0179330E-01	-4.2882720E+01	1.5465030E+02	-3.0078930E+00	1.7859760E+02
4.1620400E+08	-4.8673730E+00	1.6744460E+02	-4.3914920E+01	1.5654210E+01	-4.2626810E+01	1.7020530E+02	-3.0132240E+00	-1.7761840E+02
4.2389300E+08	-4.9964750E+00	1.6820390E+02	-4.3423010E+01	2.6837760E+01	-4.2267000E+01	-1.6729740E+02	-2.8977380E+00	-1.7259080E+02
4.3158190E+08	-4.8279520E+00	1.6861510E+02	-4.3134980E+01	3.2292270E+01	-4.1790360E+01	-1.6721570E+02	-2.6818500E+00	-1.6792540E+02
4.3927090E+08	-4.8236210E+00	1.6840690E+02	-4.2997020E+01	4.2157290E+01	-4.1399350E+01	-1.5906630E+02	-2.4088640E+00	-1.6384420E+02
4.4695990E+08	-4.6010510E+00	1.6844950E+02	-4.0146110E+01	4.6877190E+01	-4.0870580E+01	-1.5018800E+02	-1.9986070E+00	-1.5987380E+02
4.5464880E+08	-4.6732990E+00	1.6818530E+02	-4.1809140E+01	5.5242960E+01	-4.0141430E+01	-1.4377740E+02	-1.4889570E+00	-1.5606470E+02
4.6233780E+08	-4.6485550E+00	-1.7955340E+02	-4.1223110E+01	5.9279180E+01	-3.9883110E+01	-1.3802540E+02	-7.4918480E-01	-1.5235200E+02
4.7002680E+08	-4.7269530E+00	1.6904860E+02	-4.0775990E+01	-7.5078800E+01	-3.9370570E+01	-1.3087070E+02	-1.6597410E-01	-1.4930100E+02
4.7771570E+08	-5.0261730E+00	1.6781880E+02	-4.0167540E+01	-5.7771860E+01	-3.8510470E+01	-1.2241150E+02	5.0966410E-01	-1.4653220E+02
4.8540470E+08	-5.2675940E+00	1.6546590E+02	-3.9478660E+01	-3.8504580E+01	-3.7852700E+01	-1.1295330E+02	1.6135990E+00	-1.4363800E+02
4.9309360E+08	-5.6049840E+00	1.6383870E+02	-3.8909730E+01	-2.9090560E+01	-3.7567350E+01	-1.0289130E+02	2.8128790E+00	-1.4238150E+02
5.0078260E+08	-5.7590390E+00	1.6356640E+02	-3.6552160E+01	-3.7172990E+01	-3.8108170E+01	-9.0281970E+01	3.3036990E+00	-1.4324630E+02
5.0847160E+08	-5.9044300E+00	1.6453130E+02	-3.5648430E+01	-5.2277060E+01	-3.8851610E+01	-7.7336080E+01	4.3290320E+00	-1.4388000E+02
5.1616050E+08	-5.8635080E+00	1.6613570E+02	-3.3257260E+01	-1.6255960E+02	-3.9612730E+01	-6.4143070E+01	5.3418820E+00	-1.4558800E+02
5.2384950E+08	-5.6070600E+00	1.7593450E+02	-3.3296610E+01	-1.4700680E+02	-3.9655530E+01	-5.1549660E+01	6.2748090E+00	-1.4778380E+02
5.3153850E+08	-5.0825040E+00	1.7029830E+02	-3.2477640E+01	-3.4068290E+01	-3.9664570E+01	-4.3689230E+01	7.0604840E+00	-1.5106070E+02
5.3922740E+08	-4.6720440E+00	1.6631440E+02	-3.4743070E+01	-9.0200220E+00	-3.9567960E+01	-3.1967820E+01	4.9778240E+00	-1.5030700E+02
5.4691640E+08	-4.4674110E+00	1.6521800E+02	-3.2501320E+01	-7.8850440E+00	-3.8822620E+01	-2.5849440E+01	8.6023100E+00	-1.5754880E+02
5.5460540E+08	-4.1809800E+00	1.6498100E+02	-3.2496010E+01	-1.1952700E+02	-3.8921410E+01	-2.0070770E+01	8.2302400E+00	-1.6505690E+02
5.6229430E+08	-3.9898460E+00	1.6526490E+02	-3.2717400E+01	-9.8282080E+01	-3.9155110E+01	-1.4552790E+01	7.4320400E+00	-1.6463600E+02
5.6998330E+08	-3.9033670E+00	1.6560170E+02	-3.2967300E+01	-8.8367970E+01	-3.9442600E+01	-7.4887690E+00	6.6232340E+00	-1.6209910E+02
5.7767220E+08	-4.0489180E+00	1.6646500E+02	-3.3157680E+01	-8.7767750E+01	-3.9776420E+01	-1.0221500E+01	5.7037300E+00	-1.5763410E+02
5.8536120E+08	-4.1470170E+00	1.6683620E+02	-3.3516600E+01	-9.9243510E+01	-4.0157770E+01	-4.2479970E+00	4.7091290E+00	-1.5169260E+02
5.9305020E+08	-4.2252620E+00	1.6469350E+02	-3.4097760E+01	-1.0040290E+02	-3.3436460E+01	4.8277220E+00	3.7530090E+00	-1.4514550E+02
6.0073910E+08	-3.8694230E+00	-1.7519370E+02	-3.2248180E+01	-9.6457230E+01	-4.0023220E+01	1.6060960E+01	2.8253020E+00	-1.3897520E+02
6.0842810E+08	-4.6884640E+00	1.6633340E+02	-3.7302990E+01	-8.8346270E+01	-4.1115560E+01	2.1324950E+01	1.9030840E+00	-1.3277990E+02
6.1611710E+08	-5.5655620E+00	1.4621200E+02	-3.8546310E+01	-7.5651140E+01	-4.2582090E+01	2.9653890E+01	1.1992580E+00	-1.2672300E+02
6.2380600E+08	-4.6924480E+00	1.6538090E+02	-3.9118800E+01	-5.8871130E+01	-4.1164160E+01	5.0490700E+01	4.6354980E-01	-1.2075210E+02
6.3149500E+08	-4.7314940E+00	1.6485990E+02	-4.0069870E+01	-5.2345920E+01	-4.1304760E+01	6.5425870E+01	-1.8267920E-01	-1.1485820E+02
6.3918390E+08	-4.6004420E+00	1.6434960E+02	-4.0294170E+01	-3.1007420E+01	-4.1022010E+01	7.9199960E+01	-6.6796580E-01	-1.0900380E+02
6.4687290E+08	-4.5466500E+00	1.6345690E+02	-4.0467200E+01	-1.0742620E+02	-4.1030840E+01	9.1431530E+01	-1.0619430E+00	-1.0347440E+02
6.5456190E+08	-4.3724730E+00	1.5851440E+02	-4.0838120E+01	-1.0170990E+02	-4.0641190E+01	1.0088750E+02	-1.3550650E+00	-9.8161280E+01
6.6225080E+08	-4.4427110E+00	1.6985990E+02	-4.0945250E+01	-7.0193530E+01	-4.0652920E+01	1.0951060E+02	-1.5880490E+00	-9.4523870E+01
6.6993980E+08	-4.3544620E+00	1.6350270E+02	-4.0703530E+01	-5.4772960E+01	-4.0920850E+01	1.1774680E+02	-1.6730050E+00	-8.9451510E+01
6.7762880E+08	-4.2541670E+00	1.6270260E+02	-3.9893090E+01	-4.1947170E+01	-4.0316520E+01	1.2613610E+02	-1.7195300E+00	-8.4475550E+01
6.8531770E+08	-4.3401650E+00	1.6275380E+02	-4.0052860E+01	-3.7278030E+01	-3.9978430E+01	1.3311600E+02	-1.7533090E+00	-7.9766590E+01
6.9300670E+08	-4.3829360E+00	1.6227460E+02	-3.9816950E+01	-2.4289830E+01	-3.9758970E+01	1.4045270E+02	-1.6394340E+00	-7.5366680E+01
7.0069570E+08	-4.4992450E+00	1.6146470E+02	-3.9607070E+01	-1.3058030E+01	-3.9339160E+01	1.4879620E+02	-1.4823970E+00	-7.0808010E+01
7.0838460E+08	-4.6671130E+00	1.6021450E+02	-3.9350110E+01	-9.0109760E+00	-3.8814110E+01	1.5841740E+02	-1.2193420E+00	-6.6905350E+01
7.1607360E+08	-4.8392750E+00	1.6006120E+02	-3.9184160E+01	1.4904550E+02	-3.8485000E+01	1.7449200E+02	-8.4990400E-01	-6.2846500E+01
7.2376250E+08	-4.9523090E+00	1.5908310E+02	-3.8998470E+01	1.4783130E+02	-3.9167230E+01	1.7556020E+02	-5.4084100E-01	-5.8887770E+01
7.3145150E+08	-4.8942200E+00	1.7907660E+02	-3.8842090E+01	1.7213640E+02	-3.8845600E+01	-1.7345800E+02	-1.4058480E-01	-5.5473760E+01
7.3914050E+08	-5.0132360E+00	1.6119690E+02	-3.8146420E+01	5.1473400E+01	-3.9668110E+01	-1.6547830E+02	3.0082850E-01	-5.2242700E+01
7.4682940E+08	-4.8713840E+00	1.6199680E+02	-3.7841790E+01	6.6162820E+01	-4.0365370E+01	-1.5507290E+02	7.6060430E-01	-4.9259460E+01
7.5451840E+08	-4.7925590E+00	1.6204440E+02	-3.7205960E+01	8.2208130E+01	-4.0964910E+01	-1.4539160E+02	1.2007030E+00	-4.6907510E+01
7.6220740E+08	-5.0726980E+00	1.6221270E+02	-3.6984050E+01	9.6870020E+01	-4.1304790E+01	-1.3594110E+02	1.4918010E+00	-4.4805210E+01
7.6989630E+08	-4.5611930E+00	1.6193580E+02	-3.5932910E+01	1.1541600E+02	-4.0040310E+01	-1.2731900E+02	1.7632170E+00	-4.2948900E+01
7.7758530E+08	-4.5414120E+00	1.6215010E+02	-3.5619780E+01	1.0886060E+02	-4.1409870E+01	-1.1823320E+02	1.8670780E+00	-4.1146110E+01
7.8527420E+08	-4.5819330E+00	1.6209960E+02	-3.4949170E+01	1.0999590E+02	-4.1727030E+01	-1.0916080E+02	1.9862790E+00	-3.9372390E+01
7.9296320E+08	-4.9310670E+00	1.6075960E+02	-3.4493060E+01	1.1590260E+02	-4.0772430E+01	-9.7974880E+01	2.0087810E+00	-3.7759060E+01
8.0065220E+08	-4.6505670E+00	1.7250650E+02	-3.4892110E+01	1.1997450E+02	-4.1522380E+01	-8.1717570E+01	1.8403270E+00	-3.6228790E+01
8.0834110E+08	-4.8885370E+00	1.6095570E+02	-3.5081600E+01	1.2540630E+02	-4.1532520E+01	-7.4002900E+01	1.5745750E+00	-3.4207130E+01
8.1603010E+08	-4.8885110E+00	1.5906900E+02	-3.4890790E+01	1.3252830E+02	-4.1360320E+01	-6.2837210E+01	1.3206150E+00	-3.1785900E+01
8.2371910E+08	-4.8038520E+00	1.5774600E+02	-3.5617510E+01	1.4115540E+02	-3.9230100E+01	-5.1556330E+01	9.6513600E-01	-2.8956330E+01
8.3140800E+08	-4.7826770E+00	1.5753060E+02	-3.6054890E+01	1.6429260E+02	-4.0862820E+01	-4.0313370E+01	5.6707440E-01	-2.5790070E+01
8.3909700E+08	-4.6481110E+00	1.5753420E+02	-3.6456280E+01	6.9368510E+01	-3.9729960E+01	-2.9466090E+01	2.8927990E-01	-2.2391560E+01
8.4678600E+08	-4.6389930E+00	1.5753200E+02	-3.8967450E+01	8.6815330E+01	-4.1101120E+01	-1.9237190E+01	4.5519410E-02	-1.8654100E+01
8.5447490E+08	-4.6220290E+00	1.5646650E+02	-3.3800540E+01	9.9277650E+01	-4.1200330E+01	-9.8047140E+00	-2.3825300E-01	-1.4782850E+01
8.6216390E+08	-4.5874390E+00	-1.7987400E+02	-3.8735970E+01	1.0774250E+02	-4.1361760E+01	7.0401850E+00	-5.7390200E-01	-1.0785610E+01
8.6985280E+08	-4.7556880E+00	1.6030210E+02	-3.9648390E+01	1.2550700E+02	-4.1704410E+01	1.6632680E+00	-8.6129150E-01	-7.2869150E+00
8.7754180E+08	-4.7536700E+00	1.5783160E+02	-4.0425580E+01	1.1892320E+02	-4.1547420E+01	8.6718500E+00	-1.0676860E+00	4.1935010E+00
8.8523080E+08	-5.2735130E+00	1.5812890E+02	-4.0553530E+01	-8.9539610E+01	-4.1774170E+01	1.7649480E+01	-1.0591830E+00	3.1994250E+00
8.9291970E+08	-5.1072000E+00	1.5722900E+02	-4.0590770E+01	-8.3575220E+01	-4.1223780E+01	2.6710760E+01	-1.0054540E+00	3.9076520E+00
9.0060870E+08	-5.2471980E+00	1.5733570E+02	-4.0537350E+01	1.6900840E+02	-4.0897860E+01	3.6762470E+01	-7.8316670E-01	6.3477960E+00
9.0829770E+08	-5.2058540E+00	1.5723660E+02	-4.0450980E+01	-1.7521300E+02	-4.0111410E+01	4.7600880E+01	-5.2255820E-01	9.9772270E+00
9.1598660E+08	-5.3263070E+00	1.5759820E+02	-4.0191950E+01	-1.6032420E+02	-3.9618450E+01	5.9995890E+01	-1.6585160E-01	1.4628400E+01
9.2367560E+08	-5.2582010E+00	1.5898840E+02	-3.9802270E+01	-1.4607200E+02	-3.9631880E+01	7.2583140E+01	3.1298230E-01	1.9871960E+01
9.3136450E+08	-5.2378270E+00	1.7303640E+02	-3.9234660E+01	-1.3097540E+02	-3.8916820E+01	8.4209210E+01	8.3590490E-01	2.4843040E+01
9.3905350E+08	-4.9088980E+00	1.5780890E+02	-3.8831040E+01	-1.1691790E+02	-3.1052240E+01	9.7703850E+01	1.4908140E+00	2.9933200E+01
9.4674250E+08	-5.1337110E+00	1.5785860E+02	-3.8295060E+01	-1.0600610E+02	-3.8849530E+01	1.0811310E+02	2.1586000E+00	3.4841000E+01
9.5443140E+08	-4.5654570E+00	1.5670330E+02	-3.7230070E+01	-9.5558250E+01	-3.8968840E+01	1.1682530E+02	3.0366070E+00	3.9805570E+01
9.6212040E+08	-4.1427340E+00	1.5712060E+02	-3.6305680E+01	-8.4188730E+01	-3.8756970E+01	1.2540090E+02	3.9846160E+00	4.4105890E+01
9.6980940E+08	-3.9836930E+00	1.5723870E+02	-3.1765970E+01	1.0867840E+02	-3.8730320E+01	1.3275290E+02	4.9724740E+00	4.8126900E+01
9.7749830E+08	-3.9998740E+00	1.5736680E+02	-3.4186330E+01	1.1198580E+02	-3.8683670E+01	1.3943440E+02	5.8785360E+00	5.0857040E+01
9.8518730E+08	-4.1370350E+00	1.5649790E+02	-3.4078010E+01	1.2640690E+02	-3.8364010E+01	1.4754980E+02	6.6425970E+00	5.2968250E+01
9.9287630E+08	-4.3983520E+00	1.5939030E+02	-3.3431270E+01	1.3616430E+02	-3.8814590E+01	1.5779380E+02	7.1551890E+00	5.2806590E+01
1.0005650E+09	-4.0584940E+00	1.7665900E+02	-3.3034880E+01	1.4414360E+02	-3.8275330E+01	-1.6934000E+02	7.4303000E+00	5.1529980E+01
1.0082540E+09	-4.7429170E+00	1.5510600E+02	-3.2952900E+01	1.5076070E+02	-3.8585330E+01	1.7248570E+02	7.2713490E+00	4.9790920E+01
1.0159430E+09	-5.0165550E+00	1.5431970E+02	-3.3147190E+01	1.5799950E+02	-3.8843690E+01	1.7342160E+02	6.7885840E+00	4.7597670E+01
1.0236320E+09	-5.0296580E+00	1.5418970E+02	-3.3561650E+01	1.6686620E+02	-3.8781130E+01	-1.7603880E+02	5.8743910E+00	4.6354790E+01
1.0313210E+09	-5.0383100E+00	1.5359640E+02	-3.4193230E+01	1.7559760E+02	-3.9553040E+01	-1.7148990E+02	4.7798590E+00	4.6200060E+01
1.0390100E+09	-5.1563280E+00	1.5401320E+02	-3.5046630E+01	-1.7343970E+02	-3.8508100E+01	-1.5076160E+02	3.6359170E+00	4.6664460E+01
1.0466990E+09	-6.4011590E+00	1.5236380E+02	-3.5912530E+01	-1.6047230E+02	-3.8552480E+01	-1.3885760E+02	2.1845160E+00	4.8298680E+01
1.0543880E+09	-4.7964430E+00	1.4236930E+02	-3.6481640E+01	-1.4662070E+02	-3.8407010E+01	-1.3141940E+02	1.5981670E+00	5.0945980E+01
1.0620770E+09	-5.0524340E+00	1.7367160E+02	-3.7156090E+01	-1.3365000E+02	-3.8921080E+01	-1.1659300E+02	7.0414470E-01	5.3610290E+01
1.0697660E+09	-5.1916850E+00	1.5651870E+02	-3.7693700E+01	-1.2440860E+02	-3.9466720E+01	-1.1422320E+02	-9.6430070E-02	5.8821140E+01
1.0774550E+09	-5.0392920E+00	1.5075410E+02	-3.8089140E+01	-1.2147390E+02	-3.9156820E+01	-1.0749130E+02	-7.9894510E-01	6.2677960E+01
1.0851440E+09	-4.9144100E+00	1.5003660E+02	-3.8467730E+01	-1.0816930E+02	-3.9596790E+01	-9.8849220E+01	-1.4933450E+00	6.6817280E+01
1.0928330E+09	-5.0769380E+00	1.4870950E+02	-3.8955530E+01	1.5620100E+02	-3.9147300E+01	-8.9053220E+01	-1.9779750E+00	7.1350950E+01
1.1005220E+09	-5.4284620E+00	1.4734280E+02	-4.0810920E+01	1.7311030E+02	-3.9674010E+01	-7.8688650E+01	-2.4120650E+00	7.5753360E+01
1.1082110E+09	-6.0001020E+00	1.7265770E+02	-4.1188850E+01	-1.6856490E+02	-3.6869120E+01	-6.4937140E+01	-2.7352780E+00	8.0673480E+01
1.1159000E+09	-6.5742160E+00	-1.5965370E+02	-4.1295200E+01	-1.5346230E+02	-3.8079000E+01	-5.1080120E+01	-2.9545640E+00	8.5750140E+01
1.1235890E+09	-6.5566970E+00	1.7302550E+02	-4.1827160E+01	-1.3665080E+02	-3.9940810E+01	-4.3017540E+01	-3.0535650E+00	9.0889850E+01
1.1312780E+09	-6.1807790E+00	1.7417840E+02	-4.1923560E+01	-1.2015570E+02	-3.9836970E+01	-2.9893770E+01	-3.0762270E+00	9.6212610E+01
1.1389670E+09	-6.0111410E+00	1.7675170E+02	-4.0183010E+01	-1.0216250E+02	-3.9311670E+01	-1.9498890E+01	-2.9725650E+00	1.0180200E+02
1.1466560E+09	-5.6280320E+00	1.7604670E+02	-4.2143750E+01	-8.3973300E+01	-3.8961700E+01	9.6594710E+00	-2.8667140E+00	1.0745020E+02
1.1543440E+09	-5.2761470E+00	1.7527390E+02	-4.1840700E+01	5.2913340E+01	-3.9124120E+01	8.7236050E+00	-2.6300390E+00	1.1300260E+02
1.1620330E+09	-4.8366110E+00	1.7431400E+02	-4.2104370E+01	6.4041560E+01	-3.9549210E+01	1.2427350E+01	-2.1926600E+00	1.1908190E+02
