# Hz S DB R 50.000000
+1.000000e+06	-3.994552e+01	+2.474480e+01	-2.221450e+00	+2.934547e+00	-2.199215e+00	+1.127470e+00	-3.331802e+01	-8.965357e+01
+8.688963e+06	-4.965246e+01	-1.155938e+02	-2.148446e+00	+7.603285e-01	-2.127607e+00	+1.049899e+00	-4.939583e+01	+1.314872e+02
+1.637793e+07	-5.837408e+01	+1.723870e+02	-2.194169e+00	+1.577775e+00	-2.171188e+00	+1.641357e+00	-5.033251e+01	+1.355146e+02
+2.406689e+07	-5.605378e+01	+1.748822e+02	-2.114145e+00	+2.268648e+00	-2.149994e+00	+2.487872e+00	-5.311909e+01	+1.377052e+02
+3.175585e+07	-5.558018e+01	+1.753384e+02	-2.102411e+00	+3.243258e+00	-2.138070e+00	+3.083815e+00	-5.704414e+01	+1.317591e+02
+3.944482e+07	-4.303481e+01	+1.175069e+02	-2.032409e+00	+3.972916e+00	-2.139506e+00	+4.126181e+00	-3.011073e+01	-1.616287e+02
+4.713378e+07	-3.227519e+01	+1.118035e+02	-2.084074e+00	+4.860719e+00	-2.161579e+00	+4.669314e+00	-3.819584e+01	-1.396281e+02
+5.482274e+07	-4.015860e+01	+1.219296e+02	-2.119317e+00	+5.534766e+00	-2.117724e+00	+5.294393e+00	-6.394302e+01	-1.190723e+02
+6.251171e+07	-4.480010e+01	+1.284680e+02	-2.070554e+00	+6.109646e+00	-2.136879e+00	+5.862956e+00	-5.284847e+01	+7.541310e+01
+7.020067e+07	-4.530757e+01	+1.314166e+02	-2.131381e+00	+7.090783e+00	-2.166400e+00	+6.481650e+00	-3.642602e+01	+8.892836e+01
+7.788963e+07	-4.505177e+01	+1.298320e+02	-2.124196e+00	+7.660559e+00	-2.148656e+00	+7.231021e+00	-5.285255e+01	+5.491168e+01
+8.557860e+07	-4.463758e+01	+1.318342e+02	-2.108738e+00	+8.362667e+00	-2.206898e+00	+7.911085e+00	-5.434480e+01	+1.122577e+02
+9.326756e+07	-4.181591e+01	-6.748527e+01	-2.115327e+00	-6.545421e+00	-2.184300e+00	+8.757058e+00	-4.205550e+01	-3.264200e+01
+1.009565e+08	-3.564137e+01	+4.761886e+01	-2.137045e+00	+3.250631e+00	-2.175885e+00	+9.609903e+00	-5.064574e+01	-7.345574e+00
+1.086455e+08	-4.407282e+01	+1.306808e+02	-2.046007e+00	+1.051154e+01	-2.180258e+00	+1.031507e+01	-4.986117e+01	+9.906166e+01
+1.163344e+08	-4.298662e+01	+1.328943e+02	-2.070240e+00	+1.151551e+01	-2.129087e+00	+1.094699e+01	-5.015440e+01	+9.896034e+01
+1.240234e+08	-4.134498e+01	+1.454229e+02	-2.031143e+00	+1.228135e+01	-2.143315e+00	+1.164330e+01	-5.105707e+01	+1.003707e+02
+1.317124e+08	-4.166443e+01	+1.509439e+02	-2.058118e+00	+1.275535e+01	-2.127083e+00	+1.225629e+01	-2.887551e+01	+9.428733e+01
+1.394013e+08	-3.854005e+01	+1.739266e+02	-2.104857e+00	+1.350159e+01	-2.102305e+00	+2.002486e+01	-3.830126e+01	+9.205159e+01
+1.470903e+08	-3.441636e+01	+1.318066e+02	-2.088338e+00	+1.440596e+01	-2.141493e+00	-4.596042e+00	-3.731688e+01	-1.124107e+02
+1.547793e+08	-3.661984e+01	+1.543229e+02	-2.062524e+00	+1.552188e+01	-2.169314e+00	+7.377969e+00	-4.688459e+01	-1.209782e+02
+1.624682e+08	-3.810742e+01	+1.591288e+02	-2.025711e+00	+1.615210e+01	-2.323797e+00	+1.365464e+01	-6.653855e+01	+8.060286e+01
+1.701572e+08	-3.741541e+01	+1.500338e+02	-2.064196e+00	+1.666914e+01	-2.429583e+00	+1.672284e+01	-3.495430e+01	+3.401028e+01
+1.778462e+08	-3.866695e+01	+1.489697e+02	-2.111267e+00	+1.739297e+01	-2.311576e+00	+1.823684e+01	-4.018982e+01	+9.419368e+01
+1.855351e+08	-3.933841e+01	+1.474387e+02	-2.095282e+00	+1.844277e+01	-2.086197e+00	+1.918390e+01	-3.960690e+01	+8.161107e+01
+1.932241e+08	-3.138979e+01	-1.588697e+02	-2.098262e+00	-7.252796e+00	-2.088242e+00	+1.908764e+01	-3.335052e+01	-1.588154e+02
+2.009130e+08	-3.769584e+01	-1.759285e+02	-2.049639e+00	+9.904651e+00	-2.025853e+00	+1.942189e+01	-4.201220e+01	+1.543068e+02
+2.086020e+08	-3.918760e+01	-1.237146e+00	-1.971618e+00	+2.047235e+01	-2.000331e+00	+2.014473e+01	-4.380576e+01	+6.774287e+01
+2.162910e+08	-2.073482e+01	+4.750310e+01	-1.845485e+00	+1.925016e+01	-2.010481e+00	+2.033523e+01	-4.459891e+01	+8.673973e+01
+2.239799e+08	-3.800934e+01	-1.761902e+02	-2.012687e+00	+2.181588e+01	-2.054062e+00	+2.135854e+01	-4.013056e+01	+6.747822e+01
+2.316689e+08	-3.755192e+01	+1.764074e+02	-2.108312e+00	+2.242136e+01	-2.201702e+00	+2.096103e+01	-2.190752e+01	+9.627284e+00
+2.393579e+08	-3.851937e+01	+1.760411e+02	-2.089764e+00	+2.330890e+01	-2.230251e+00	+2.269091e+01	-3.358083e+01	+4.992082e+01
+2.470468e+08	-3.799715e+01	-1.608309e+02	-2.101768e+00	+2.464003e+01	-2.046304e+00	+2.431838e+01	-4.835649e+01	+1.690208e+02
+2.547358e+08	-3.192674e+01	-1.663311e+02	-2.123694e+00	+2.481974e+01	-2.076143e+00	+2.379416e+01	-3.616712e+01	+1.218205e+02
+2.624247e+08	-3.173447e+01	-1.724455e+02	-2.180854e+00	+2.644873e+01	-2.102612e+00	+2.473801e+01	-3.729868e+01	+8.612482e+01
+2.701137e+08	-2.458790e+01	-1.575207e+02	-2.163983e+00	+2.761889e+01	-2.075485e+00	+2.559331e+01	-3.736497e+01	+4.886629e+01
+2.778027e+08	-2.960106e+01	-1.599678e+02	-2.132087e+00	+2.729988e+01	-1.974309e+00	+3.774192e+01	-3.106480e+01	-3.630861e+01
+2.854916e+08	-3.646549e+01	-1.717570e+02	-2.144021e+00	+2.920093e+01	-1.952490e+00	+2.258970e+01	-3.932850e+01	+1.053046e+02
+2.931806e+08	-3.557769e+01	-8.094172e+01	-2.203095e+00	-5.570776e+00	-1.952114e+00	+2.184854e+01	-3.169266e+01	+1.032866e+02
+3.008696e+08	-3.455219e+01	-1.208607e+02	-2.199365e+00	+1.854428e+01	-1.982193e+00	+1.363810e+01	-3.460913e+01	+1.009394e+02
+3.085585e+08	-3.486485e+01	-1.654270e+02	-2.247172e+00	+2.966972e+01	-2.059227e+00	+2.637329e+01	-4.112596e+01	+9.459984e+01
+3.162475e+08	-3.516665e+01	-1.775383e+02	-2.302914e+00	+3.153083e+01	-2.127966e+00	+2.833283e+01	-4.032642e+01	+9.231895e+01
+3.239365e+08	-3.614102e+01	+8.011886e+01	-2.295459e+00	+3.222997e+01	-2.220950e+00	+2.955114e+01	-4.447536e+01	+5.513656e+01
+3.316254e+08	-3.539127e+01	-1.627133e+02	-2.241982e+00	+3.315471e+01	-2.242292e+00	+3.060591e+01	-4.272111e+01	+5.166679e+01
+3.393144e+08	-3.443118e+01	-1.588029e+02	-2.189750e+00	+3.386489e+01	-2.283673e+00	+3.175578e+01	-4.273955e+01	-1.511638e+01
+3.470033e+08	-3.435200e+01	-1.495084e+02	-2.106330e+00	+3.440567e+01	-2.164693e+00	+3.292270e+01	-3.792122e+01	+8.736683e+01
+3.546923e+08	-3.426353e+01	-1.503976e+02	-2.166347e+00	+3.481401e+01	-2.084597e+00	+3.382021e+01	-3.822487e+01	+1.202915e+02
+3.623813e+08	-3.454167e+01	-1.499861e+02	-2.105342e+00	+3.542903e+01	-2.114388e+00	+3.451913e+01	-2.951526e+01	+1.580363e+02
+3.700702e+08	-3.433527e+01	-1.452178e+02	-2.070159e+00	+3.669999e+01	-2.080594e+00	+3.505746e+01	-3.073604e+01	+1.621270e+02
+3.777592e+08	-3.530126e+01	-1.116721e+02	-2.109599e+00	+3.721926e+01	-2.071263e+00	+3.572810e+01	-3.651553e+01	+1.356141e+02
+3.854482e+08	-3.409509e+01	-1.545992e+02	-2.056727e+00	+2.771004e+01	-2.171186e+00	+3.645432e+01	-3.587016e+01	+8.596677e+01
+3.931371e+08	-2.547600e+01	-1.223208e+02	-2.014376e+00	+1.925794e+01	-2.248354e+00	+3.670126e+01	-3.003669e+01	+6.561448e+01
+4.008261e+08	-3.112782e+01	-1.252684e+02	-2.051159e+00	+2.246564e+01	-2.258284e+00	+3.720743e+01	-3.265674e+01	+7.202911e+01
+4.085151e+08	-3.235175e+01	-1.269723e+02	-2.163928e+00	+3.788454e+01	-2.383750e+00	+3.822504e+01	-3.480504e+01	+9.534823e+01
+4.162040e+08	-3.268943e+01	-1.264908e+02	-2.181108e+00	+3.990224e+01	-2.421681e+00	+3.944968e+01	-3.479339e+01	+9.211877e+01
+4.238930e+08	-3.184473e+01	-1.272403e+02	-2.090368e+00	+4.092879e+01	-2.488545e+00	+4.919889e+01	-3.500859e+01	+1.047100e+02
+4.315819e+08	-3.151193e+01	-1.311709e+02	-2.185765e+00	+4.183789e+01	-2.343689e+00	+3.830489e+01	-3.776005e+01	+9.811317e+01
+4.392709e+08	-3.192908e+01	-1.380303e+02	-2.189247e+00	+4.310744e+01	-2.372064e+00	+3.706516e+01	-3.794173e+01	+1.005981e+02
+4.469599e+08	-3.008376e+01	-1.134027e+02	-2.049929e+00	+4.351640e+01	-2.360237e+00	+3.857608e+01	-3.798584e+01	+9.369240e+01
+4.546488e+08	-2.638541e+01	-1.214559e+02	-2.044818e+00	+4.392100e+01	-2.296908e+00	+2.274182e+01	-2.914592e+01	+7.980744e+01
+4.623378e+08	-2.739791e+01	-1.244260e+02	-2.259004e+00	+4.411012e+01	-2.163752e+00	+3.834550e+01	-3.537061e+01	+9.252833e+01
+4.700268e+08	-3.157220e+01	-1.260742e+02	-2.366922e+00	+4.429014e+01	-2.144817e+00	+4.616099e+01	-3.513071e+01	+8.473056e+01
+4.777157e+08	-3.062187e+01	-1.287118e+02	-2.269771e+00	+5.232993e+01	-2.047982e+00	+4.765156e+01	-3.498770e+01	+8.480601e+01
+4.854047e+08	-3.007664e+01	-1.274408e+02	-2.302735e+00	+3.964931e+01	-1.929578e+00	+4.806086e+01	-3.883924e+01	+9.394148e+01
+4.930936e+08	-2.252817e+01	-6.609079e+01	-2.446829e+00	+4.241362e+01	-1.816870e+00	+4.862679e+01	-4.265236e+01	+7.820527e+00
+5.007826e+08	-2.362698e+01	-7.259474e+01	-2.252627e+00	+3.368279e+01	-1.664874e+00	+4.862185e+01	-3.661295e+01	+1.384564e+02
+5.084716e+08	-2.495655e+01	-7.096885e+01	-2.121511e+00	+5.070867e+01	-1.609794e+00	+4.852918e+01	-3.607411e+01	+1.311342e+02
+5.161605e+08	-2.464394e+01	-8.679212e+01	-1.899880e+00	+5.354504e+01	-1.589364e+00	+4.842163e+01	-3.467338e+01	+1.327014e+02
+5.238495e+08	-3.141089e+01	-1.195263e+02	-1.864030e+00	+5.242374e+01	-1.469453e+00	+5.776735e+01	-3.699320e+01	+1.212633e+02
+5.315385e+08	-3.156760e+01	-1.076588e+02	-1.929576e+00	+5.242617e+01	-1.750848e+00	+4.780732e+01	-3.237795e+01	+1.115512e+02
+5.392274e+08	-2.722525e+01	-1.084686e+02	-2.027245e+00	+5.261836e+01	-1.737275e+00	+4.815446e+01	-3.342955e+01	+1.111347e+02
+5.469164e+08	-2.781337e+01	-1.070710e+02	-2.013801e+00	+5.397676e+01	-2.001477e+00	+4.862217e+01	-3.291688e+01	+8.269936e+01
+5.546054e+08	-3.073428e+01	-9.259015e+01	-2.051407e+00	+5.473451e+01	-2.101203e+00	+5.007577e+01	-3.250471e+01	+6.321761e+01
+5.622943e+08	-3.102737e+01	-8.809724e+01	-2.107701e+00	+5.510394e+01	-2.233571e+00	+5.136111e+01	-2.458903e+01	+1.836260e+01
+5.699833e+08	-3.152047e+01	-7.277480e+01	-2.063650e+00	+5.653487e+01	-2.174989e+00	+5.561727e+01	-3.748164e+01	+8.615230e+01
+5.776722e+08	-2.850002e+01	-1.049714e+02	-2.040314e+00	+4.865293e+01	-2.227022e+00	+4.858430e+01	-3.121578e+01	+1.172565e+02
+5.853612e+08	-2.845312e+01	-1.095597e+02	-2.054237e+00	+3.814372e+01	-2.260636e+00	+5.766026e+01	-3.103071e+01	+1.038041e+02
+5.930502e+08	-2.897906e+01	-1.050627e+02	-2.109954e+00	+3.916356e+01	-2.210013e+00	+5.824607e+01	-3.160952e+01	+8.796525e+01
+6.007391e+08	-2.958803e+01	-1.081036e+02	-2.074709e+00	+2.406801e+01	-2.207878e+00	+5.131542e+01	-2.945188e+01	+7.169200e+01
+6.084281e+08	-3.046250e+01	-9.959107e+01	-2.181030e+00	+4.676146e+01	-2.410636e+00	+5.118902e+01	-2.699230e+01	+7.226317e+01
+6.161171e+08	-3.015679e+01	-7.875474e+01	-2.249278e+00	+6.024444e+01	-2.560036e+00	+4.898728e+01	-2.507436e+01	+5.729458e+01
+6.238060e+08	-2.869009e+01	-6.716950e+01	-2.189397e+00	+6.065288e+01	-2.692453e+00	+5.677584e+01	-4.970210e+01	+3.077150e+01
+6.314950e+08	-3.424429e+01	-6.564423e+01	-2.084007e+00	+6.154722e+01	-2.697450e+00	+6.064292e+01	-5.025416e+01	-6.858741e+00
+6.391839e+08	-2.870735e+01	-6.523550e+01	-2.091059e+00	+6.230843e+01	-2.622899e+00	+6.222081e+01	-4.852817e+01	+2.346934e+01
+6.468729e+08	-2.891711e+01	-1.103728e+02	-2.128724e+00	+6.322855e+01	-2.510963e+00	+6.368260e+01	-3.851084e+01	+3.760714e+01
+6.545619e+08	-2.696371e+01	-9.173783e+01	-2.138906e+00	+4.782620e+01	-2.388050e+00	+6.527893e+01	-3.197772e+01	-1.200365e+02
+6.622508e+08	-2.533043e+01	-1.251425e+02	-2.059617e+00	+6.455492e+01	-2.162526e+00	+6.631155e+01	-3.705264e+01	+6.987699e+01
+6.699398e+08	-2.926480e+01	-5.061088e+01	-2.097390e+00	+6.439257e+01	-1.887884e+00	+6.685401e+01	-3.163806e+01	+9.193058e+01
+6.776288e+08	-3.337591e+01	-7.802779e+01	-2.029368e+00	+6.355309e+01	-1.793480e+00	+6.641298e+01	-3.165250e+01	+1.057905e+02
+6.853177e+08	-2.963929e+01	-7.497838e+01	-2.076824e+00	+5.555256e+01	-1.670038e+00	+6.678597e+01	-2.912671e+01	+9.030331e+01
+6.930067e+08	-2.935223e+01	-7.161288e+01	-2.104178e+00	+5.678540e+01	-1.631908e+00	+6.677500e+01	-2.937371e+01	+8.797234e+01
+7.006957e+08	-2.938265e+01	-6.614771e+01	-2.116561e+00	+5.783414e+01	-1.682466e+00	+6.697884e+01	-2.924299e+01	+9.757612e+01
+7.083846e+08	-2.707549e+01	-9.110160e+01	-2.148866e+00	+5.130910e+01	-1.710140e+00	+6.746637e+01	-2.797058e+01	+6.108577e+01
+7.160736e+08	-2.332457e+01	+4.190902e-01	-2.069898e+00	+6.739535e+01	-1.562067e+00	+7.351145e+01	-3.193189e+01	+1.001935e+02
+7.237625e+08	-2.788446e+01	-4.519012e+01	-2.041070e+00	+5.631338e+01	-1.724261e+00	+6.364447e+01	-2.929585e+01	+5.932408e+01
+7.314515e+08	-2.886721e+01	-6.481402e+01	-1.911682e+00	+7.207707e+01	-1.748623e+00	+6.155656e+01	-3.062736e+01	+1.243055e+02
+7.391405e+08	-2.881717e+01	-6.268861e+01	-1.834259e+00	+7.263540e+01	-1.694151e+00	+6.245574e+01	-2.709931e+01	+9.533074e+01
+7.468294e+08	-3.016900e+01	-6.227076e+01	-1.827424e+00	+7.344117e+01	-1.782201e+00	+6.283700e+01	-2.651883e+01	+9.938898e+01
+7.545184e+08	-3.053324e+01	-5.417338e+01	-1.882865e+00	+7.406958e+01	-1.867739e+00	+6.309899e+01	-3.042501e+01	+7.500379e+01
+7.622074e+08	-3.096652e+01	-4.827107e+01	-1.832945e+00	+7.494587e+01	-1.968693e+00	+6.299950e+01	-3.062055e+01	+7.403098e+01
+7.698963e+08	-3.096359e+01	-4.522173e+01	-1.892360e+00	+8.203533e+01	-2.081825e+00	+5.475319e+01	-3.031520e+01	+7.123874e+01
+7.775853e+08	-2.775910e+01	-7.863815e+01	-1.963956e+00	+6.436895e+01	-2.189953e+00	+6.599012e+01	-3.093323e+01	+6.198385e+01
+7.852742e+08	-3.011256e+01	-4.267202e+01	-1.874830e+00	+5.886829e+01	-2.196129e+00	+7.235830e+01	-2.991763e+01	+5.086707e+01
+7.929632e+08	-2.906204e+01	-4.194482e+01	-1.902151e+00	+6.082254e+01	-2.284882e+00	+7.384500e+01	-3.032487e+01	+1.514383e+02
+8.006522e+08	-2.896686e+01	-4.511270e+01	-1.862041e+00	+6.162312e+01	-2.296920e+00	+7.459734e+01	-3.673736e+01	-1.597661e+02
+8.083411e+08	-2.536575e+01	-5.143076e+01	-1.818216e+00	+4.852727e+01	-2.294898e+00	+7.584248e+01	-3.889308e+01	-7.877852e+01
+8.160301e+08	-2.958102e+01	-3.424747e+01	-1.751706e+00	+7.002606e+01	-2.371012e+00	+7.707065e+01	-3.730348e+01	+1.421887e+01
+8.237191e+08	-3.517835e+01	-1.748823e+01	-1.838357e+00	+8.188807e+01	-2.313182e+00	+7.807989e+01	-3.093358e+01	+2.270029e+01
+8.314080e+08	-2.738846e+01	+3.208190e+01	-1.792843e+00	+8.207780e+01	-2.294453e+00	+7.883621e+01	-3.211513e+01	+6.592692e+01
+8.390970e+08	-3.048121e+01	-6.912700e+00	-1.890731e+00	+8.216103e+01	-2.274020e+00	+7.978339e+01	-3.234292e+01	+9.014299e+01
+8.467860e+08	-3.114246e+01	-1.591195e+01	-2.009511e+00	+8.292659e+01	-2.275003e+00	+8.078684e+01	-3.231395e+01	+1.015731e+02
+8.544749e+08	-3.070208e+01	-1.501766e+01	-2.097667e+00	+8.337013e+01	-2.229893e+00	+8.191401e+01	-3.022578e+01	+8.820359e+01
+8.621639e+08	-2.999815e+01	-9.230978e-01	-2.276792e+00	+8.492796e+01	-2.204660e+00	+8.791873e+01	-2.797679e+01	+8.649508e+01
+8.698528e+08	-2.969715e+01	-2.722914e+00	-2.288605e+00	+9.642622e+01	-2.230520e+00	+7.985985e+01	-3.340013e+01	+6.838012e+01
+8.775418e+08	-3.272937e+01	-1.907225e+01	-2.312870e+00	+8.030782e+01	-2.238719e+00	+7.806657e+01	-3.188341e+01	+8.218269e+01
+8.852308e+08	-3.183854e+01	-2.590906e+01	-2.313420e+00	+7.865678e+01	-2.248873e+00	+8.018794e+01	-2.337730e+01	-2.844251e+01
+8.929197e+08	-2.833311e+01	-5.830995e+01	-2.257304e+00	+8.049786e+01	-2.259234e+00	+8.019509e+01	-2.745281e+01	+9.297473e+00
+9.006087e+08	-2.681300e+01	-7.413725e+01	-2.203394e+00	+8.137377e+01	-2.204370e+00	+8.051161e+01	-3.077998e+01	+5.374375e+01
+9.082977e+08	-2.249975e+01	-8.186727e+01	-2.218287e+00	+8.168588e+01	-2.267324e+00	+8.052494e+01	-3.012437e+01	+7.048350e+01
+9.159866e+08	-2.005616e+01	-8.557686e+01	-2.109666e+00	+7.583201e+01	-2.236473e+00	+8.073917e+01	-2.916172e+01	+9.035157e+01
+9.236756e+08	-1.884923e+01	-8.403353e+01	-2.092027e+00	+9.109606e+01	-2.178945e+00	+6.198425e+01	-2.569395e+01	+7.931156e+01
+9.313645e+08	-1.975265e+01	-5.284096e+01	-1.974000e+00	+1.065726e+02	-2.201910e+00	+7.616695e+01	-2.382867e+01	+9.313191e+01
+9.390535e+08	-2.025532e+01	-3.955299e+01	-1.845468e+00	+9.442307e+01	-1.988015e+00	+8.598717e+01	-3.740949e+01	+3.819483e+01
+9.467425e+08	-2.882935e+01	-2.593915e+01	-1.862820e+00	+9.471317e+01	-2.157512e+00	+9.039950e+01	-2.305230e+01	-4.374198e+01
+9.544314e+08	-3.184819e+01	+1.091027e+00	-1.810809e+00	+9.448408e+01	-1.880676e+00	+8.992320e+01	-3.079024e+01	+8.117727e+00
+9.621204e+08	-3.270880e+01	+6.988354e+00	-1.783629e+00	+9.505218e+01	-1.819559e+00	+8.944838e+01	-3.199736e+01	+7.669062e+01
+9.698094e+08	-3.243180e+01	-2.319681e+01	-1.736759e+00	+8.794919e+01	-1.813560e+00	+8.936217e+01	-2.685015e+01	+7.799025e+01
+9.774983e+08	-3.225842e+01	-5.837851e+01	-1.828253e+00	+7.654097e+01	-1.736071e+00	+8.980414e+01	-2.904131e+01	+1.467829e+02
+9.851873e+08	-3.350094e+01	-5.647989e+01	-1.947390e+00	+7.648272e+01	-1.961189e+00	+9.112892e+01	-2.339144e+01	+5.330815e+01
+9.928763e+08	-3.727390e+01	-5.337703e+01	-1.923560e+00	+7.782399e+01	-2.145635e+00	+9.420150e+01	-2.473922e+01	+6.057025e+01
+1.000565e+09	-2.743549e+01	-3.775134e+01	-1.970121e+00	+7.846656e+01	-2.582076e+00	+1.140497e+02	-3.626851e+01	+1.055379e+02
+1.008254e+09	-2.919557e+01	-3.499329e+01	-2.052013e+00	+7.954480e+01	-2.210512e+00	+1.006424e+02	-2.618941e+01	+6.595199e+01
+1.015943e+09	-2.588016e+01	-3.894891e+01	-1.976480e+00	+7.694089e+01	-2.303668e+00	+9.297768e+01	-2.437012e+01	+3.225753e+01
+1.023632e+09	-2.258056e+01	-2.705256e+01	-2.072129e+00	+9.519950e+01	-2.326372e+00	+9.216962e+01	-2.986537e+01	+5.986978e+01
+1.031321e+09	-2.352011e+01	-2.079097e+01	-2.073723e+00	+1.038552e+02	-2.366696e+00	+9.429431e+01	-2.558956e+01	+6.120159e+01
+1.039010e+09	-2.459905e+01	-4.529116e+00	-2.078200e+00	+1.038181e+02	-2.061730e+00	+9.558191e+01	-2.867824e+01	+6.677606e+01
+1.046699e+09	-2.805822e+01	-3.876856e+00	-2.153879e+00	+1.035780e+02	-1.998275e+00	+9.656135e+01	-3.223837e+01	+8.064294e+01
+1.054388e+09	-3.817543e+01	-1.728354e+02	-2.187503e+00	+1.056900e+02	-1.959098e+00	+9.712895e+01	-3.101318e+01	+8.286206e+01
+1.062077e+09	-3.653801e+01	-2.192983e+01	-2.326519e+00	+1.057952e+02	-2.196933e+00	+9.669428e+01	-3.039298e+01	+8.699025e+01
+1.069766e+09	-4.195944e+01	-4.431411e+01	-2.325433e+00	+1.047833e+02	-1.875269e+00	+9.742370e+01	-3.123295e+01	-2.525502e+01
+1.077455e+09	-3.949382e+01	-7.549405e+01	-2.315580e+00	+9.783488e+01	-1.877886e+00	+9.843157e+01	-2.777491e+01	+3.403802e+01
+1.085144e+09	-3.401948e+01	-7.975633e+01	-2.281058e+00	+9.929261e+01	-1.780932e+00	+9.012957e+01	-2.390545e+01	+8.149402e+01
+1.092833e+09	-3.748930e+01	-5.877757e+01	-2.179899e+00	+1.010022e+02	-1.866725e+00	+1.015733e+02	-2.734155e+01	+7.364292e+01
+1.100522e+09	-2.690233e+01	-1.602752e+01	-2.240546e+00	+1.018422e+02	-1.869358e+00	+1.077447e+02	-2.940413e+01	+8.651202e+01
+1.108211e+09	-3.235459e+01	-4.333196e+01	-2.025322e+00	+1.019820e+02	-1.650922e+00	+1.099570e+02	-2.916938e+01	+8.513190e+01
+1.115900e+09	-3.459324e+01	-1.118080e+02	-1.851707e+00	+8.452307e+01	-1.555398e+00	+1.101885e+02	-2.870145e+01	+4.916819e+01
+1.123589e+09	-3.135486e+01	-6.871683e+01	-1.866856e+00	+1.048738e+02	-1.369899e+00	+1.096486e+02	-2.875744e+01	+8.025256e+01
+1.131278e+09	-2.989877e+01	-6.965077e+01	-1.766128e+00	+1.129422e+02	-1.371169e+00	+1.094261e+02	-2.968486e+01	+8.182191e+01
+1.138967e+09	-3.060664e+01	-7.696422e+01	-1.767309e+00	+1.129502e+02	-1.405171e+00	+1.089671e+02	-2.686651e+01	+7.902927e+01
+1.146656e+09	-2.709078e+01	-7.748189e+01	-1.865972e+00	+1.129880e+02	-1.517277e+00	+1.249311e+02	-2.589168e+01	+9.377137e+01
+1.154344e+09	-3.607301e+01	-5.988284e+01	-1.843166e+00	+1.134604e+02	-1.597398e+00	+1.120490e+02	-2.149018e+01	+1.088949e+02
+1.162033e+09	-3.573560e+01	-8.154059e+01	-1.929114e+00	+1.070024e+02	-1.679905e+00	+1.049346e+02	-2.367160e+01	+1.046682e+02
+1.169722e+09	-2.915768e+01	-1.245217e+02	-1.964970e+00	+9.429463e+01	-1.803824e+00	+1.025306e+02	-2.319803e+01	+3.739729e+01
+1.177411e+09	-3.106160e+01	-5.108560e+01	-2.033376e+00	+9.433063e+01	-1.930266e+00	+1.023986e+02	-2.339859e+01	+5.439752e+01
+1.185100e+09	-2.855384e+01	-4.569723e+01	-2.018492e+00	+9.602008e+01	-1.933107e+00	+1.032742e+02	-2.302828e+01	+5.982693e+01
+1.192789e+09	-2.701299e+01	-5.645449e+01	-2.107465e+00	+9.699860e+01	-1.927575e+00	+1.038206e+02	-2.240020e+01	+6.729648e+01
+1.200478e+09	-2.529119e+01	-6.984045e+01	-2.111420e+00	+9.765313e+01	-2.147055e+00	+1.034956e+02	-2.420567e+01	+6.442115e+01
+1.208167e+09	-2.684827e+01	-7.107647e+01	-2.229355e+00	+9.816324e+01	-1.955604e+00	+1.142577e+02	-2.599474e+01	+3.408985e+01
