# Hz S DB R 50.000000
+1.000000e+06	-2.421742e+01	+6.985337e+01	+7.414370e+00	+0.000000e+00	+7.270968e+00	-4.926686e+00	-1.838299e+01	-1.354839e+01
+8.688963e+06	-1.770258e+01	-5.630499e+00	+7.476833e+00	-7.917889e+00	+7.398710e+00	-8.797654e+00	-1.782082e+01	-6.158358e+00
+1.637793e+07	-1.827742e+01	-1.917889e+01	+7.414370e+00	-2.304985e+01	+7.398710e+00	-1.777126e+01	-1.850792e+01	-2.516129e+01
+2.406689e+07	-1.942710e+01	-3.501466e+01	+7.414370e+00	-3.800587e+01	+7.398710e+00	-2.692082e+01	-2.000704e+01	-4.381232e+01
+3.175585e+07	-2.140710e+01	-4.997067e+01	+7.414370e+00	-5.296188e+01	+7.398710e+00	-3.624633e+01	-2.263050e+01	-6.228739e+01
+3.944482e+07	-2.466452e+01	-6.527859e+01	+7.414370e+00	-6.791789e+01	+7.334839e+00	-4.557185e+01	-2.719032e+01	+8.005865e+01
+4.713378e+07	-2.983806e+01	+8.217009e+01	+7.289443e+00	-8.287390e+01	+7.270968e+00	-5.489736e+01	-3.200000e+01	+8.604106e+01
+5.482274e+07	-3.284000e+01	+9.325513e+01	+7.226979e+00	-9.765396e+01	+7.207097e+00	-6.404692e+01	-3.006364e+01	+5.384164e+01
+6.251171e+07	-2.958258e+01	+7.513196e+01	+7.164516e+00	-1.122581e+02	+7.143226e+00	-7.319648e+01	-2.400469e+01	+3.043988e+01
+7.020067e+07	-2.447290e+01	+5.841642e+01	+7.102053e+00	-1.266862e+02	+7.079355e+00	-8.217009e+01	-2.056921e+01	-1.161290e+01
+7.788963e+07	-2.134323e+01	+4.346041e+01	+7.039589e+00	-1.412903e+02	+7.079355e+00	-9.114370e+01	-1.825806e+01	+0.000000e+00
+8.557860e+07	-1.929935e+01	+2.885630e+01	+7.039589e+00	-1.553666e+02	+7.079355e+00	-9.994135e+01	-1.682141e+01	-9.501466e+00
+9.326756e+07	-1.795806e+01	-1.442815e+01	+7.102053e+00	+1.697947e+02	+7.143226e+00	-1.090909e+02	-1.607185e+01	-2.938416e+01
+1.009565e+08	-1.725548e+01	-4.046921e+00	+7.102053e+00	+1.775367e+02	+7.143226e+00	-1.184164e+02	-1.575953e+01	-5.120235e+01
+1.086455e+08	-1.700000e+01	-1.126100e+01	+7.164516e+00	+1.701466e+02	+7.143226e+00	-1.277419e+02	-1.588446e+01	-7.372434e+01
+1.163344e+08	-1.731935e+01	-2.674487e+01	+7.164516e+00	+1.555425e+02	+7.143226e+00	-1.370674e+02	-1.669648e+01	-9.659824e+01
+1.240234e+08	-1.827742e+01	-4.398827e+01	+7.164516e+00	+1.405865e+02	+7.143226e+00	-1.462170e+02	-1.813314e+01	-1.224633e+02
+1.317124e+08	-1.968258e+01	-6.369501e+01	+7.102053e+00	+1.259824e+02	+7.079355e+00	-1.551906e+02	-2.038182e+01	+1.543109e+02
+1.394013e+08	-2.191806e+01	-8.656891e+01	+7.039589e+00	+1.117302e+02	+7.079355e+00	-1.641642e+02	-2.250557e+01	+1.673314e+02
+1.470903e+08	-2.492000e+01	+1.166569e+02	+7.102053e+00	+9.747801e+01	+7.079355e+00	+1.724340e+02	-2.269296e+01	+1.175367e+02
+1.547793e+08	-2.747484e+01	+1.576540e+02	+7.164516e+00	+8.269795e+01	+7.143226e+00	+1.775367e+02	-2.069413e+01	+6.826979e+01
+1.624682e+08	-2.511161e+01	+1.291496e+02	+7.164516e+00	+6.739003e+01	+7.207097e+00	+1.745455e+02	-1.775836e+01	+3.061584e+01
+1.701572e+08	-2.115161e+01	+9.589443e+01	+7.164516e+00	+5.225806e+01	+7.462581e+00	+1.659238e+02	-1.519736e+01	-2.111437e+00
+1.778462e+08	-1.910774e+01	+7.002933e+01	+7.164516e+00	+3.730205e+01	+7.526452e+00	+1.550147e+02	-1.326100e+01	-5.982405e+00
+1.855351e+08	-1.706387e+01	+5.436950e+01	+7.164516e+00	+2.217009e+01	+7.462581e+00	+1.449853e+02	-1.182434e+01	-2.973607e+01
+1.932241e+08	-1.508387e+01	+3.818182e+01	+7.102053e+00	-7.038123e+00	+7.334839e+00	+1.351320e+02	-1.088739e+01	-5.173021e+01
+2.009130e+08	-1.374258e+01	+2.093842e+01	+7.039589e+00	+0.000000e+00	+7.270968e+00	+1.258065e+02	-1.038768e+01	-7.372434e+01
+2.086020e+08	-1.297613e+01	-5.806452e+00	+6.977126e+00	-4.926686e+00	+7.207097e+00	+1.166569e+02	-1.032522e+01	-9.571848e+01
+2.162910e+08	-1.252903e+01	-5.806452e+00	+6.852199e+00	-1.953079e+01	+7.143226e+00	+1.075073e+02	-1.038768e+01	-1.173607e+02
+2.239799e+08	-1.240129e+01	-2.076246e+01	+6.727273e+00	-3.395894e+01	+7.079355e+00	+9.870968e+01	-1.088739e+01	-1.386510e+02
+2.316689e+08	-1.252903e+01	-3.642229e+01	+6.664809e+00	-4.785924e+01	+7.015484e+00	+8.991202e+01	-1.151202e+01	+1.599413e+02
+2.393579e+08	-1.284839e+01	-5.296188e+01	+6.664809e+00	-6.158358e+01	+7.079355e+00	+8.146628e+01	-1.257390e+01	+1.764809e+02
+2.470468e+08	-1.374258e+01	-7.266862e+01	+6.789736e+00	-7.513196e+01	+7.334839e+00	+7.284457e+01	-1.394809e+01	+1.687390e+02
+2.547358e+08	-1.748041e+01	-9.202346e+01	+6.731613e+00	-9.079179e+01	+6.996950e+00	+6.193548e+01	-1.635273e+01	+1.444575e+02
+2.624247e+08	-1.940411e+01	-1.108504e+02	+6.731613e+00	-1.078592e+02	+6.930616e+00	+5.208211e+01	-1.774575e+01	+1.112023e+02
+2.701137e+08	-2.179214e+01	+1.388270e+02	+6.466276e+00	-1.236950e+02	+6.930616e+00	+4.222874e+01	-1.953677e+01	+7.038123e+01
+2.778027e+08	-2.457818e+01	+1.678592e+02	+6.333607e+00	-1.384751e+02	+6.864282e+00	+3.237537e+01	-2.106246e+01	-2.674487e+01
+2.854916e+08	-2.510886e+01	+1.398827e+02	+6.200938e+00	-1.534311e+02	+6.731613e+00	+2.269795e+01	-2.106246e+01	-2.111437e+00
+2.931806e+08	-2.285349e+01	+9.818182e+01	+6.001935e+00	+1.675073e+02	+6.598944e+00	+1.337243e+01	-1.980211e+01	-3.536657e+01
+3.008696e+08	-2.006745e+01	+6.862170e+01	+5.935601e+00	+1.773607e+02	+6.466276e+00	-4.222874e+00	-1.840909e+01	-6.633431e+01
+3.085585e+08	-1.774575e+01	+4.645161e+01	+5.935601e+00	+1.738416e+02	+6.333607e+00	-7.038123e-01	-1.754674e+01	-9.202346e+01
+3.162475e+08	-1.608739e+01	+2.762463e+01	+6.001935e+00	+1.604692e+02	+6.200938e+00	-8.269795e+00	-1.701607e+01	-1.154252e+02
+3.239365e+08	-1.489337e+01	-1.073314e+01	+6.068270e+00	+1.460411e+02	+6.200938e+00	-1.671554e+01	-1.694974e+01	-1.367155e+02
+3.316254e+08	-1.403103e+01	-3.167155e+00	+6.134604e+00	+1.312610e+02	+6.200938e+00	-2.551320e+01	-1.721507e+01	-1.573021e+02
+3.393144e+08	-1.356669e+01	-1.706745e+01	+6.200938e+00	+1.161290e+02	+6.200938e+00	-3.448680e+01	-1.807742e+01	+1.733138e+02
+3.470033e+08	-1.350035e+01	-3.290323e+01	+6.267273e+00	+1.008211e+02	+6.200938e+00	-4.346041e+01	-1.953677e+01	+1.726100e+02
+3.546923e+08	-1.369935e+01	-4.856305e+01	+6.200938e+00	+8.533724e+01	+6.200938e+00	-5.278592e+01	-2.199114e+01	+1.611730e+02
+3.623813e+08	-1.423003e+01	-6.492669e+01	+6.134604e+00	+7.002933e+01	+6.134604e+00	-6.193548e+01	-2.510886e+01	-1.537830e+02
+3.700702e+08	-1.529138e+01	-8.076246e+01	+6.001935e+00	+5.542522e+01	+6.134604e+00	-7.108504e+01	-2.928792e+01	-1.562463e+02
+3.777592e+08	-1.675073e+01	-9.677419e+01	+5.935601e+00	+4.117302e+01	+6.134604e+00	-8.005865e+01	-2.842557e+01	-1.609971e+02
+3.854482e+08	-1.893977e+01	-1.134897e+02	+5.869267e+00	+2.692082e+01	+6.068270e+00	-8.885630e+01	-2.504252e+01	-1.615249e+02
+3.931371e+08	-2.192481e+01	+1.323167e+02	+5.935601e+00	+1.231672e+01	+6.068270e+00	-9.782991e+01	-2.232282e+01	+1.703226e+02
+4.008261e+08	-2.570587e+01	+1.551906e+02	+5.935601e+00	+0.000000e+00	+6.134604e+00	-1.068035e+02	-2.059812e+01	+1.745455e+02
+4.085151e+08	-3.074727e+01	+1.421701e+02	+5.802933e+00	+0.000000e+00	+6.134604e+00	-1.159531e+02	-1.947044e+01	+1.664516e+02
+4.162040e+08	-2.988493e+01	+7.829912e+01	+5.869267e+00	-1.337243e+01	+6.200938e+00	-1.252786e+02	-1.900610e+01	+1.502639e+02
+4.238930e+08	-2.544053e+01	+3.730205e+01	+5.869267e+00	-2.815249e+01	+6.200938e+00	-1.347801e+02	-1.874076e+01	+1.323167e+02
+4.315819e+08	-2.225648e+01	+1.583578e+01	+5.802933e+00	-4.293255e+01	+6.267273e+00	-1.444575e+02	-1.947044e+01	+1.115543e+02
+4.392709e+08	-1.986845e+01	-5.630499e+00	+5.802933e+00	-5.788856e+01	+6.134604e+00	-1.541349e+02	-2.066446e+01	+9.149560e+01
+4.469599e+08	-1.986845e+01	-6.334311e+00	+5.802933e+00	-7.337243e+01	+6.068270e+00	-1.629326e+02	-2.232282e+01	+6.422287e+01
+4.546488e+08	-1.860809e+01	-1.372434e+01	+5.670264e+00	-8.815249e+01	+6.068270e+00	+1.719062e+02	-2.510886e+01	-2.744868e+01
+4.623378e+08	-1.787842e+01	-2.868035e+01	+5.404927e+00	-1.025806e+02	+6.200938e+00	+1.771848e+02	-2.736422e+01	-1.601173e+01
+4.700268e+08	-1.781208e+01	-5.366569e+01	+5.338592e+00	-1.170088e+02	+6.200938e+00	+1.747214e+02	-2.570587e+01	-7.178886e+01
+4.777157e+08	-1.814375e+01	-6.739003e+01	+5.338592e+00	-1.314370e+02	+6.267273e+00	+1.655718e+02	-2.199114e+01	-1.147214e+02
+4.854047e+08	-2.026645e+01	-7.706745e+01	+5.272258e+00	-1.460411e+02	+6.267273e+00	+1.553666e+02	-1.887343e+01	-1.446334e+02
+4.930936e+08	-2.179214e+01	+8.304985e+01	+5.205924e+00	-1.609971e+02	+6.267273e+00	+1.453372e+02	-1.655173e+01	+1.704985e+02
+5.007826e+08	-2.321496e+01	+8.551320e+01	+5.758475e+00	+1.747214e+02	+6.543109e+00	+1.351320e+02	-1.342428e+01	+1.741935e+02
+5.084716e+08	-2.539238e+01	+8.164223e+01	+5.694956e+00	+1.768328e+02	+6.411144e+00	+1.251026e+02	-1.215390e+01	+1.555425e+02
+5.161605e+08	-2.618416e+01	+6.281525e+01	+5.694956e+00	+1.650440e+02	+6.213196e+00	+1.152493e+02	-1.113760e+01	+1.349560e+02
+5.238495e+08	-2.453460e+01	-4.979472e+01	+5.567918e+00	+1.497361e+02	+6.213196e+00	+1.152493e+02	-1.113760e+01	+1.136657e+02
+5.315385e+08	-2.255513e+01	-4.574780e+01	+5.313842e+00	+1.349560e+02	+5.817302e+00	+9.659824e+01	-1.050240e+01	+9.219941e+01
+5.392274e+08	-2.037771e+01	-4.645161e+01	+5.123284e+00	+1.210557e+02	+5.619355e+00	+8.780059e+01	-1.088352e+01	+7.178886e+01
+5.469164e+08	-1.846422e+01	-5.436950e+01	+5.059765e+00	+1.075073e+02	+5.355425e+00	+7.953079e+01	-1.145519e+01	+5.260997e+01
+5.546054e+08	-1.707859e+01	-6.545455e+01	+4.996246e+00	+9.378299e+01	+5.289443e+00	+7.161290e+01	-1.215390e+01	+3.237537e+01
+5.622943e+08	-1.615484e+01	-7.917889e+01	+4.996246e+00	+8.023460e+01	+5.289443e+00	+6.351906e+01	-1.317021e+01	-1.073314e+01
+5.699833e+08	-1.562698e+01	-9.413490e+01	+5.059765e+00	+6.633431e+01	+5.355425e+00	+5.507331e+01	-1.475818e+01	+0.000000e+00
+5.776722e+08	-1.556100e+01	-1.103226e+02	+5.123284e+00	+5.190616e+01	+5.355425e+00	+4.627566e+01	-1.704487e+01	-2.058651e+01
+5.853612e+08	-1.582493e+01	-1.272141e+02	+5.186804e+00	+3.730205e+01	+5.421408e+00	+4.627566e+01	-1.996674e+01	-5.419355e+01
+5.930502e+08	-1.655073e+01	-1.453372e+02	+5.186804e+00	+2.269795e+01	+5.421408e+00	+3.730205e+01	-2.326974e+01	-1.018768e+02
+6.007391e+08	-1.760645e+01	+1.631085e+02	+5.186804e+00	-7.741935e+00	+5.355425e+00	+2.129032e+01	-2.403196e+01	+1.587097e+02
+6.084281e+08	-1.892610e+01	+1.731378e+02	+5.186804e+00	+0.000000e+00	+5.355425e+00	+1.055718e+01	-2.187232e+01	+1.597654e+02
+6.161171e+08	-2.031173e+01	+1.530792e+02	+5.186804e+00	-1.583578e+00	+5.289443e+00	-3.343109e+00	-1.939507e+01	+1.270381e+02
+6.238060e+08	-2.156540e+01	+1.221114e+02	+5.186804e+00	-1.636364e+01	+5.289443e+00	-2.463343e+00	-1.742598e+01	+1.018768e+02
+6.314950e+08	-2.156540e+01	+8.780059e+01	+5.313842e+00	-3.061584e+01	+5.355425e+00	-8.445748e+00	-1.602856e+01	+8.041056e+01
+6.391839e+08	-2.169736e+01	+5.331378e+01	+5.440880e+00	-4.521994e+01	+5.487390e+00	-1.706745e+01	-1.526633e+01	+6.035191e+01
+6.468729e+08	-2.017977e+01	-2.093842e+01	+5.504399e+00	-6.052786e+01	+5.619355e+00	-2.586510e+01	-1.488522e+01	+4.011730e+01
+6.545619e+08	-1.846422e+01	-6.334311e+00	+5.504399e+00	-7.583578e+01	+5.817302e+00	-3.501466e+01	-1.501226e+01	-1.953079e+01
+6.622508e+08	-1.688065e+01	-2.516129e+01	+5.440880e+00	-9.096774e+01	+5.949267e+00	-4.469208e+01	-1.571097e+01	-1.759531e-01
+6.699398e+08	-1.681466e+01	-2.498534e+01	+5.313842e+00	-1.062757e+02	+6.081232e+00	-5.454545e+01	-1.704487e+01	-5.806452e+00
+6.776288e+08	-1.490117e+01	-6.721408e+01	+5.250323e+00	-1.208798e+02	+6.081232e+00	-6.457478e+01	-1.926804e+01	-2.762463e+01
+6.853177e+08	-1.437331e+01	-8.744868e+01	+5.123284e+00	-1.353079e+02	+6.081232e+00	-7.442815e+01	-2.276158e+01	-5.155425e+01
+6.930067e+08	-1.410938e+01	-1.073314e+02	+5.059765e+00	-1.492082e+02	+6.015249e+00	-8.428152e+01	-2.841478e+01	-8.269795e+01
+7.006957e+08	-1.404340e+01	-1.270381e+02	+4.996246e+00	-1.632845e+02	+5.949267e+00	-9.378299e+01	-3.216240e+01	+1.252786e+02
+7.083846e+08	-1.410938e+01	-1.462170e+02	+4.932727e+00	+1.754252e+02	+5.883284e+00	-1.031085e+02	-2.701736e+01	+1.087390e+02
+7.160736e+08	-1.430733e+01	+1.660997e+02	+4.996246e+00	+1.764809e+02	+5.883284e+00	-1.124340e+02	-2.193584e+01	+8.129032e+01
+7.237625e+08	-1.463724e+01	+1.747214e+02	+5.059765e+00	+1.657478e+02	+5.817302e+00	-1.217595e+02	-1.869636e+01	+5.894428e+01
+7.314515e+08	-1.509912e+01	+1.569501e+02	+5.123284e+00	+1.511437e+02	+5.751320e+00	-1.310850e+02	-1.653672e+01	+3.835777e+01
+7.391405e+08	-1.562698e+01	+1.333724e+02	+5.186804e+00	+1.365396e+02	+5.685337e+00	-1.404106e+02	-1.513930e+01	+1.829912e+01
+7.468294e+08	-1.608886e+01	+1.092669e+02	+5.186804e+00	+1.219355e+02	+5.619355e+00	-1.493842e+02	-1.425003e+01	-5.278592e-01
+7.545184e+08	-1.635279e+01	+8.533724e+01	+5.123284e+00	+1.071554e+02	+5.487390e+00	-1.585337e+02	-1.393243e+01	-2.639296e+00
+7.622074e+08	-1.668270e+01	+6.140762e+01	+5.123284e+00	+9.272727e+01	+5.355425e+00	-1.676833e+02	-1.418651e+01	-2.129032e+01
+7.698963e+08	-1.701261e+01	+3.730205e+01	+5.059765e+00	+7.847507e+01	+5.289443e+00	+1.745455e+02	-1.494874e+01	-4.011730e+01
+7.775853e+08	-1.734252e+01	-1.302053e+01	+4.996246e+00	+6.439883e+01	+5.223460e+00	+1.763050e+02	-1.621912e+01	-5.841642e+01
+7.852742e+08	-1.760645e+01	-9.677419e+00	+4.996246e+00	+5.014663e+01	+5.223460e+00	+1.731378e+02	-1.818821e+01	-7.724340e+01
+7.929632e+08	-1.767243e+01	-3.237537e+01	+4.996246e+00	+3.607038e+01	+5.223460e+00	+1.652199e+02	-2.117361e+01	+9.642229e+01
+8.006522e+08	-1.816452e+01	-5.648094e+01	+5.467683e+00	+2.164223e+01	+5.545161e+00	+1.562463e+02	-2.565912e+01	+1.156012e+02
+8.083411e+08	-1.836774e+01	-8.023460e+01	+5.531730e+00	-6.510264e+00	+5.612903e+00	+1.474487e+02	-3.167953e+01	+1.136657e+02
+8.160301e+08	-1.890968e+01	-1.052199e+02	+5.531730e+00	+0.000000e+00	+5.612903e+00	+1.386510e+02	-2.995026e+01	+5.260997e+01
+8.237191e+08	-1.938387e+01	-1.324927e+02	+5.467683e+00	-3.343109e+00	+5.680645e+00	+1.296774e+02	-2.405795e+01	-1.812317e+01
+8.314080e+08	-1.958710e+01	+1.609971e+02	+5.467683e+00	-1.829912e+01	+5.680645e+00	+1.207038e+02	-2.034323e+01	-3.343109e+00
+8.390970e+08	-1.951935e+01	+1.715543e+02	+5.403636e+00	-3.325513e+01	+5.748387e+00	+1.117302e+02	-1.810158e+01	-8.445748e+00
+8.467860e+08	-1.924839e+01	+1.502639e+02	+5.275543e+00	-4.715543e+01	+5.748387e+00	+1.025806e+02	-1.662850e+01	-2.639296e+01
+8.544749e+08	-1.938387e+01	+1.240469e+02	+5.275543e+00	-6.123167e+01	+5.816129e+00	+9.378299e+01	-1.573185e+01	-4.486804e+01
+8.621639e+08	-1.877419e+01	+9.835777e+01	+5.275543e+00	-7.495601e+01	+5.883871e+00	+8.480938e+01	-1.534757e+01	-6.334311e+01
+8.698528e+08	-1.823226e+01	+7.284457e+01	+5.339589e+00	-8.920821e+01	+5.951613e+00	+7.583578e+01	-1.553971e+01	-8.269795e+01
+8.775418e+08	-1.769032e+01	+4.944282e+01	+5.467683e+00	-1.038123e+02	+5.951613e+00	+6.651026e+01	-1.643636e+01	-1.017009e+02
+8.852308e+08	-1.735161e+01	+2.832845e+01	+5.467683e+00	-1.184164e+02	+6.087097e+00	+5.718475e+01	-1.822968e+01	+1.205279e+02
+8.929197e+08	-1.735161e+01	-9.501466e+00	+5.531730e+00	-1.330205e+02	+6.087097e+00	+4.750733e+01	-2.123988e+01	+1.393548e+02
+9.006087e+08	-1.789355e+01	-9.853372e+00	+5.595777e+00	-1.479765e+02	+6.154839e+00	+3.818182e+01	-2.655578e+01	+1.483284e+02
+9.082977e+08	-1.850323e+01	-2.780059e+01	+5.595777e+00	-1.632845e+02	+6.087097e+00	+2.850440e+01	-3.187167e+01	+9.131965e+01
+9.159866e+08	-1.972258e+01	-4.979472e+01	+5.723871e+00	+1.750733e+02	+6.087097e+00	+1.882698e+01	-2.661982e+01	-2.023460e+01
+9.236756e+08	-2.100968e+01	-7.372434e+01	+5.723871e+00	+1.748974e+02	+6.087097e+00	-9.853372e+00	-2.059941e+01	-1.970674e+01
+9.313645e+08	-2.094194e+01	-7.372434e+01	+5.723871e+00	+1.750733e+02	+6.087097e+00	-4.398827e+00	-1.694874e+01	-3.818182e+01
+9.390535e+08	-2.100968e+01	-7.354839e+01	+5.787918e+00	+1.474487e+02	+6.154839e+00	-4.750733e+00	-1.432282e+01	-5.753666e+01
+9.467425e+08	-2.473548e+01	+1.618768e+02	+5.723871e+00	+1.324927e+02	+6.087097e+00	-1.126100e+01	-1.252950e+01	-7.794721e+01
+9.544314e+08	-2.358387e+01	+1.460411e+02	+5.723871e+00	+1.177126e+02	+6.222581e+00	-2.093842e+01	-1.131261e+01	-9.906158e+01
+9.621204e+08	-2.155161e+01	+1.141935e+02	+5.723871e+00	+1.027566e+02	+6.222581e+00	-3.096774e+01	-1.048000e+01	-1.208798e+02
+9.698094e+08	-1.972258e+01	+8.780059e+01	+5.723871e+00	+8.797654e+01	+6.154839e+00	-4.082111e+01	-9.967625e+00	-1.430499e+02
+9.774983e+08	-1.823226e+01	+6.422287e+01	+5.595777e+00	+7.319648e+01	+6.087097e+00	-5.049853e+01	-9.775484e+00	+1.657478e+02
+9.851873e+08	-1.708065e+01	+4.328446e+01	+5.531730e+00	+5.859238e+01	+5.951613e+00	-5.964809e+01	-9.903578e+00	+1.750733e+02
+9.928763e+08	-1.626774e+01	+2.709677e+01	+5.467683e+00	+4.434018e+01	+5.816129e+00	-6.862170e+01	-1.028786e+01	+1.590616e+02
+1.000565e+09	-1.592903e+01	-9.149560e+00	+5.403636e+00	+3.043988e+01	+5.748387e+00	-7.724340e+01	-1.092833e+01	+1.344282e+02
+1.008254e+09	-1.586129e+01	-8.797654e+00	+5.403636e+00	+1.583578e+01	+5.680645e+00	-8.568915e+01	-1.176094e+01	+1.082111e+02
+1.015943e+09	-1.626774e+01	-1.970674e+01	+5.467683e+00	-2.639296e+00	+5.680645e+00	-9.413490e+01	-1.252950e+01	+7.953079e+01
+1.023632e+09	-1.694516e+01	-3.571848e+01	+5.531730e+00	+0.000000e+00	+5.748387e+00	-1.027566e+02	-1.316997e+01	+4.926686e+01
+1.031321e+09	-1.830000e+01	-5.243402e+01	+5.595777e+00	-6.510264e+00	+5.816129e+00	-1.115543e+02	-1.361830e+01	-1.653959e+01
+1.039010e+09	-1.830000e+01	-5.243402e+01	+5.659824e+00	-2.164223e+01	+5.951613e+00	-1.208798e+02	-1.381044e+01	-2.111437e+00
+1.046699e+09	-2.053548e+01	-7.038123e+01	+5.723871e+00	-3.712610e+01	+6.019355e+00	-1.303812e+02	-1.342616e+01	-3.483871e+01
+1.054388e+09	-2.439677e+01	+1.300293e+02	+5.787918e+00	-5.208211e+01	+6.019355e+00	-1.400587e+02	-1.278569e+01	-6.721408e+01
+1.062077e+09	-2.900323e+01	+1.280938e+02	+5.723871e+00	-6.721408e+01	+5.951613e+00	-1.500880e+02	-1.208117e+01	-9.730205e+01
+1.069766e+09	-2.920645e+01	+8.938416e+01	+5.723871e+00	-8.199413e+01	+5.883871e+00	-1.599413e+02	-1.156880e+01	-1.242229e+02
+1.077455e+09	-1.999355e+01	+6.316716e+01	+5.659824e+00	-9.677419e+01	+5.748387e+00	-1.687390e+02	-1.118452e+01	-1.492082e+02
+1.085144e+09	-1.714839e+01	+4.398827e+01	+5.659824e+00	-1.112023e+02	+5.680645e+00	+1.740176e+02	-1.105642e+01	+1.697947e+02
+1.092833e+09	-1.511613e+01	+2.762463e+01	+5.723871e+00	-1.258065e+02	+5.612903e+00	+1.745455e+02	-1.105642e+01	+1.733138e+02
+1.100522e+09	-1.338587e+01	-1.337243e+01	+6.110147e+00	-1.405865e+02	+6.038651e+00	+1.708504e+02	-1.134757e+01	+1.576540e+02
+1.108211e+09	-1.243501e+01	-7.214076e+00	+6.241408e+00	-1.562463e+02	+6.106569e+00	+1.636364e+02	-1.174135e+01	+1.372434e+02
+1.115900e+09	-1.189167e+01	-1.390029e+01	+6.307038e+00	+1.706745e+02	+6.174487e+00	+1.546628e+02	-1.239765e+01	+1.177126e+02
+1.123589e+09	-1.175584e+01	-2.920821e+01	+6.307038e+00	+1.754252e+02	+6.310323e+00	+1.448094e+02	-1.331648e+01	+9.835777e+01
+1.131278e+09	-1.195959e+01	-4.574780e+01	+6.307038e+00	+1.676833e+02	+6.378240e+00	+1.349560e+02	-1.456346e+01	+7.953079e+01
+1.138967e+09	-1.250293e+01	-6.211144e+01	+6.175777e+00	+1.520235e+02	+6.310323e+00	+1.252786e+02	-1.613859e+01	+6.263930e+01
+1.146656e+09	-1.352170e+01	-7.900293e+01	+5.978886e+00	+1.361877e+02	+6.310323e+00	+1.156012e+02	-1.823877e+01	+4.891496e+01
+1.154344e+09	-1.501589e+01	-9.554252e+01	+5.847625e+00	+1.212317e+02	+6.242405e+00	+1.060997e+02	-2.060147e+01	-4.011730e+01
+1.162033e+09	-1.739302e+01	-1.127859e+02	+5.716364e+00	+1.069795e+02	+6.242405e+00	+9.677419e+01	-2.289853e+01	-4.046921e+01
+1.169722e+09	-2.133226e+01	+1.351320e+02	+5.650733e+00	+9.255132e+01	+6.174487e+00	+8.744868e+01	-2.394862e+01	+4.785924e+01
+1.177411e+09	-2.445648e+01	+1.469208e+02	+5.585103e+00	+7.847507e+01	+6.106569e+00	+7.812317e+01	-2.329232e+01	+5.208211e+01
+1.185100e+09	-2.370938e+01	+1.036364e+02	+5.585103e+00	+6.439883e+01	+6.106569e+00	+6.897361e+01	-2.211097e+01	+4.293255e+01
+1.192789e+09	-1.943056e+01	+6.668622e+01	+5.585103e+00	+4.997067e+01	+6.106569e+00	+5.947214e+01	-2.060147e+01	+2.868035e+01
+1.200478e+09	-1.637425e+01	+4.627566e+01	+5.585103e+00	+3.519062e+01	+6.038651e+00	+5.014663e+01	-1.948575e+01	-1.214076e+01
+1.208167e+09	-1.440463e+01	+2.516129e+01	+5.519472e+00	+1.970674e+01	+6.106569e+00	+4.997067e+01	-1.955138e+01	-1.214076e+01
