# Hz S DB R 50.000000
+1.000000e+06	-1.908500e+01	+1.026505e+02	-4.627025e+01	-9.046600e+01	-4.085153e+01	+4.988423e+00	-2.281420e-01	+2.404381e-02
+8.688963e+06	-4.433499e+00	+1.609602e+02	-4.282987e+01	-7.424874e+01	-4.058901e+01	+4.183011e+00	+2.381588e-01	+1.325363e+01
+1.637793e+07	-4.359825e+00	+1.397857e+02	-4.231827e+01	-5.588725e+01	-4.043300e+01	+1.320609e+01	+8.691994e-01	+3.619177e+01
+2.406689e+07	-4.385688e+00	+1.186492e+02	-4.168346e+01	-4.088314e+01	-4.032521e+01	+2.423800e+01	+1.410278e+00	+6.033516e+01
+3.175585e+07	-4.562113e+00	+9.733265e+01	-4.127355e+01	-2.741674e+01	-4.050937e+01	+3.628316e+01	+1.766006e+00	+8.515148e+01
+3.944482e+07	-4.343962e+00	+7.646345e+01	-4.097608e+01	-1.486964e+01	-4.088668e+01	+4.815122e+01	+1.802922e+00	+1.093901e+02
+4.713378e+07	-4.885956e+00	+5.626049e+01	-4.107568e+01	+1.727375e+02	-4.121201e+01	+5.777311e+01	+1.837177e+00	+1.314357e+02
+5.482274e+07	-5.179489e+00	+3.796357e+01	-4.137235e+01	-1.733117e+02	-4.123264e+01	+6.554455e+01	+1.782735e+00	+1.513616e+02
+6.251171e+07	-5.426032e+00	+1.842423e+01	-4.173203e+01	-1.583777e+02	-4.086232e+01	+7.354592e+01	+1.983061e+00	+1.720138e+02
+7.020067e+07	-5.207489e+00	+2.085585e+01	-4.179889e+01	-1.422743e+02	-4.074255e+01	+7.979620e+01	+1.781814e+00	+1.778685e+02
+7.788963e+07	-5.041489e+00	+3.580954e+00	-4.205173e+01	-1.251433e+02	-4.021598e+01	+8.964319e+01	+2.043599e+00	-1.622015e+02
+8.557860e+07	-4.787054e+00	-1.402860e+01	-4.219087e+01	-1.069759e+02	-4.018139e+01	+1.044314e+02	+1.943252e+00	-1.344079e+02
+9.326756e+07	-4.336562e+00	-3.223584e+01	-4.111881e+01	+1.023504e+02	-4.073882e+01	+1.181494e+02	+1.315645e+00	-1.068764e+02
+1.009565e+08	-3.863902e+00	-5.229080e+01	-3.506873e+01	+1.053214e+02	-4.091938e+01	+1.286850e+02	+5.436447e-01	-8.215017e+01
+1.086455e+08	-3.502957e+00	-7.452117e+01	-3.999609e+01	+1.214404e+02	-4.158158e+01	+1.358435e+02	-8.666139e-03	-6.077832e+01
+1.163344e+08	-3.484628e+00	-9.750333e+01	-3.942270e+01	+1.347844e+02	-4.251745e+01	+1.423034e+02	-4.325753e-02	-4.089539e+01
+1.240234e+08	-3.939515e+00	-1.452202e+02	-3.992351e+01	+1.439520e+02	-4.332538e+01	+1.499818e+02	+2.731824e-01	-2.234258e+01
+1.317124e+08	-4.520932e+00	-1.340706e+02	-4.017593e+01	+1.586805e+02	-4.306649e+01	+1.639806e+02	+7.616432e-01	+9.821684e-01
+1.394013e+08	-5.326073e+00	-1.504105e+02	-4.063233e+01	-1.112478e+01	-4.293694e+01	+1.739623e+02	+8.812924e-01	+4.336864e+00
+1.470903e+08	-5.958287e+00	-1.671604e+02	-4.115428e+01	+4.256106e+00	-4.257674e+01	+1.778694e+02	+1.273325e+00	+3.082191e+01
+1.547793e+08	-6.375328e+00	+1.776033e+02	-4.192322e+01	+2.111381e+01	-4.275758e+01	-1.692384e+02	+7.409054e-01	+5.913149e+01
+1.624682e+08	-6.472735e+00	+1.626831e+02	-4.219618e+01	+3.876871e+01	-4.332395e+01	-1.582050e+02	-1.725470e-01	+8.332964e+01
+1.701572e+08	-6.057235e+00	+1.429350e+02	-4.232940e+01	+5.675426e+01	-4.261159e+01	-1.451253e+02	-1.264712e+00	+1.078591e+02
+1.778462e+08	-5.391905e+00	+1.294539e+02	-4.184181e+01	+7.594489e+01	-4.137285e+01	-1.335477e+02	-1.787340e+00	+1.295228e+02
+1.855351e+08	-3.628411e+00	+5.730965e+01	-4.023925e+01	+8.936778e+01	-3.466818e+01	-1.265526e+02	-2.010814e+00	+1.515734e+02
+1.932241e+08	-3.399250e+00	+8.806721e+01	-4.044402e+01	+9.488507e+01	-4.074836e+01	-1.146129e+02	-2.257360e+00	+1.754714e+02
+2.009130e+08	-2.732628e+00	+7.796439e+01	-3.986739e+01	+1.019361e+02	-3.649434e+01	-1.090767e+02	-2.488436e+00	-1.739494e+02
+2.086020e+08	-2.558086e+00	+4.817095e+01	-3.950835e+01	+1.113220e+02	-4.119908e+01	-9.718649e+01	-2.464225e+00	-1.503472e+02
+2.162910e+08	-3.361015e+00	+2.110792e+01	-4.034721e+01	-5.014909e+01	-4.282392e+01	-8.648601e+01	-2.398807e+00	-1.269540e+02
+2.239799e+08	-4.502302e+00	-4.572668e-01	-4.052665e+01	-2.510372e+01	-4.352445e+01	-7.557796e+01	-2.213465e+00	-1.049126e+02
+2.316689e+08	-5.575389e+00	-1.743676e+01	-4.122562e+01	-4.915731e+00	-4.397564e+01	-6.515225e+01	-1.826873e+00	-8.342935e+01
+2.393579e+08	-6.236379e+00	-3.145501e+01	-4.179858e+01	+1.962517e+00	-4.307397e+01	-5.426661e+01	-1.343380e+00	-6.156368e+01
+2.470468e+08	-6.652291e+00	-4.401220e+01	-4.229200e+01	+1.239263e+00	-4.164336e+01	-4.156376e+01	-1.036161e+00	-3.794699e+01
+2.547358e+08	-6.671156e+00	-8.944405e+01	-4.503947e+01	-1.305264e+02	-4.568568e+01	-2.687900e+01	-1.427160e+00	-1.336732e+01
+2.624247e+08	-6.569707e+00	-7.080211e+01	-4.512867e+01	-1.138846e+02	-4.585254e+01	-2.016538e+01	-1.824595e+00	-1.161918e+00
+2.701137e+08	-6.131101e+00	-6.916125e+01	-4.478166e+01	-1.001937e+02	-4.602846e+01	-9.514428e+00	-2.396106e+00	+1.668530e+01
+2.778027e+08	-4.945684e+00	-8.305939e+01	-4.409365e+01	-7.659719e+01	-4.586497e+01	+1.043999e+01	-2.924951e+00	+3.359761e+01
+2.854916e+08	-3.468651e+00	-1.015975e+02	-4.263175e+01	-7.056757e+01	-4.501967e+01	+1.435164e+00	-2.850076e+00	+5.201673e+01
+2.931806e+08	-1.966513e+00	-1.265519e+02	-4.112387e+01	-8.157243e+01	-4.364977e+01	+6.372401e+00	-2.064947e+00	+7.273928e+01
+3.008696e+08	-1.186224e+00	-1.598723e+02	-3.969804e+01	+1.267870e+02	-4.196273e+01	+1.508618e+01	-6.129016e-01	+9.799590e+01
+3.085585e+08	-2.224394e+00	+1.648845e+02	-3.959190e+01	-6.785489e+01	-4.052418e+01	+2.968149e+01	+1.409505e+00	+1.294308e+02
+3.162475e+08	-4.971807e+00	+1.102760e+02	-4.155543e+01	-5.332774e+01	-4.039365e+01	+5.266223e+01	+3.118668e+00	+1.666498e+02
+3.239365e+08	-5.616501e+00	+1.272069e+02	-4.070117e+01	-3.519478e+01	-4.086096e+01	+6.671649e+01	+4.174897e+00	-1.720689e+02
+3.316254e+08	-7.076812e+00	+1.175762e+02	-4.100659e+01	-1.530390e+01	-4.173743e+01	+7.905223e+01	+4.994627e+00	-1.534713e+02
+3.393144e+08	-7.963802e+00	+1.027509e+02	-4.140495e+01	+1.911997e+00	-4.310478e+01	+9.436349e+01	+4.298656e+00	-1.312924e+02
+3.470033e+08	-8.435310e+00	+8.943079e+01	-4.049823e+01	+7.709234e+00	-4.410268e+01	+1.008821e+02	+3.945743e+00	-1.158562e+02
+3.546923e+08	-8.355994e+00	+7.630458e+01	-4.039062e+01	+1.073215e+01	-4.349557e+01	+1.040358e+02	+4.469825e+00	-1.005082e+02
+3.623813e+08	-7.917095e+00	+6.375788e+01	-4.012281e+01	+2.969063e+01	-4.227450e+01	+1.123445e+02	+5.241605e+00	-7.920720e+01
+3.700702e+08	-6.958967e+00	+5.030837e+01	-3.989942e+01	-2.811653e+01	-4.130891e+01	+1.264913e+02	+5.273095e+00	-5.311216e+01
+3.777592e+08	-5.557426e+00	+3.538595e+01	-4.028887e+01	-2.057612e+01	-4.085983e+01	+1.417593e+02	+4.682569e+00	-2.572716e+01
+3.854482e+08	-4.006396e+00	+1.615054e+01	-4.064638e+01	-3.199728e+01	-4.075175e+01	+1.483146e+02	+2.262986e+00	-7.597068e+00
+3.931371e+08	-2.700017e+00	-2.692588e+01	-4.160106e+01	+5.709086e+01	-4.005928e+01	+1.482474e+02	+1.375060e+00	+2.171647e+00
+4.008261e+08	-2.239384e+00	-2.639271e+01	-4.205674e+01	+6.669252e+01	-3.930990e+01	+1.479234e+02	+7.801923e-01	+9.243100e+00
+4.085151e+08	-2.788727e+00	-5.486933e+01	-4.259666e+01	-1.165303e+01	-4.007967e+01	+1.586447e+02	-6.408717e-02	+2.852202e+01
+4.162040e+08	-3.897898e+00	-7.697454e+01	-4.346423e+01	+2.481949e+00	-3.999254e+01	+1.661829e+02	-3.670924e-01	+4.850760e+01
+4.238930e+08	-5.010147e+00	-9.395357e+01	-4.365723e+01	+1.573190e+01	-3.988110e+01	-1.758468e+02	-2.287881e-01	+7.060183e+01
+4.315819e+08	-5.813556e+00	-1.094120e+02	-4.362928e+01	+2.386609e+01	-3.959944e+01	-1.766287e+02	+3.107096e-01	+9.384705e+01
+4.392709e+08	-6.432880e+00	-1.244297e+02	-4.343017e+01	+3.581556e+01	-3.942058e+01	-1.650993e+02	+7.873402e-01	+1.191358e+02
+4.469599e+08	-6.595396e+00	-1.393553e+02	-4.042956e+01	+4.200419e+01	-3.931370e+01	-1.520845e+02	+1.103832e+00	+1.436133e+02
+4.546488e+08	-6.529815e+00	-1.656754e+02	-4.172790e+01	+5.022560e+01	-3.888479e+01	-1.414514e+02	+1.233905e+00	+1.668179e+02
+4.623378e+08	-6.322292e+00	-1.565202e+02	-4.147379e+01	+5.517975e+01	-3.861446e+01	-1.398696e+02	+1.439860e+00	+1.797413e+02
+4.700268e+08	-5.793017e+00	-1.742632e+02	-4.089367e+01	-8.198553e+01	-3.760291e+01	-1.313915e+02	+1.863868e+00	-1.734874e+02
+4.777157e+08	-5.179354e+00	+1.611328e+02	-4.027598e+01	-6.914822e+01	-3.612862e+01	-1.157823e+02	+2.081090e+00	-1.467466e+02
+4.854047e+08	-4.597389e+00	+1.336568e+02	-4.058373e+01	-5.548109e+01	-3.566443e+01	-9.766999e+01	+1.460411e+00	-1.177001e+02
+4.930936e+08	-4.732713e+00	+1.057661e+02	-4.196959e+01	-5.196452e+01	-3.655180e+01	-8.435781e+01	+2.041570e-01	-9.151193e+01
+5.007826e+08	-4.948565e+00	+7.975096e+01	-4.116329e+01	-5.809994e+01	-3.794681e+01	-7.594964e+01	-1.653665e+00	-7.037330e+01
+5.084716e+08	-5.617743e+00	+5.858449e+01	-4.175945e+01	-6.569171e+01	-3.979072e+01	-6.967009e+01	-2.341530e+00	-4.953853e+01
+5.161605e+08	-5.933877e+00	+2.218068e+01	-4.021066e+01	-1.590673e+02	-4.146125e+01	-6.607744e+01	-2.234678e+00	-3.157561e+01
+5.238495e+08	-6.280013e+00	+3.247438e+01	-4.052660e+01	-1.400029e+02	-4.213496e+01	-6.378457e+01	-1.491288e+00	-1.574626e+01
+5.315385e+08	-6.134374e+00	+1.741037e+01	-3.964805e+01	-1.744449e+01	-4.278510e+01	-5.804558e+01	-1.650551e-01	-1.238589e+00
+5.392274e+08	-5.861809e+00	+2.190703e+00	-4.047907e+01	+1.364248e+01	-4.306033e+01	-5.862424e+01	-3.820752e-01	+8.469160e-01
+5.469164e+08	-5.805945e+00	-1.646603e+01	-3.917385e+01	+2.042306e+01	-4.298721e+01	-6.173910e+01	+2.653340e+00	+8.998389e+00
+5.546054e+08	-5.039700e+00	-2.976296e+01	-3.713278e+01	-8.627644e+01	-4.131285e+01	-5.537230e+01	+5.675554e+00	+2.476211e+01
+5.622943e+08	-4.618369e+00	-4.691485e+01	-3.526278e+01	-7.086084e+01	-4.012143e+01	-4.078048e+01	+7.451552e+00	+5.039181e+01
+5.699833e+08	-4.337889e+00	-6.559443e+01	-3.353858e+01	-6.527796e+01	-4.028406e+01	-2.184153e+01	+7.483153e+00	+7.985322e+01
+5.776722e+08	-4.386419e+00	-8.418266e+01	-3.268155e+01	-6.773910e+01	-4.112930e+01	-1.950406e+01	+6.302407e+00	+1.044909e+02
+5.853612e+08	-4.593840e+00	-1.028919e+02	-3.266025e+01	-8.349672e+01	-4.150975e+01	-1.446870e+01	+5.359659e+00	+1.246481e+02
+5.930502e+08	-5.098038e+00	-1.293273e+02	-3.340192e+01	-8.767272e+01	-3.405727e+01	-4.317279e+00	+4.940202e+00	+1.467807e+02
+6.007391e+08	-4.570540e+00	-1.230386e+02	-3.114173e+01	-8.433546e+01	-4.022499e+01	+1.213431e+01	+4.378566e+00	+1.756697e+02
+6.084281e+08	-4.953056e+00	-1.413808e+02	-3.689732e+01	-7.744876e+01	-4.103948e+01	+1.040517e+01	+2.580292e+00	+1.753513e+02
+6.161171e+08	-5.243088e+00	-1.607849e+02	-3.856557e+01	-6.422091e+01	-4.096149e+01	+1.154052e+01	+2.101297e+00	+1.736786e+02
+6.238060e+08	-5.517963e+00	+1.794038e+02	-3.908475e+01	-4.054131e+01	-4.096230e+01	+4.213123e+01	+1.680671e+00	-1.262593e+02
+6.314950e+08	-5.673376e+00	+1.587967e+02	-3.970054e+01	-3.438427e+01	-4.197903e+01	+5.769871e+01	+8.376577e-01	-9.914536e+01
+6.391839e+08	-5.596455e+00	+1.375846e+02	-3.953201e+01	-1.191573e+01	-4.278570e+01	+7.154227e+01	+1.660970e-01	-7.518395e+01
+6.468729e+08	-5.640339e+00	+1.156901e+02	-3.924055e+01	-9.215796e+01	-4.354917e+01	+8.404773e+01	-2.686120e-01	-5.370898e+01
+6.545619e+08	-5.644235e+00	+8.830417e+01	-3.901051e+01	-9.059525e+01	-4.342997e+01	+9.543252e+01	-2.475484e-01	-3.397167e+01
+6.622508e+08	-5.997756e+00	+8.555020e+01	-3.898633e+01	-6.240540e+01	-4.307571e+01	+1.087070e+02	-8.455425e-02	-1.334009e+01
+6.699398e+08	-6.171842e+00	+6.532368e+01	-3.920217e+01	-5.829367e+01	-4.339449e+01	+1.180403e+02	-2.183630e-01	+1.648709e-01
+6.776288e+08	-6.262604e+00	+4.668618e+01	-3.879266e+01	-5.069157e+01	-4.259998e+01	+1.246430e+02	-3.015147e-01	+1.645519e+01
+6.853177e+08	-6.263806e+00	+2.900373e+01	-3.930982e+01	-4.911469e+01	-4.198820e+01	+1.346168e+02	-6.543989e-01	+3.924975e+01
+6.930067e+08	-6.066104e+00	+1.176860e+01	-3.943901e+01	-3.708829e+01	-4.155623e+01	+1.422859e+02	-1.055327e+00	+6.047191e+01
+7.006957e+08	-5.773997e+00	-4.906118e+00	-3.951676e+01	-2.519679e+01	-4.076883e+01	+1.490219e+02	-1.298498e+00	+8.093947e+01
+7.083846e+08	-5.377323e+00	-2.215280e+01	-3.941802e+01	-1.858343e+01	-3.966559e+01	+1.567885e+02	-1.300557e+00	+1.022657e+02
+7.160736e+08	-4.829717e+00	-3.897808e+01	-3.908734e+01	+1.421539e+02	-3.870310e+01	+1.723272e+02	-9.209021e-01	+1.263001e+02
+7.237625e+08	-4.230808e+00	-6.375603e+01	-3.845607e+01	+1.449035e+02	-3.905436e+01	+1.747942e+02	-5.555704e-01	+1.532362e+02
+7.314515e+08	-4.057735e+00	-5.885255e+01	-3.836946e+01	+1.694319e+02	-3.864560e+01	-1.721085e+02	-2.141419e-01	-1.799693e+02
+7.391405e+08	-3.773852e+00	-8.032208e+01	-3.742519e+01	+4.929825e+01	-3.946159e+01	-1.619786e+02	+7.051892e-02	-1.700259e+02
+7.468294e+08	-3.892045e+00	-1.014761e+02	-3.708615e+01	+6.390574e+01	-4.055632e+01	-1.463189e+02	+4.914205e-01	-1.408039e+02
+7.545184e+08	-4.309832e+00	-1.222056e+02	-3.675807e+01	+7.914987e+01	-4.161188e+01	-1.324845e+02	+7.162397e-01	-1.149355e+02
+7.622074e+08	-4.883205e+00	-1.415499e+02	-3.707438e+01	+9.237593e+01	-4.205566e+01	-1.227775e+02	+6.479942e-01	-9.316693e+01
+7.698963e+08	-5.421339e+00	-1.595414e+02	-3.653240e+01	+1.102728e+02	-4.097091e+01	-1.102867e+02	+1.189487e+00	-6.875099e+01
+7.775853e+08	-5.912208e+00	-1.764907e+02	-3.671936e+01	+1.036901e+02	-4.224465e+01	-1.001659e+02	+1.402022e+00	-4.610687e+01
+7.852742e+08	-6.448864e+00	+1.210829e+02	-3.627038e+01	+1.070509e+02	-4.200978e+01	-9.078601e+01	+1.479023e+00	-2.374426e+01
+7.929632e+08	-6.325995e+00	+1.433684e+02	-3.597824e+01	+1.116545e+02	-4.187916e+01	-7.799166e+01	+1.355516e+00	-2.241380e-01
+8.006522e+08	-6.188921e+00	+1.398479e+02	-3.655921e+01	+1.165491e+02	-4.268286e+01	-8.182158e+01	+1.083278e+00	+7.906656e-01
+8.083411e+08	-6.047765e+00	+1.197839e+02	-3.661385e+01	+1.230792e+02	-4.247318e+01	-6.927740e+01	+7.390464e-01	+2.009707e+01
+8.160301e+08	-5.772297e+00	+9.834659e+01	-3.601646e+01	+1.307571e+02	-4.198415e+01	-6.314540e+01	+7.897797e-01	+3.857212e+01
+8.237191e+08	-5.604668e+00	+7.472971e+01	-3.623481e+01	+1.396515e+02	-3.949210e+01	-5.606321e+01	+1.068424e+00	+5.802178e+01
+8.314080e+08	-5.698819e+00	+5.099201e+01	-3.619652e+01	+1.606552e+02	-4.071400e+01	-4.756984e+01	+1.537677e+00	+7.920639e+01
+8.390970e+08	-5.803417e+00	+2.876851e+01	-3.627525e+01	+6.540394e+01	-3.910704e+01	-3.661916e+01	+2.121699e+00	+1.023915e+02
+8.467860e+08	-6.097266e+00	+7.921618e+00	-3.849746e+01	+8.342259e+01	-4.014047e+01	-2.370103e+01	+2.646361e+00	+1.274006e+02
+8.544749e+08	-6.218294e+00	-1.678965e+01	-3.315445e+01	+9.788813e+01	-4.006241e+01	-9.819447e+00	+2.828310e+00	+1.535072e+02
+8.621639e+08	-6.294047e+00	-1.078376e+01	-3.802713e+01	+1.074022e+02	-4.029531e+01	+1.059099e+01	+2.647062e+00	-1.772026e+02
+8.698528e+08	-6.182194e+00	-2.659248e+01	-3.901586e+01	+1.247669e+02	-4.050262e+01	+7.857979e-01	+2.516491e+00	+1.791926e+02
+8.775418e+08	-5.779501e+00	-3.540860e+01	-3.965263e+01	+1.196732e+02	-4.001023e+01	+1.213998e+01	+2.607757e+00	-1.560807e+02
+8.852308e+08	-5.548716e+00	-5.573909e+01	-3.982756e+01	-8.828968e+01	-4.023536e+01	+2.530288e+01	+2.340131e+00	-1.291089e+02
+8.929197e+08	-4.804508e+00	-7.547700e+01	-3.984867e+01	-8.287548e+01	-4.003020e+01	+3.852310e+01	+1.871688e+00	-1.025895e+02
+9.006087e+08	-4.199396e+00	-9.547238e+01	-3.946305e+01	+1.695431e+02	-4.041634e+01	+4.961835e+01	+1.181236e+00	-7.764464e+01
+9.082977e+08	-3.669291e+00	-1.165344e+02	-3.928125e+01	-1.740080e+02	-4.059120e+01	+5.906226e+01	+5.497485e-01	-5.495871e+01
+9.159866e+08	-3.714399e+00	-1.391068e+02	-3.968915e+01	-1.601283e+02	-4.099666e+01	+6.702462e+01	+1.705993e-01	-3.462124e+01
+9.236756e+08	-4.390374e+00	-1.784716e+02	-4.076777e+01	-1.481392e+02	-4.170203e+01	+7.663822e+01	+2.989055e-01	-1.505040e+01
+9.313645e+08	-4.780377e+00	-1.728848e+02	-4.138647e+01	-1.382510e+02	-4.175671e+01	+7.817037e+01	+7.835227e-01	-7.724726e-01
+9.390535e+08	-5.655510e+00	+1.705854e+02	-4.200506e+01	-1.278150e+02	-3.393501e+01	+8.444440e+01	+1.453303e+00	+1.935716e+00
+9.467425e+08	-6.549727e+00	+1.542178e+02	-4.201053e+01	-1.219986e+02	-4.161748e+01	+9.331966e+01	+2.344709e+00	+1.997549e+01
+9.544314e+08	-7.129563e+00	+1.389519e+02	-4.098218e+01	-1.158948e+02	-4.127732e+01	+1.015090e+02	+3.936939e+00	+3.971425e+01
+9.621204e+08	-7.463784e+00	+1.231652e+02	-3.993874e+01	-1.044759e+02	-4.072749e+01	+1.134370e+02	+5.270195e+00	+6.380975e+01
+9.698094e+08	-7.449411e+00	+1.061485e+02	-3.520514e+01	+9.060476e+01	-4.107262e+01	+1.258595e+02	+5.529761e+00	+8.929660e+01
+9.774983e+08	-7.004073e+00	+8.714211e+01	-3.751986e+01	+9.728651e+01	-4.165355e+01	+1.339938e+02	+4.969083e+00	+1.114825e+02
+9.851873e+08	-5.681631e+00	+1.580592e+01	-3.687339e+01	+1.074905e+02	-4.154520e+01	+1.330764e+02	+4.498997e+00	+1.297230e+02
+9.928763e+08	-5.438973e+00	+4.304529e+01	-3.669576e+01	+1.243708e+02	-4.175855e+01	+1.393018e+02	+4.030843e+00	+1.466648e+02
+1.000565e+09	-4.722831e+00	+3.684657e+01	-3.638179e+01	+1.345259e+02	-4.067362e+01	-1.742932e+02	+4.581284e+00	-1.785192e+02
+1.008254e+09	-4.161267e+00	+5.916984e+00	-3.655058e+01	+1.400066e+02	-4.074141e+01	+1.595536e+02	+3.486310e+00	+1.756699e+02
+1.015943e+09	-4.319369e+00	-2.230780e+01	-3.705151e+01	+1.490761e+02	-4.031475e+01	+1.652033e+02	+3.515940e+00	-1.560989e+02
+1.023632e+09	-4.882307e+00	-4.563545e+01	-3.812068e+01	+1.657128e+02	-4.060415e+01	-1.765155e+02	+2.649903e+00	-1.240820e+02
+1.031321e+09	-5.629468e+00	-6.431744e+01	-3.959174e+01	-1.773156e+02	-4.151697e+01	-1.536468e+02	+1.499410e+00	-9.449001e+01
+1.039010e+09	-6.204341e+00	-7.889311e+01	-4.080983e+01	-1.607791e+02	-4.209046e+01	-1.427302e+02	+2.502848e-01	-6.869083e+01
+1.046699e+09	-7.478239e+00	-9.175356e+01	-4.088725e+01	-1.442567e+02	-4.288672e+01	-1.315085e+02	-8.487049e-01	-4.550788e+01
+1.054388e+09	-6.498075e+00	-1.110645e+02	-4.107749e+01	-1.266742e+02	-4.354561e+01	-1.224300e+02	-1.219897e+00	-2.549749e+01
+1.062077e+09	-6.660536e+00	-1.077822e+02	-4.102256e+01	-1.137002e+02	-4.454630e+01	-1.197558e+02	-1.614811e+00	-4.628730e+00
+1.069766e+09	-6.508784e+00	-1.202917e+02	-4.070979e+01	-1.019952e+02	-4.451801e+01	-1.034813e+02	-1.963343e+00	+9.567241e-01
+1.077455e+09	-6.063217e+00	-1.333149e+02	-4.004827e+01	-9.733839e+01	-4.418635e+01	-9.469169e+01	-2.304645e+00	+1.860494e+01
+1.085144e+09	-5.502741e+00	-1.482383e+02	-3.929755e+01	-8.474247e+01	-4.427308e+01	-8.773377e+01	-2.697719e+00	+3.688857e+01
+1.092833e+09	-5.141654e+00	-1.662963e+02	-3.885964e+01	+1.763927e+02	-4.325611e+01	-8.108837e+01	-3.024638e+00	+5.376115e+01
+1.100522e+09	-5.144016e+00	+1.728401e+02	-4.007900e+01	-1.717135e+02	-4.297632e+01	-7.503844e+01	-3.304181e+00	+7.018774e+01
+1.108211e+09	-5.320708e+00	+1.752379e+02	-4.031354e+01	-1.555762e+02	-3.966846e+01	-6.718355e+01	-3.280074e+00	+8.912871e+01
+1.115900e+09	-5.367156e+00	+1.777208e+02	-4.042852e+01	-1.431756e+02	-3.999824e+01	-5.716852e+01	-3.000614e+00	+1.118202e+02
+1.123589e+09	-6.405544e+00	+1.283332e+02	-4.137684e+01	-1.327596e+02	-4.044128e+01	-4.597843e+01	-2.676751e+00	+1.389540e+02
+1.131278e+09	-6.916784e+00	+9.438693e+01	-4.192565e+01	-1.175490e+02	-3.981508e+01	-3.062313e+01	-2.282712e+00	+1.702617e+02
+1.138967e+09	-6.880869e+00	+9.965168e+01	-4.013513e+01	-1.002528e+02	-3.932225e+01	-1.913921e+01	-2.024417e+00	-1.775299e+02
+1.146656e+09	-7.409243e+00	+7.644891e+01	-4.213107e+01	-8.217400e+01	-3.947212e+01	+1.199083e+01	-1.586076e+00	-1.478494e+02
+1.154344e+09	-7.510982e+00	+5.365307e+01	-4.168192e+01	+5.493225e+01	-4.057214e+01	+1.134626e+01	-1.346292e+00	-1.213430e+02
+1.162033e+09	-7.214855e+00	+3.243968e+01	-4.143738e+01	+6.231373e+01	-4.193935e+01	+1.356878e+01	-8.305979e-01	-9.908798e+01
+1.169722e+09	-6.792565e+00	+1.190803e+01	-4.061171e+01	-5.360827e+01	-4.353856e+01	+2.177928e+01	-1.845021e+00	-8.576226e+01
+1.177411e+09	-6.012258e+00	-2.876278e+01	-4.008890e+01	-4.475241e+01	-4.253488e+01	+2.821906e+01	+1.309793e+00	-5.717138e+01
+1.185100e+09	-6.107901e+00	-7.555600e+01	-4.081122e+01	-3.377558e+01	-4.252350e+01	+4.172708e+01	+2.241874e+00	-3.081964e+01
+1.192789e+09	-5.649789e+00	-6.428422e+01	-4.040986e+01	-2.133171e+01	-4.262935e+01	+5.687675e+01	+2.602337e+00	-2.815880e-01
+1.200478e+09	-5.336658e+00	-6.970834e+01	-3.940751e+01	-5.421297e+00	-4.306495e+01	+4.828010e+01	+3.626279e+00	+4.575184e+00
+1.208167e+09	-5.313748e+00	-8.510294e+01	-4.089480e+01	+1.334432e+02	-4.428760e+01	+7.993150e+01	+2.417045e+00	+3.475251e+01
