# Hz S DB R 50.000000
+1.000000e+06	-5.780728e+01	+3.002963e+01	-1.083067e+01	+2.199153e+00	-1.090829e+01	+5.467691e+00	-4.582675e+01	-9.411722e+01
+8.688963e+06	-4.194827e+01	-9.477136e+01	-1.080059e+01	+1.167944e+00	-1.078012e+01	+2.251019e+00	-5.282334e+01	+1.323897e+02
+1.637793e+07	-4.539793e+01	-9.696474e+01	-1.076800e+01	+1.915914e+00	-1.080249e+01	+2.433339e+00	-5.034276e+01	+1.514119e+02
+2.406689e+07	-4.063505e+01	+7.414938e+01	-1.071106e+01	+2.696646e+00	-1.082538e+01	+3.105161e+00	-5.174527e+01	+1.788272e+02
+3.175585e+07	-4.518761e+01	+1.206877e+02	-1.075332e+01	+3.763894e+00	-1.079432e+01	+3.795503e+00	-5.497274e+01	-1.442873e+02
+3.944482e+07	-5.134310e+01	+1.413248e+02	-1.068800e+01	+4.372408e+00	-1.079282e+01	+4.592131e+00	-5.735321e+01	-9.466380e+01
+4.713378e+07	-5.279246e+01	+1.685186e+02	-1.071623e+01	+5.217192e+00	-1.075397e+01	+5.235467e+00	-5.523157e+01	-8.853356e+01
+5.482274e+07	-3.945524e+01	+1.226820e+02	-1.067534e+01	+5.891438e+00	-1.067218e+01	+5.812743e+00	-5.437030e+01	-8.275171e+01
+6.251171e+07	-4.312669e+01	+1.302701e+02	-1.064068e+01	+6.492818e+00	-1.071046e+01	+6.211401e+00	-5.343861e+01	-7.573823e+01
+7.020067e+07	-4.467381e+01	+1.350196e+02	-1.065105e+01	+7.381976e+00	-1.067979e+01	+6.882380e+00	-5.283387e+01	-8.100426e+01
+7.788963e+07	-4.408118e+01	+1.478808e+02	-1.063915e+01	+8.099575e+00	-1.068917e+01	+7.434987e+00	-5.448690e+01	-8.523106e+01
+8.557860e+07	-5.283951e+01	-9.296519e+01	-1.061875e+01	+8.560822e+00	-1.074193e+01	+7.942848e+00	-5.932427e+01	-1.177861e+02
+9.326756e+07	-5.963199e+01	+4.468343e+01	-1.064878e+01	-6.684442e+00	-1.077370e+01	+8.660462e+00	-5.462791e+01	-5.667386e+01
+1.009565e+08	-3.617899e+01	+3.355251e+01	-1.062524e+01	+2.952497e+00	-1.074308e+01	+9.623631e+00	-6.037484e+01	-6.413635e+01
+1.086455e+08	-5.562982e+01	+1.602863e+02	-1.058339e+01	+1.048981e+01	-1.079739e+01	+1.012601e+01	-3.069388e+01	+2.854609e+01
+1.163344e+08	-5.241421e+01	+1.536567e+02	-1.061543e+01	+1.170849e+01	-1.073490e+01	+1.073995e+01	-3.090848e+01	+5.210543e+01
+1.240234e+08	-5.056243e+01	+1.567683e+02	-1.059739e+01	+1.275694e+01	-1.074287e+01	+1.157118e+01	-3.170705e+01	+7.735577e+01
+1.317124e+08	-3.473236e+01	+1.464801e+02	-1.058016e+01	+1.300931e+01	-1.071526e+01	+1.241519e+01	-3.326973e+01	+9.563626e+01
+1.394013e+08	-3.522167e+01	+1.529717e+02	-1.059217e+01	+1.388546e+01	-1.066977e+01	+1.988665e+01	-3.420239e+01	+1.079534e+02
+1.470903e+08	-3.779440e+01	+1.378553e+02	-1.053439e+01	+1.490565e+01	-1.066491e+01	-4.236720e+00	-4.696036e+01	-1.250191e+02
+1.547793e+08	-3.850465e+01	+1.666355e+02	-1.057451e+01	+1.582269e+01	-1.073736e+01	+7.265683e+00	-4.888189e+01	-1.448206e+02
+1.624682e+08	-3.982553e+01	+1.718913e+02	-1.045021e+01	+1.668562e+01	-1.093256e+01	+1.245839e+01	-4.756883e+01	-1.552330e+02
+1.701572e+08	-4.131853e+01	+1.564787e+02	-1.052347e+01	+1.717909e+01	-1.125945e+01	+1.520714e+01	-5.069544e+01	-1.763918e+02
+1.778462e+08	-4.919470e+01	+1.366263e+02	-1.058827e+01	+1.784673e+01	-1.131226e+01	+1.923448e+01	-5.261754e+01	+1.467281e+02
+1.855351e+08	-5.345812e+01	+1.231409e+02	-1.058804e+01	+1.880398e+01	-1.083289e+01	+2.118480e+01	-5.397286e+01	+1.511598e+02
+1.932241e+08	-4.743725e+01	-1.391930e+02	-1.054901e+01	-9.129701e+00	-1.065350e+01	+2.093135e+01	-4.557139e+01	-1.543873e+02
+2.009130e+08	-4.700272e+01	-1.430079e+02	-1.050113e+01	+9.197933e+00	-1.048127e+01	+2.073334e+01	-5.043262e+01	-1.755956e+02
+2.086020e+08	-4.832992e+01	-1.592307e+02	-1.049595e+01	+2.151462e+01	-1.046923e+01	+2.114901e+01	-5.747578e+01	+1.676683e+02
+2.162910e+08	-4.054439e+01	+6.402255e+01	-1.032702e+01	+1.992089e+01	-1.049263e+01	+2.149265e+01	-5.603653e+01	-1.783701e+02
+2.239799e+08	-4.373106e+01	-1.775028e+02	-1.044378e+01	+2.277459e+01	-1.046920e+01	+2.186458e+01	-6.325987e+01	+1.215611e+02
+2.316689e+08	-4.403434e+01	+1.758811e+02	-1.045406e+01	+2.351816e+01	-1.054529e+01	+2.220928e+01	-5.541770e+01	+8.607120e+00
+2.393579e+08	-4.732082e+01	-1.791326e+02	-1.044081e+01	+2.448787e+01	-1.065743e+01	+2.296581e+01	-4.513664e+01	-1.020870e+02
+2.470468e+08	-2.696702e+01	-1.662171e+02	-1.025466e+01	+2.579626e+01	-1.060104e+01	+2.468554e+01	-4.340115e+01	-1.435737e+02
+2.547358e+08	-2.939445e+01	-1.638927e+02	-1.113121e+01	+2.473542e+01	-1.094290e+01	+2.500108e+01	-3.699498e+01	+8.885777e+01
+2.624247e+08	-2.915952e+01	-1.670153e+02	-1.126581e+01	+2.778746e+01	-1.093430e+01	+2.613061e+01	-4.479852e+01	+7.958771e+01
+2.701137e+08	-3.127681e+01	-1.578478e+02	-1.118667e+01	+2.834705e+01	-1.087978e+01	+2.720870e+01	-4.797484e+01	+8.914726e+01
+2.778027e+08	-3.253993e+01	-1.581087e+02	-1.102894e+01	+2.794988e+01	-1.072653e+01	+3.884609e+01	-4.532015e+01	+1.206071e+02
+2.854916e+08	-3.402083e+01	-1.567234e+02	-1.099488e+01	+2.943662e+01	-1.063750e+01	+2.445002e+01	-4.089645e+01	+1.477096e+02
+2.931806e+08	-3.424699e+01	-1.413622e+02	-1.104255e+01	-6.208553e+00	-1.059303e+01	+2.383944e+01	-3.839605e+01	+1.578849e+02
+3.008696e+08	-3.559341e+01	-1.469703e+02	-1.115883e+01	+1.826996e+01	-1.059650e+01	+1.189401e+01	-4.960930e+01	+1.547734e+02
+3.085585e+08	-3.576299e+01	-1.479437e+02	-1.129199e+01	+2.946617e+01	-1.069579e+01	+2.678748e+01	-5.185097e+01	+1.757312e+02
+3.162475e+08	-4.258559e+01	+1.647978e+02	-1.129289e+01	+3.161065e+01	-1.070787e+01	+2.986386e+01	-5.358422e+01	-1.766641e+02
+3.239365e+08	-4.313082e+01	-1.666152e+02	-1.116869e+01	+3.233409e+01	-1.082772e+01	+3.074495e+01	-6.200537e+01	+1.469920e+02
+3.316254e+08	-4.175570e+01	-1.634330e+02	-1.118430e+01	+3.347753e+01	-1.089818e+01	+3.161697e+01	-5.040266e+01	-1.459364e+02
+3.393144e+08	-4.132712e+01	-1.666457e+02	-1.106783e+01	+3.421140e+01	-1.089747e+01	+3.290377e+01	-4.798546e+01	-1.506692e+02
+3.470033e+08	-4.103907e+01	-1.662674e+02	-1.102402e+01	+3.496523e+01	-1.080720e+01	+3.397916e+01	-4.550761e+01	-1.493057e+02
+3.546923e+08	-4.133874e+01	-1.667111e+02	-1.101503e+01	+3.531918e+01	-1.080291e+01	+3.496396e+01	-4.227317e+01	-1.471389e+02
+3.623813e+08	-4.158736e+01	-1.641592e+02	-1.093617e+01	+3.611120e+01	-1.081073e+01	+3.554398e+01	-4.200364e+01	-1.506368e+02
+3.700702e+08	-4.143467e+01	-1.629059e+02	-1.080378e+01	+3.740572e+01	-1.079368e+01	+3.592640e+01	-3.521974e+01	-1.624479e+02
+3.777592e+08	-2.894328e+01	-1.189569e+02	-1.075970e+01	+3.711742e+01	-1.081521e+01	+3.672617e+01	-4.740091e+01	+7.615271e+01
+3.854482e+08	-3.039171e+01	-1.183618e+02	-1.067007e+01	+2.757327e+01	-1.083457e+01	+3.750006e+01	-4.964238e+01	+1.168062e+02
+3.931371e+08	-3.185027e+01	-1.169133e+02	-1.066716e+01	+2.027057e+01	-1.087194e+01	+3.723398e+01	-5.199256e+01	-1.768342e+02
+4.008261e+08	-3.184434e+01	-1.142536e+02	-1.071774e+01	+2.268648e+01	-1.101472e+01	+3.742573e+01	-4.649368e+01	-1.517595e+02
+4.085151e+08	-3.313144e+01	-1.131926e+02	-1.074577e+01	+3.800859e+01	-1.113412e+01	+3.871223e+01	-4.399894e+01	+1.516647e+02
+4.162040e+08	-3.226809e+01	-1.064473e+02	-1.080842e+01	+4.065415e+01	-1.122539e+01	+3.997826e+01	-4.702037e+01	-1.776580e+02
+4.238930e+08	-3.427431e+01	-1.079914e+02	-1.069686e+01	+4.195300e+01	-1.122047e+01	+4.995099e+01	-5.139523e+01	-1.577739e+02
+4.315819e+08	-3.895342e+01	-1.348783e+02	-1.064395e+01	+4.258074e+01	-1.135414e+01	+3.856397e+01	-4.797210e+01	-1.003108e+02
+4.392709e+08	-3.723380e+01	-1.396125e+02	-1.074454e+01	+4.336288e+01	-1.121534e+01	+3.690023e+01	-4.299627e+01	-1.020436e+02
+4.469599e+08	-3.645553e+01	-1.405394e+02	-1.067317e+01	+4.405617e+01	-1.125803e+01	+3.793237e+01	-2.875042e+01	+4.306368e+01
+4.546488e+08	-3.554958e+01	-1.428942e+02	-1.075766e+01	+4.446358e+01	-1.116163e+01	+2.180708e+01	-3.089053e+01	+7.171949e+01
+4.623378e+08	-3.588643e+01	-1.426646e+02	-1.079879e+01	+4.462285e+01	-1.109381e+01	+3.738638e+01	-3.383714e+01	+1.001177e+02
+4.700268e+08	-3.647021e+01	-1.447990e+02	-1.099044e+01	+4.500349e+01	-1.105985e+01	+4.695648e+01	-3.726494e+01	+1.194962e+02
+4.777157e+08	-3.611978e+01	-1.483573e+02	-1.094305e+01	+5.274922e+01	-1.099348e+01	+4.970266e+01	-3.932260e+01	+1.508006e+02
+4.854047e+08	-3.730464e+01	-1.552028e+02	-1.087810e+01	+4.002994e+01	-1.079075e+01	+5.124278e+01	-4.647308e+01	-1.217693e+02
+4.930936e+08	-3.989735e+01	-1.582015e+02	-1.097886e+01	+4.068838e+01	-1.055237e+01	+5.127640e+01	-4.544288e+01	-1.399845e+02
+5.007826e+08	-2.744676e+01	-7.671261e+01	-1.062351e+01	+3.428810e+01	-1.027589e+01	+5.175853e+01	-4.742222e+01	-1.389594e+02
+5.084716e+08	-2.864919e+01	-7.282918e+01	-1.056766e+01	+4.991930e+01	-1.017913e+01	+5.132721e+01	-4.930018e+01	-1.142233e+02
+5.161605e+08	-2.882435e+01	-8.161631e+01	-1.074332e+01	+5.244215e+01	-1.006333e+01	+5.086240e+01	-4.550122e+01	-1.073695e+02
+5.238495e+08	-2.997917e+01	-8.835184e+01	-1.071304e+01	+5.381300e+01	-1.011330e+01	+5.022849e+01	-4.382729e+01	-1.216286e+02
+5.315385e+08	-3.597260e+01	-1.330617e+02	-1.048099e+01	+5.448495e+01	-1.020256e+01	+4.962070e+01	-4.313289e+01	-1.375999e+02
+5.392274e+08	-3.505419e+01	-1.304062e+02	-1.038792e+01	+5.418787e+01	-1.025970e+01	+5.021745e+01	-4.218914e+01	-1.531681e+02
+5.469164e+08	-3.553814e+01	-1.276134e+02	-1.029541e+01	+5.434976e+01	-1.035873e+01	+5.054873e+01	-4.480388e+01	-1.565303e+02
+5.546054e+08	-3.678158e+01	-1.237821e+02	-1.034449e+01	+5.444578e+01	-1.048415e+01	+5.133130e+01	-4.792173e+01	-1.561584e+02
+5.622943e+08	-3.660957e+01	-1.214820e+02	-1.036390e+01	+5.403226e+01	-1.053738e+01	+5.232327e+01	-5.456564e+01	-1.459275e+02
+5.699833e+08	-3.706067e+01	-1.163359e+02	-1.044105e+01	+5.501697e+01	-1.064608e+01	+5.571494e+01	-5.397388e+01	-6.029919e+01
+5.776722e+08	-3.583179e+01	-1.202737e+02	-1.047097e+01	+4.714362e+01	-1.065993e+01	+4.849999e+01	-6.871074e+01	-4.115289e+01
+5.853612e+08	-3.013264e+01	-6.187515e+01	-1.047207e+01	+3.718467e+01	-1.071519e+01	+4.867852e+01	-5.348483e+01	+5.331302e+01
+5.930502e+08	-3.134360e+01	-6.204147e+01	-1.050519e+01	+3.844607e+01	-1.068995e+01	+4.924395e+01	-5.058421e+01	+2.878340e+01
+6.007391e+08	-3.337747e+01	-6.813808e+01	-1.048155e+01	+2.308037e+01	-1.065540e+01	+4.941257e+01	-3.933645e+01	+7.353483e+01
+6.084281e+08	-3.370226e+01	-6.265210e+01	-1.051264e+01	+4.608527e+01	-1.112872e+01	+5.043997e+01	-3.862257e+01	+7.887847e+01
+6.161171e+08	-3.411376e+01	-6.284716e+01	-1.049058e+01	+5.947898e+01	-1.100680e+01	+4.712029e+01	-3.931887e+01	+7.085161e+01
+6.238060e+08	-3.418012e+01	-6.150656e+01	-1.043779e+01	+5.962067e+01	-1.110658e+01	+5.595338e+01	-5.210067e+01	+1.692165e+02
+6.314950e+08	-3.422090e+01	-5.984530e+01	-1.033251e+01	+6.009140e+01	-1.109525e+01	+5.872502e+01	-4.837238e+01	-1.319469e+02
+6.391839e+08	-3.700255e+01	-1.035354e+02	-1.039990e+01	+6.067087e+01	-1.109598e+01	+6.088508e+01	-4.428594e+01	-1.024078e+02
+6.468729e+08	-3.652311e+01	-9.692688e+01	-1.041643e+01	+6.167955e+01	-1.098567e+01	+6.251790e+01	-4.233777e+01	-7.895678e+01
+6.545619e+08	-3.518001e+01	-9.580305e+01	-1.048891e+01	+4.690560e+01	-1.089048e+01	+6.382616e+01	-3.542527e+01	-8.797627e+01
+6.622508e+08	-3.205477e+01	-1.331074e+02	-1.038895e+01	+6.361435e+01	-1.082572e+01	+6.550489e+01	-2.973125e+01	-6.524709e+01
+6.699398e+08	-2.901259e+01	-1.276794e+02	-1.043295e+01	+6.449609e+01	-1.066101e+01	+6.618195e+01	-2.937765e+01	-6.703986e+01
+6.776288e+08	-3.405869e+01	-1.207908e+02	-1.034433e+01	+6.356747e+01	-1.049234e+01	+6.632891e+01	-3.904017e+01	-4.136330e+01
+6.853177e+08	-3.340544e+01	-1.154645e+02	-1.037241e+01	+5.595976e+01	-1.039469e+01	+6.695258e+01	-3.962349e+01	-2.493511e+01
+6.930067e+08	-3.314179e+01	-1.131204e+02	-1.037073e+01	+5.735254e+01	-1.038418e+01	+6.730808e+01	-3.874768e+01	-3.256248e+01
+7.006957e+08	-3.339311e+01	-1.102519e+02	-1.040824e+01	+5.828256e+01	-1.034168e+01	+6.786382e+01	-3.937875e+01	-2.861376e+01
+7.083846e+08	-3.092784e+01	-1.164095e+02	-1.033369e+01	+5.140496e+01	-1.028778e+01	+6.836101e+01	-3.896583e+01	-1.757347e+01
+7.160736e+08	-3.303442e+01	-4.113333e-01	-1.037671e+01	+6.738587e+01	-1.018667e+01	+7.463632e+01	-4.155502e+01	-3.104000e+01
+7.237625e+08	-3.684299e+01	-5.891230e+01	-1.031354e+01	+5.755646e+01	-1.025263e+01	+7.432276e+01	-3.510155e+01	-4.150895e+01
+7.314515e+08	-3.618939e+01	-7.780729e+01	-1.011085e+01	+7.357254e+01	-1.020242e+01	+7.195742e+01	-3.694379e+01	+7.324856e+01
+7.391405e+08	-3.499393e+01	-9.402287e+01	-1.003932e+01	+7.464067e+01	-1.028874e+01	+6.387628e+01	-3.983046e+01	+5.431472e+01
+7.468294e+08	-3.474491e+01	-8.981294e+01	-9.953493e+00	+7.543581e+01	-1.037649e+01	+6.445699e+01	-4.186342e+01	+1.392610e+00
+7.545184e+08	-3.602455e+01	-9.659378e+01	-9.964365e+00	+7.623609e+01	-1.045217e+01	+6.517864e+01	-3.997990e+01	-1.587029e+01
+7.622074e+08	-3.618681e+01	-9.377032e+01	-9.943752e+00	+7.716815e+01	-1.042458e+01	+6.546628e+01	-4.011874e+01	-1.632968e+01
+7.698963e+08	-3.063091e+01	-1.106236e+02	-1.002777e+01	+8.435927e+01	-1.055706e+01	+5.337692e+01	-3.914700e+01	-1.607428e+01
+7.775853e+08	-3.164724e+01	-1.045685e+02	-1.006322e+01	+6.680765e+01	-1.064937e+01	+6.588223e+01	-3.862118e+01	-1.335361e+01
+7.852742e+08	-2.792105e+01	-8.013564e+01	-9.963785e+00	+6.128722e+01	-1.067124e+01	+7.353581e+01	-3.801730e+01	-1.597093e+01
+7.929632e+08	-3.237596e+01	-9.473392e+01	-1.003519e+01	+6.312791e+01	-1.061259e+01	+7.609873e+01	-2.288234e+01	-9.680320e+01
+8.006522e+08	-3.295341e+01	-9.284420e+01	-9.985662e+00	+6.400810e+01	-1.097785e+01	+7.647877e+01	-4.104863e+01	+5.783060e+01
+8.083411e+08	-3.157487e+01	-8.314760e+01	-9.975555e+00	+4.635251e+01	-1.104019e+01	+7.773080e+01	-4.366476e+01	+7.584283e+01
+8.160301e+08	-3.274669e+01	-9.173609e+01	-9.968718e+00	+7.014091e+01	-1.103591e+01	+7.883506e+01	-4.830258e+01	+1.033520e+02
+8.237191e+08	-4.480425e+01	-1.357746e+01	-1.003478e+01	+8.450693e+01	-1.104059e+01	+7.991449e+01	-5.399118e+01	+1.632559e+02
+8.314080e+08	-4.554122e+01	-3.652486e+01	-1.004147e+01	+8.542197e+01	-1.111097e+01	+8.076810e+01	-4.885971e+01	-1.066114e+02
+8.390970e+08	-4.390946e+01	-7.265757e+01	-1.015958e+01	+8.582693e+01	-1.105122e+01	+8.184465e+01	-3.833673e+01	-1.422036e+01
+8.467860e+08	-4.093496e+01	-8.636976e+01	-1.016658e+01	+8.628055e+01	-1.099121e+01	+8.309762e+01	-3.886370e+01	-1.430123e+01
+8.544749e+08	-3.903457e+01	-8.900704e+01	-1.024880e+01	+8.685456e+01	-1.093754e+01	+8.425617e+01	-4.062049e+01	-1.660523e+01
+8.621639e+08	-3.834923e+01	-8.743946e+01	-1.035380e+01	+8.764796e+01	-1.097472e+01	+9.039642e+01	-3.968784e+01	-3.067725e+00
+8.698528e+08	-3.784475e+01	-8.492901e+01	-1.041627e+01	+9.819312e+01	-1.090926e+01	+8.162708e+01	-3.854735e+01	-3.252769e+01
+8.775418e+08	-3.208715e+01	-8.383177e+01	-1.049016e+01	+8.192592e+01	-1.081609e+01	+7.990543e+01	-3.873195e+01	-3.353330e+01
+8.852308e+08	-3.195056e+01	-8.084047e+01	-1.056532e+01	+7.968918e+01	-1.091115e+01	+8.079673e+01	-3.851653e+01	-3.088200e+01
+8.929197e+08	-3.243022e+01	-8.398640e+01	-1.057135e+01	+8.148418e+01	-1.078550e+01	+8.205698e+01	-3.751226e+01	-2.915604e+01
+9.006087e+08	-3.107221e+01	-8.472646e+01	-1.051078e+01	+8.253849e+01	-1.082888e+01	+8.268874e+01	-3.750407e+01	-2.664251e+01
+9.082977e+08	-2.969562e+01	-8.669440e+01	-1.052381e+01	+8.287206e+01	-1.078843e+01	+8.327045e+01	-3.711547e+01	-2.260827e+01
+9.159866e+08	-2.870699e+01	-8.699336e+01	-1.048794e+01	+7.525550e+01	-1.073361e+01	+8.498406e+01	-3.664283e+01	-1.475347e+01
+9.236756e+08	-2.846512e+01	-8.170210e+01	-1.046311e+01	+9.144607e+01	-1.068997e+01	+8.422882e+01	-3.552899e+01	-1.746471e+01
+9.313645e+08	-3.999898e+01	-9.955223e+01	-1.040705e+01	+9.609952e+01	-1.070330e+01	+7.674654e+01	-3.481682e+01	+1.367494e+01
+9.390535e+08	-4.310613e+01	-1.023138e+02	-1.036101e+01	+9.605118e+01	-1.063926e+01	+8.748402e+01	-3.382693e+01	-3.340798e+01
+9.467425e+08	-4.876413e+01	-1.242056e+02	-1.019195e+01	+9.662542e+01	-1.062591e+01	+9.799171e+01	-2.733726e+01	-6.617244e+01
+9.544314e+08	-4.200654e+01	-1.182890e+02	-1.015756e+01	+9.687051e+01	-1.050979e+01	+9.232301e+01	-2.895212e+01	-3.389690e+01
+9.621204e+08	-4.025249e+01	-1.050815e+02	-1.011319e+01	+9.778653e+01	-1.051586e+01	+9.183679e+01	-3.434224e+01	-3.339044e+01
+9.698094e+08	-3.715272e+01	-1.081963e+02	-1.002486e+01	+9.062671e+01	-1.042197e+01	+1.014124e+02	-3.095123e+01	-1.513274e+02
+9.774983e+08	-3.000521e+01	-7.960250e+01	-1.005467e+01	+7.901249e+01	-1.038640e+01	+9.215667e+01	-3.443249e+01	-1.621903e+01
+9.851873e+08	-3.014013e+01	-8.203382e+01	-1.011494e+01	+7.913587e+01	-1.059983e+01	+9.331320e+01	-3.114520e+01	-7.389837e-01
+9.928763e+08	-3.065582e+01	-8.380456e+01	-1.001985e+01	+8.046802e+01	-1.067716e+01	+9.569543e+01	-3.181923e+01	+4.014514e+00
+1.000565e+09	-2.948114e+01	-8.926056e+01	-1.008763e+01	+8.136970e+01	-1.111286e+01	+1.167066e+02	-3.468562e+01	-1.073214e+01
+1.008254e+09	-3.030027e+01	-6.615579e+01	-1.013480e+01	+8.201565e+01	-1.076650e+01	+1.023253e+02	-3.699728e+01	+1.457091e+01
+1.015943e+09	-2.926278e+01	-6.324087e+01	-1.010744e+01	+7.539188e+01	-1.082821e+01	+9.452721e+01	-3.209577e+01	-1.682455e+01
+1.023632e+09	-2.817802e+01	-5.425025e+01	-1.017578e+01	+9.548173e+01	-1.088844e+01	+9.375811e+01	-4.333793e+01	+1.020509e+02
+1.031321e+09	-2.867390e+01	-5.436133e+01	-1.014193e+01	+1.056840e+02	-1.088196e+01	+9.585599e+01	-3.341595e+01	+1.102525e+00
+1.039010e+09	-3.196092e+01	-1.583164e+02	-1.017225e+01	+1.071138e+02	-1.063513e+01	+9.765828e+01	-3.529726e+01	-1.684344e+01
+1.046699e+09	-3.224427e+01	-1.541917e+02	-1.019745e+01	+1.064295e+02	-1.060818e+01	+9.812978e+01	-3.507524e+01	-2.229153e+01
+1.054388e+09	-3.195131e+01	-1.449591e+02	-1.032628e+01	+1.073798e+02	-1.055690e+01	+9.826635e+01	-3.488280e+01	-1.508339e+01
+1.062077e+09	-3.244747e+01	-1.277211e+02	-1.041297e+01	+1.076250e+02	-1.077554e+01	+9.838006e+01	-3.502216e+01	-4.700532e+00
+1.069766e+09	-2.971809e+01	-1.465974e+02	-1.041983e+01	+1.066716e+02	-1.054305e+01	+9.913716e+01	-2.751659e+01	-6.165219e+01
+1.077455e+09	-2.974742e+01	-1.351594e+02	-1.041168e+01	+9.957755e+01	-1.047638e+01	+9.985854e+01	-3.195889e+01	-3.308006e+01
+1.085144e+09	-2.824632e+01	-1.299247e+02	-1.039485e+01	+1.009245e+02	-1.045071e+01	+8.905429e+01	-3.895749e+01	+5.717129e+01
+1.092833e+09	-2.932584e+01	-6.826820e+01	-1.043455e+01	+1.021270e+02	-1.054043e+01	+1.012487e+02	-3.830682e+01	-6.973528e+00
+1.100522e+09	-2.918240e+01	-6.561399e+01	-1.064512e+01	+1.030336e+02	-1.054172e+01	+1.087583e+02	-3.645173e+01	-1.749527e+01
+1.108211e+09	-2.893646e+01	-6.320465e+01	-1.056039e+01	+1.031662e+02	-1.039030e+01	+1.117922e+02	-3.603053e+01	-1.714630e+01
+1.115900e+09	-2.693603e+01	-6.046130e+01	-1.043469e+01	+8.479612e+01	-1.035318e+01	+1.122596e+02	-3.442767e+01	-1.331985e+01
+1.123589e+09	-2.816989e+01	-5.779613e+01	-1.045451e+01	+9.986004e+01	-1.018299e+01	+1.123010e+02	-3.534250e+01	-9.412925e+00
+1.131278e+09	-2.757808e+01	-5.474021e+01	-1.034303e+01	+1.140565e+02	-1.015696e+01	+1.126650e+02	-3.552637e+01	-5.071935e+00
+1.138967e+09	-2.729206e+01	-5.306506e+01	-1.024066e+01	+1.147094e+02	-1.004915e+01	+1.125175e+02	-3.546025e+01	-9.339945e+00
+1.146656e+09	-2.660852e+01	-5.304139e+01	-1.018736e+01	+1.145353e+02	-1.016546e+01	+1.286686e+02	-3.571807e+01	-6.022648e+00
+1.154344e+09	-2.701467e+01	-4.932058e+01	-1.017187e+01	+1.149362e+02	-1.025983e+01	+1.156274e+02	-3.412345e+01	-7.064566e+00
+1.162033e+09	-2.257448e+01	-1.173712e+02	-1.022894e+01	+1.075187e+02	-1.032897e+01	+1.086779e+02	-3.309898e+01	-7.490490e+00
+1.169722e+09	-2.319515e+01	-1.120486e+02	-1.019145e+01	+9.580595e+01	-1.038649e+01	+1.065222e+02	-2.930640e+01	-1.732883e+01
+1.177411e+09	-2.337378e+01	-1.021111e+02	-1.033055e+01	+9.564686e+01	-1.037725e+01	+1.158403e+02	-3.245006e+01	-6.608830e+01
+1.185100e+09	-2.360358e+01	-9.182529e+01	-1.025986e+01	+9.702382e+01	-1.035146e+01	+1.161289e+02	-3.125113e+01	-1.079075e+01
+1.192789e+09	-2.417724e+01	-8.653792e+01	-1.034912e+01	+9.814220e+01	-1.031447e+01	+1.162970e+02	-3.015876e+01	+1.651519e+01
+1.200478e+09	-2.394658e+01	-8.247056e+01	-1.036300e+01	+9.894000e+01	-1.056210e+01	+1.094192e+02	-3.048032e+01	+2.559739e+01
+1.208167e+09	-2.350332e+01	-9.681622e+01	-1.051785e+01	+9.958751e+01	-1.046343e+01	+1.073022e+02	-2.790383e+01	-2.922636e+01
