# Hz S DB R 50.000000
+1.000000e+06	+6.040176e+00	+1.770088e+02	-3.200000e+01	-8.709677e+01	-3.284000e+01	+0.000000e+00	+8.101290e+00	+0.000000e+00
+8.688963e+06	+5.790323e+00	+1.529032e+02	-3.200000e+01	-8.709677e+01	-3.284000e+01	+0.000000e+00	+8.356774e+00	+0.000000e+00
+1.637793e+07	+5.353079e+00	+1.266862e+02	-3.200000e+01	-8.709677e+01	-3.284000e+01	+0.000000e+00	+8.484516e+00	+0.000000e+00
+2.406689e+07	+4.853372e+00	+1.025806e+02	-3.200000e+01	-8.727273e+01	-3.284000e+01	+0.000000e+00	+8.612258e+00	+0.000000e+00
+3.175585e+07	+4.416129e+00	+8.041056e+01	-3.200000e+01	-8.727273e+01	-3.284000e+01	+0.000000e+00	+8.803871e+00	+0.000000e+00
+3.944482e+07	+4.416129e+00	+5.964809e+01	-3.200000e+01	-8.727273e+01	-3.284000e+01	+0.000000e+00	+8.995484e+00	+0.000000e+00
+4.713378e+07	+4.166276e+00	+3.958944e+01	-3.200000e+01	+8.744868e+01	-3.284000e+01	+0.000000e+00	+9.378710e+00	+0.000000e+00
+5.482274e+07	+4.291202e+00	+2.058651e+01	-3.200000e+01	+8.744868e+01	-3.284000e+01	+0.000000e+00	+9.698065e+00	+0.000000e+00
+6.251171e+07	+4.541056e+00	-7.038123e-01	-3.200000e+01	+8.762463e+01	-3.284000e+01	+0.000000e+00	+1.001742e+01	+0.000000e+00
+7.020067e+07	+4.915836e+00	-1.583578e+00	-3.200000e+01	+8.727273e+01	-3.284000e+01	+0.000000e+00	+1.033677e+01	+0.000000e+00
+7.788963e+07	+5.415543e+00	-2.287390e+01	-3.200000e+01	+8.709677e+01	-3.284000e+01	+0.000000e+00	+1.065613e+01	+0.000000e+00
+8.557860e+07	+5.790323e+00	-4.592375e+01	-3.200000e+01	+8.727273e+01	-3.284000e+01	+0.000000e+00	+1.091161e+01	+0.000000e+00
+9.326756e+07	+6.040176e+00	-7.020528e+01	-3.106305e+01	-8.674487e+01	-3.284000e+01	+0.000000e+00	+1.110323e+01	+0.000000e+00
+1.009565e+08	+5.977713e+00	-9.554252e+01	-2.550381e+01	-8.674487e+01	-3.220129e+01	+0.000000e+00	+1.116710e+01	+0.000000e+00
+1.086455e+08	+5.665396e+00	-1.210557e+02	-3.093812e+01	-8.674487e+01	-3.200968e+01	+0.000000e+00	+1.116710e+01	+0.000000e+00
+1.163344e+08	+5.103226e+00	-1.451613e+02	-3.081320e+01	-8.674487e+01	-3.239290e+01	+0.000000e+00	+1.103935e+01	+0.000000e+00
+1.240234e+08	+4.541056e+00	+1.682111e+02	-3.131290e+01	-8.780059e+01	-3.284000e+01	+0.000000e+00	+1.078387e+01	+0.000000e+00
+1.317124e+08	+4.041349e+00	+1.766569e+02	-3.150029e+01	-8.815249e+01	-3.284000e+01	+0.000000e+00	+1.046452e+01	+0.000000e+00
+1.394013e+08	+3.604106e+00	+1.578299e+02	-3.175015e+01	+8.832845e+01	-3.284000e+01	+0.000000e+00	+1.008129e+01	+0.000000e+00
+1.470903e+08	+3.416716e+00	+1.368915e+02	-3.200000e+01	+8.832845e+01	-3.284000e+01	+0.000000e+00	+9.698065e+00	+0.000000e+00
+1.547793e+08	+3.479179e+00	+1.163050e+02	-3.200000e+01	+8.832845e+01	-3.284000e+01	+0.000000e+00	+9.250968e+00	+0.000000e+00
+1.624682e+08	+3.791496e+00	+9.501466e+01	-3.200000e+01	+8.797654e+01	-3.284000e+01	+0.000000e+00	+8.740000e+00	+0.000000e+00
+1.701572e+08	+4.291202e+00	+7.214076e+01	-3.200000e+01	+8.780059e+01	-3.169032e+01	+0.000000e+00	+8.229032e+00	+0.000000e+00
+1.778462e+08	+4.790909e+00	+4.821114e+01	-3.200000e+01	+8.656891e+01	-3.060452e+01	+0.000000e+00	+8.101290e+00	+0.000000e+00
+1.855351e+08	+5.353079e+00	-2.357771e+01	-3.200000e+01	+8.551320e+01	-2.466452e+01	+0.000000e+00	+8.165161e+00	+0.000000e+00
+1.932241e+08	+5.790323e+00	+0.000000e+00	-3.200000e+01	+8.516129e+01	-3.086000e+01	+0.000000e+00	+8.101290e+00	+0.000000e+00
+2.009130e+08	+5.977713e+00	-1.178886e+01	-3.200000e+01	+8.375367e+01	-2.670839e+01	+0.000000e+00	+7.973548e+00	+0.000000e+00
+2.086020e+08	+5.790323e+00	-3.782991e+01	-3.200000e+01	+8.322581e+01	-3.111548e+01	+0.000000e+00	+7.909677e+00	+0.000000e+00
+2.162910e+08	+5.290616e+00	-6.158358e+01	-3.200000e+01	-8.023460e+01	-3.220129e+01	+0.000000e+00	+7.845806e+00	+0.000000e+00
+2.239799e+08	+4.790909e+00	-8.322581e+01	-3.200000e+01	-7.636364e+01	-3.252065e+01	+0.000000e+00	+7.909677e+00	+0.000000e+00
+2.316689e+08	+4.291202e+00	-1.032845e+02	-3.200000e+01	-7.178886e+01	-3.284000e+01	+0.000000e+00	+8.037419e+00	+0.000000e+00
+2.393579e+08	+4.041349e+00	-1.221114e+02	-3.200000e+01	-8.199413e+01	-3.188194e+01	+0.000000e+00	+8.229032e+00	+0.000000e+00
+2.470468e+08	+3.853959e+00	-1.409384e+02	-3.200000e+01	-1.006452e+02	-3.047677e+01	+0.000000e+00	+8.420645e+00	+0.000000e+00
+2.547358e+08	+3.149560e+00	+1.592375e+02	-3.486000e+01	+1.036364e+02	-3.486000e+01	+0.000000e+00	+8.257302e+00	+0.000000e+00
+2.624247e+08	+3.414897e+00	+1.757771e+02	-3.486000e+01	+1.031085e+02	-3.486000e+01	+0.000000e+00	+8.588974e+00	+0.000000e+00
+2.701137e+08	+3.746569e+00	+1.722581e+02	-3.486000e+01	+1.001173e+02	-3.486000e+01	+0.000000e+00	+8.986979e+00	+0.000000e+00
+2.778027e+08	+4.409912e+00	+1.504399e+02	-3.486000e+01	+1.055718e+02	-3.486000e+01	+0.000000e+00	+9.451320e+00	+0.000000e+00
+2.854916e+08	+4.940587e+00	+1.258065e+02	-3.446199e+01	+9.272727e+01	-3.459466e+01	+0.000000e+00	+9.981994e+00	+0.000000e+00
+2.931806e+08	+5.272258e+00	+9.923754e+01	-3.426299e+01	+7.953079e+01	-3.419666e+01	+0.000000e+00	+1.057900e+01	+0.000000e+00
+3.008696e+08	+5.404927e+00	+7.073314e+01	-3.359965e+01	-7.865103e+01	-3.379865e+01	+0.000000e+00	+1.104334e+01	+0.000000e+00
+3.085585e+08	+5.073255e+00	+4.117302e+01	-3.286997e+01	+7.953079e+01	-3.359965e+01	+0.000000e+00	+1.150768e+01	+0.000000e+00
+3.162475e+08	+4.343578e+00	-1.354839e+01	-3.273730e+01	+7.935484e+01	-3.386499e+01	+0.000000e+00	+1.190569e+01	+0.000000e+00
+3.239365e+08	+3.348563e+00	+0.000000e+00	-3.214029e+01	+7.953079e+01	-3.406399e+01	+0.000000e+00	+1.210469e+01	+0.000000e+00
+3.316254e+08	+2.618886e+00	-1.653959e+01	-3.200762e+01	+7.900293e+01	-3.452833e+01	+0.000000e+00	+1.210469e+01	+0.000000e+00
+3.393144e+08	+2.088211e+00	-3.730205e+01	-3.207396e+01	+7.724340e+01	-3.452833e+01	+0.000000e+00	+1.190569e+01	+0.000000e+00
+3.470033e+08	+1.690205e+00	-5.683284e+01	-3.121161e+01	+6.387097e+01	-3.486000e+01	+0.000000e+00	+1.157402e+01	+0.000000e+00
+3.546923e+08	+1.623871e+00	-7.530792e+01	-3.127795e+01	+4.785924e+01	-3.486000e+01	+0.000000e+00	+1.104334e+01	+0.000000e+00
+3.623813e+08	+1.756540e+00	-9.325513e+01	-3.121161e+01	+4.821114e+01	-3.486000e+01	+0.000000e+00	+1.044633e+01	+0.000000e+00
+3.700702e+08	+2.154545e+00	-1.113783e+02	-3.121161e+01	-2.586510e+01	-3.486000e+01	+0.000000e+00	+9.782991e+00	+0.000000e+00
+3.777592e+08	+2.817889e+00	-1.296774e+02	-3.174229e+01	-2.938416e+01	-3.432933e+01	+0.000000e+00	+9.782991e+00	+0.000000e+00
+3.854482e+08	+3.680235e+00	-1.495601e+02	-3.313531e+01	-4.099707e+01	-3.366598e+01	+0.000000e+00	+8.522639e+00	+0.000000e+00
+3.931371e+08	+4.608915e+00	+1.722581e+02	-3.446199e+01	+5.032258e+01	-3.300264e+01	+0.000000e+00	+8.058299e+00	+0.000000e+00
+4.008261e+08	+5.338592e+00	+1.713783e+02	-3.486000e+01	+4.979472e+01	-3.253830e+01	+0.000000e+00	+7.593959e+00	+0.000000e+00
+4.085151e+08	+5.471261e+00	+1.441056e+02	-3.472733e+01	-4.187683e+01	-3.300264e+01	+0.000000e+00	+7.195953e+00	+0.000000e+00
+4.162040e+08	+5.205924e+00	+1.168328e+02	-3.472733e+01	-4.416422e+01	-3.293630e+01	+0.000000e+00	+6.864282e+00	+0.000000e+00
+4.238930e+08	+4.476246e+00	+9.096774e+01	-3.466100e+01	-5.032258e+01	-3.306897e+01	+0.000000e+00	+6.598944e+00	+0.000000e+00
+4.315819e+08	+3.613900e+00	+6.703812e+01	-3.466100e+01	-6.193548e+01	-3.326798e+01	+0.000000e+00	+6.399941e+00	+0.000000e+00
+4.392709e+08	+2.685220e+00	+4.504399e+01	-3.486000e+01	-6.967742e+01	-3.340065e+01	+0.000000e+00	+6.267273e+00	+0.000000e+00
+4.469599e+08	+2.021877e+00	+2.463343e+01	-3.260463e+01	-8.217009e+01	-3.326798e+01	+0.000000e+00	+6.200938e+00	+0.000000e+00
+4.546488e+08	+1.424868e+00	-4.574780e+00	-3.486000e+01	-8.991202e+01	-3.267097e+01	+0.000000e+00	+6.267273e+00	+0.000000e+00
+4.623378e+08	+1.292199e+00	+0.000000e+00	-3.486000e+01	-9.906158e+01	-3.247196e+01	+0.000000e+00	+6.333607e+00	+0.000000e+00
+4.700268e+08	+1.424868e+00	-1.706745e+01	-3.486000e+01	+1.096188e+02	-3.220663e+01	+0.000000e+00	+6.532610e+00	+0.000000e+00
+4.777157e+08	+1.756540e+00	-3.835777e+01	-3.486000e+01	+1.038123e+02	-3.154328e+01	+0.000000e+00	+6.797947e+00	+0.000000e+00
+4.854047e+08	+2.419883e+00	-6.140762e+01	-3.486000e+01	+1.214076e+02	-3.101261e+01	+0.000000e+00	+7.195953e+00	+0.000000e+00
+4.930936e+08	+3.083226e+00	-8.639296e+01	-3.486000e+01	+1.152493e+02	-3.087994e+01	+0.000000e+00	+7.660293e+00	+0.000000e+00
+5.007826e+08	+4.361056e+00	-1.134897e+02	-3.248000e+01	+9.554252e+01	-3.080293e+01	+0.000000e+00	+7.994721e+00	+0.000000e+00
+5.084716e+08	+4.678651e+00	-1.411144e+02	-3.228944e+01	+6.914956e+01	-3.166070e+01	+0.000000e+00	+8.522581e+00	+0.000000e+00
+5.161605e+08	+4.615132e+00	+1.683871e+02	-3.051091e+01	-5.049853e+01	-3.271642e+01	+0.000000e+00	+9.050440e+00	+0.000000e+00
+5.238495e+08	+4.234018e+00	+1.747214e+02	-3.101906e+01	-4.521994e+01	-3.311232e+01	+0.000000e+00	+9.578299e+00	+0.000000e+00
+5.315385e+08	+3.789384e+00	+1.513196e+02	-3.063795e+01	+5.859238e+01	-3.370616e+01	+0.000000e+00	+1.010616e+01	+0.000000e+00
+5.392274e+08	+3.217713e+00	+1.295015e+02	-3.203537e+01	+7.196481e+01	-3.430000e+01	+0.000000e+00	+9.050440e+00	+0.000000e+00
+5.469164e+08	+2.709560e+00	+1.096188e+02	-3.120962e+01	+6.580645e+01	-3.430000e+01	+0.000000e+00	+1.162375e+01	+0.000000e+00
+5.546054e+08	+2.264927e+00	+9.149560e+01	-3.032035e+01	-4.873900e+01	-3.430000e+01	+0.000000e+00	+1.208563e+01	+0.000000e+00
+5.622943e+08	+2.010850e+00	+7.442815e+01	-2.968516e+01	-3.853372e+01	-3.430000e+01	+0.000000e+00	+1.228358e+01	+0.000000e+00
+5.699833e+08	+1.947331e+00	+5.753666e+01	-2.911349e+01	-4.258065e+01	-3.430000e+01	+0.000000e+00	+1.234956e+01	+0.000000e+00
+5.776722e+08	+2.010850e+00	+4.082111e+01	-2.854182e+01	-4.891496e+01	-3.430000e+01	+0.000000e+00	+1.221760e+01	+0.000000e+00
+5.853612e+08	+2.264927e+00	+2.322581e+01	-2.816070e+01	-6.615836e+01	-3.430000e+01	+0.000000e+00	+1.188768e+01	+0.000000e+00
+5.930502e+08	+2.709560e+00	-3.695015e+00	-2.809718e+01	-8.498534e+01	-2.710792e+01	+0.000000e+00	+1.142581e+01	+0.000000e+00
+6.007391e+08	+3.281232e+00	+0.000000e+00	-2.574698e+01	-9.976540e+01	-3.357419e+01	+0.000000e+00	+1.089795e+01	+0.000000e+00
+6.084281e+08	+3.789384e+00	-2.217009e+01	-3.006628e+01	-1.085630e+02	-3.324428e+01	+0.000000e+00	+1.037009e+01	+0.000000e+00
+6.161171e+08	+4.170499e+00	-4.821114e+01	-3.063795e+01	-1.138416e+02	-3.298035e+01	+0.000000e+00	+9.908211e+00	+0.000000e+00
+6.238060e+08	+4.170499e+00	-7.618768e+01	-3.101906e+01	-1.159531e+02	-3.284839e+01	+0.000000e+00	+9.380352e+00	+0.000000e+00
+6.314950e+08	+3.789384e+00	-1.043402e+02	-3.152721e+01	-1.289736e+02	-3.311232e+01	+0.000000e+00	+8.918475e+00	+0.000000e+00
+6.391839e+08	+3.281232e+00	-1.310850e+02	-3.165425e+01	-1.265103e+02	-3.317830e+01	+0.000000e+00	+8.522581e+00	+0.000000e+00
+6.468729e+08	+2.646041e+00	-1.558944e+02	-3.178129e+01	+1.377713e+02	-3.364018e+01	+0.000000e+00	+8.192669e+00	+0.000000e+00
+6.545619e+08	+2.074370e+00	+1.761290e+02	-3.209889e+01	+1.414663e+02	-3.370616e+01	+0.000000e+00	+7.928739e+00	+0.000000e+00
+6.622508e+08	+1.693255e+00	+1.699707e+02	-3.235296e+01	+1.397067e+02	-3.370616e+01	+0.000000e+00	+7.664809e+00	+0.000000e+00
+6.699398e+08	+1.502698e+00	+1.495601e+02	-3.248000e+01	+1.358358e+02	-3.430000e+01	+0.000000e+00	+7.532845e+00	+0.000000e+00
+6.776288e+08	+1.566217e+00	+1.300293e+02	-3.203537e+01	+1.335484e+02	-3.397009e+01	+0.000000e+00	+7.400880e+00	+0.000000e+00
+6.853177e+08	+1.820293e+00	+1.106745e+02	-3.248000e+01	+1.305572e+02	-3.364018e+01	+0.000000e+00	+7.268915e+00	+0.000000e+00
+6.930067e+08	+2.264927e+00	+9.079179e+01	-3.248000e+01	+1.277419e+02	-3.337625e+01	+0.000000e+00	+7.268915e+00	+0.000000e+00
+7.006957e+08	+2.773079e+00	+7.020528e+01	-3.248000e+01	+1.233431e+02	-3.278240e+01	+0.000000e+00	+7.334897e+00	+0.000000e+00
+7.083846e+08	+3.281232e+00	+4.856305e+01	-3.248000e+01	+1.124340e+02	-3.212258e+01	+0.000000e+00	+7.400880e+00	+0.000000e+00
+7.160736e+08	+3.662346e+00	+2.656891e+01	-3.248000e+01	-1.045161e+02	-3.166070e+01	+0.000000e+00	+7.598827e+00	+0.000000e+00
+7.237625e+08	+3.916422e+00	-2.991202e+00	-3.248000e+01	-1.064516e+02	-3.225455e+01	+0.000000e+00	+7.730792e+00	+0.000000e+00
+7.314515e+08	+3.979941e+00	-1.231672e+00	-3.248000e+01	-1.120821e+02	-3.225455e+01	+0.000000e+00	+7.928739e+00	+0.000000e+00
+7.391405e+08	+3.852903e+00	-2.516129e+01	-3.178129e+01	+1.134897e+02	-3.271642e+01	+0.000000e+00	+8.126686e+00	+0.000000e+00
+7.468294e+08	+3.471789e+00	-4.785924e+01	-3.152721e+01	+1.131378e+02	-3.344223e+01	+0.000000e+00	+8.324633e+00	+0.000000e+00
+7.545184e+08	+3.027155e+00	-6.985337e+01	-3.095554e+01	+1.141935e+02	-3.410205e+01	+0.000000e+00	+8.522581e+00	+0.000000e+00
+7.622074e+08	+2.646041e+00	-9.131965e+01	-3.082850e+01	+1.134897e+02	-3.430000e+01	+0.000000e+00	+8.654545e+00	+0.000000e+00
+7.698963e+08	+2.328446e+00	-1.126100e+02	-2.981220e+01	+1.106745e+02	-3.304633e+01	+0.000000e+00	+8.786510e+00	+0.000000e+00
+7.775853e+08	+2.074370e+00	-1.339003e+02	-2.955812e+01	+1.075073e+02	-3.430000e+01	+0.000000e+00	+8.852493e+00	+0.000000e+00
+7.852742e+08	+1.947331e+00	+1.557185e+02	-2.904997e+01	+9.994135e+01	-3.430000e+01	+0.000000e+00	+8.918475e+00	+0.000000e+00
+7.929632e+08	+1.947331e+00	+1.756012e+02	-2.873238e+01	+9.043988e+01	-3.370616e+01	+0.000000e+00	+8.918475e+00	+0.000000e+00
+8.006522e+08	+2.457478e+00	+1.685630e+02	-2.873337e+01	+8.005865e+01	-3.408387e+01	+0.000000e+00	+9.203226e+00	+0.000000e+00
+8.083411e+08	+2.585572e+00	+1.441056e+02	-2.905361e+01	+7.161290e+01	-3.374516e+01	+0.000000e+00	+9.135484e+00	+0.000000e+00
+8.160301e+08	+2.713666e+00	+1.192962e+02	-2.892551e+01	+6.510264e+01	-3.347419e+01	+0.000000e+00	+9.067742e+00	+0.000000e+00
+8.237191e+08	+2.777713e+00	+9.395894e+01	-2.950194e+01	+5.982405e+01	-3.150968e+01	+0.000000e+00	+8.932258e+00	+0.000000e+00
+8.314080e+08	+2.713666e+00	+6.950147e+01	-2.982217e+01	+6.879765e+01	-3.340645e+01	+0.000000e+00	+8.796774e+00	+0.000000e+00
+8.390970e+08	+2.713666e+00	+4.627566e+01	-3.007836e+01	-4.029326e+01	-3.245806e+01	+0.000000e+00	+8.661290e+00	+0.000000e+00
+8.467860e+08	+2.649619e+00	+2.410557e+01	-3.232000e+01	-3.730205e+01	-3.408387e+01	+0.000000e+00	+8.661290e+00	+0.000000e+00
+8.544749e+08	+2.649619e+00	-2.639296e+00	-2.681196e+01	-3.994135e+01	-3.435484e+01	+0.000000e+00	+8.525806e+00	+0.000000e+00
+8.621639e+08	+2.713666e+00	+0.000000e+00	-3.142334e+01	-4.926686e+01	-3.455806e+01	+0.000000e+00	+8.390323e+00	+0.000000e+00
+8.698528e+08	+2.841760e+00	-1.847507e+01	-3.193572e+01	-5.771261e+01	-3.496452e+01	+0.000000e+00	+8.254839e+00	+0.000000e+00
+8.775418e+08	+3.097947e+00	-3.853372e+01	-3.232000e+01	-6.439883e+01	-3.482903e+01	+0.000000e+00	+8.187097e+00	+0.000000e+00
+8.852308e+08	+3.097947e+00	-5.841642e+01	-3.232000e+01	+7.407625e+01	-3.489677e+01	+0.000000e+00	+8.187097e+00	+0.000000e+00
+8.929197e+08	+3.674370e+00	-7.900293e+01	-3.232000e+01	+6.299120e+01	-3.428710e+01	+0.000000e+00	+8.254839e+00	+0.000000e+00
+9.006087e+08	+3.994604e+00	-1.002933e+02	-3.232000e+01	-6.070381e+01	-3.381290e+01	+0.000000e+00	+8.390323e+00	+0.000000e+00
+9.082977e+08	+4.314839e+00	-1.228152e+02	-3.232000e+01	-6.105572e+01	-3.293226e+01	+0.000000e+00	+8.593548e+00	+0.000000e+00
+9.159866e+08	+4.314839e+00	-1.467449e+02	-3.232000e+01	-6.334311e+01	-3.239032e+01	+0.000000e+00	+8.796774e+00	+0.000000e+00
+9.236756e+08	+4.186745e+00	+1.703226e+02	-3.232000e+01	-6.668622e+01	-3.252581e+01	+0.000000e+00	+9.067742e+00	+0.000000e+00
+9.313645e+08	+3.802463e+00	+1.733138e+02	-3.232000e+01	-7.002933e+01	-3.232258e+01	+0.000000e+00	+9.338710e+00	+0.000000e+00
+9.390535e+08	+3.354135e+00	+1.513196e+02	-3.232000e+01	-7.319648e+01	-2.473548e+01	+0.000000e+00	+9.677419e+00	+0.000000e+00
+9.467425e+08	+2.777713e+00	+1.282698e+02	-3.232000e+01	-7.953079e+01	-3.259355e+01	+0.000000e+00	+1.001613e+01	+0.000000e+00
+9.544314e+08	+2.329384e+00	+1.062757e+02	-3.180762e+01	-8.604106e+01	-3.347419e+01	+0.000000e+00	+1.035484e+01	+0.000000e+00
+9.621204e+08	+2.009150e+00	+8.480938e+01	-3.142334e+01	-9.061584e+01	-3.381290e+01	+0.000000e+00	+1.076129e+01	+0.000000e+00
+9.698094e+08	+1.817009e+00	+6.351906e+01	-2.745243e+01	+9.466276e+01	-3.415161e+01	+0.000000e+00	+1.110000e+01	+0.000000e+00
+9.774983e+08	+1.881056e+00	+4.222874e+01	-3.039859e+01	+9.554252e+01	-3.428710e+01	+0.000000e+00	+1.130323e+01	+0.000000e+00
+9.851873e+08	+2.073196e+00	-2.005865e+01	-3.071883e+01	+9.659824e+01	-3.388065e+01	+0.000000e+00	+1.143871e+01	+0.000000e+00
+9.928763e+08	+2.457478e+00	+0.000000e+00	-3.052669e+01	+9.343109e+01	-3.408387e+01	+0.000000e+00	+1.143871e+01	+0.000000e+00
+1.000565e+09	+2.905806e+00	-6.510264e+00	-3.046264e+01	+9.026393e+01	-3.367742e+01	+0.000000e+00	+1.130323e+01	+0.000000e+00
+1.008254e+09	+3.418182e+00	-3.237537e+01	-3.039859e+01	+8.551320e+01	-3.340645e+01	+0.000000e+00	+1.103226e+01	+0.000000e+00
+1.015943e+09	+3.802463e+00	-5.824047e+01	-3.059073e+01	+8.217009e+01	-3.306774e+01	+0.000000e+00	+1.069355e+01	+0.000000e+00
+1.023632e+09	+3.994604e+00	-8.428152e+01	-3.065478e+01	+7.935484e+01	-3.272903e+01	+0.000000e+00	+1.021935e+01	+0.000000e+00
+1.031321e+09	+3.866510e+00	-1.097947e+02	-3.084692e+01	+7.565982e+01	-3.259355e+01	+0.000000e+00	+9.745161e+00	+0.000000e+00
+1.039010e+09	+3.482229e+00	-1.333724e+02	-3.110311e+01	+7.354839e+01	-3.266129e+01	+0.000000e+00	+9.270968e+00	+0.000000e+00
+1.046699e+09	+2.009150e+00	-1.562463e+02	-3.110311e+01	+7.302053e+01	-3.286452e+01	+0.000000e+00	+8.796774e+00	+0.000000e+00
+1.054388e+09	+2.713666e+00	+1.740176e+02	-3.135930e+01	+7.143695e+01	-3.306774e+01	+0.000000e+00	+8.390323e+00	+0.000000e+00
+1.062077e+09	+2.329384e+00	+1.727859e+02	-3.142334e+01	+6.879765e+01	-3.360968e+01	+0.000000e+00	+8.051613e+00	+0.000000e+00
+1.069766e+09	+2.073196e+00	+1.562463e+02	-3.161548e+01	+6.475073e+01	-3.388065e+01	+0.000000e+00	+7.712903e+00	+0.000000e+00
+1.077455e+09	+2.009150e+00	+1.374194e+02	-3.155144e+01	+6.052786e+01	-3.360968e+01	+0.000000e+00	+7.441935e+00	+0.000000e+00
+1.085144e+09	+2.137243e+00	+1.187683e+02	-3.142334e+01	+5.753666e+01	-3.401613e+01	+0.000000e+00	+7.170968e+00	+0.000000e+00
+1.092833e+09	+2.329384e+00	+9.923754e+01	-3.148739e+01	-5.524927e+01	-3.340645e+01	+0.000000e+00	+7.035484e+00	+0.000000e+00
+1.100522e+09	+2.894252e+00	+7.882698e+01	-3.254622e+01	-5.542522e+01	-3.321789e+01	+0.000000e+00	+7.329091e+00	+0.000000e+00
+1.108211e+09	+2.828622e+00	+7.882698e+01	-3.274311e+01	-5.436950e+01	-3.070493e+01	+0.000000e+00	+7.261173e+00	+0.000000e+00
+1.115900e+09	+2.894252e+00	+7.882698e+01	-3.280874e+01	-5.612903e+01	-3.185953e+01	+0.000000e+00	+7.261173e+00	+0.000000e+00
+1.123589e+09	+3.353666e+00	+3.131965e+01	-3.294000e+01	-5.700880e+01	-3.308205e+01	+0.000000e+00	+7.329091e+00	+0.000000e+00
+1.131278e+09	+3.747449e+00	-4.398827e+00	-3.287437e+01	-5.841642e+01	-3.260663e+01	+0.000000e+00	+7.464927e+00	+0.000000e+00
+1.138967e+09	+3.813079e+00	-4.222874e+00	-3.103672e+01	-5.841642e+01	-3.206328e+01	+0.000000e+00	+7.668680e+00	+0.000000e+00
+1.146656e+09	+3.353666e+00	-3.149560e+01	-3.294000e+01	-5.894428e+01	-3.172370e+01	+0.000000e+00	+7.872434e+00	+0.000000e+00
+1.154344e+09	+2.762991e+00	-5.753666e+01	-3.280874e+01	+5.947214e+01	-3.199537e+01	+0.000000e+00	+8.144106e+00	+0.000000e+00
+1.162033e+09	+2.172317e+00	-8.146628e+01	-3.294000e+01	+5.964809e+01	-3.253871e+01	+0.000000e+00	+8.551613e+00	+0.000000e+00
+1.169722e+09	+1.647273e+00	-1.036364e+02	-3.274311e+01	-5.912023e+01	-3.233496e+01	+0.000000e+00	+8.891202e+00	+0.000000e+00
+1.177411e+09	+1.253490e+00	-1.446334e+02	-3.228370e+01	-5.929619e+01	-3.281038e+01	+0.000000e+00	+9.366628e+00	+0.000000e+00
+1.185100e+09	+1.122229e+00	+1.646921e+02	-3.248059e+01	-5.912023e+01	-3.328581e+01	+0.000000e+00	+9.366628e+00	+0.000000e+00
+1.192789e+09	+1.516012e+00	+1.750733e+02	-3.208680e+01	-6.070381e+01	-3.321789e+01	+0.000000e+00	+9.842053e+00	+0.000000e+00
+1.200478e+09	+2.041056e+00	+1.673314e+02	-3.064293e+01	-6.158358e+01	-3.342164e+01	+0.000000e+00	+1.079290e+01	+0.000000e+00
+1.208167e+09	+2.697361e+00	+1.467449e+02	-3.149613e+01	+6.299120e+01	-3.369331e+01	+0.000000e+00	+1.120041e+01	+0.000000e+00
