# Hz S DB R 50.000000
+3.000000e+07	+5.418710e+00	+1.624047e+02	-3.200000e+01	+8.692082e+01	+3.250000e+01	-1.800000e+02	+3.190000e+01	-1.800000e+02
+3.658863e+07	+5.227097e+00	+1.590616e+02	-3.200000e+01	+8.727273e+01	+3.250000e+01	-1.800000e+02	+3.190000e+01	-1.800000e+02
+4.317726e+07	+4.971613e+00	+1.560704e+02	-3.200000e+01	+8.727273e+01	+3.250000e+01	-1.800000e+02	+3.190000e+01	-1.800000e+02
+4.976589e+07	+4.716129e+00	+1.534311e+02	-3.200000e+01	+8.762463e+01	+3.250000e+01	-1.800000e+02	+3.190000e+01	-1.800000e+02
+5.635452e+07	+4.524516e+00	+1.509677e+02	-3.200000e+01	+8.780059e+01	+3.250000e+01	-1.800000e+02	+3.190000e+01	-1.800000e+02
+6.294314e+07	+4.332903e+00	+1.488563e+02	-3.200000e+01	+8.744868e+01	+3.250000e+01	-1.800000e+02	+3.190000e+01	-1.800000e+02
+6.953177e+07	+4.205161e+00	+1.467449e+02	-3.200000e+01	+8.744868e+01	+3.250000e+01	-1.800000e+02	+3.190000e+01	-1.800000e+02
+7.612040e+07	+4.141290e+00	+1.449853e+02	-3.200000e+01	+8.762463e+01	+3.250000e+01	-1.800000e+02	+3.190000e+01	-1.800000e+02
+8.270903e+07	+4.077419e+00	+1.432258e+02	-3.200000e+01	+8.797654e+01	+3.250000e+01	-1.800000e+02	+3.190000e+01	-1.800000e+02
+8.929766e+07	+4.013548e+00	+1.414663e+02	-3.200000e+01	+8.797654e+01	+3.250000e+01	-1.800000e+02	+3.190000e+01	-1.800000e+02
+9.588629e+07	+4.077419e+00	+1.398827e+02	-3.200000e+01	+8.744868e+01	+3.250000e+01	-1.800000e+02	+3.190000e+01	-1.800000e+02
+1.024749e+08	+4.141290e+00	+1.381232e+02	-3.200000e+01	+8.762463e+01	+3.250000e+01	-1.800000e+02	+3.190000e+01	-1.800000e+02
+1.090635e+08	+4.269032e+00	+1.363636e+02	-3.200000e+01	+8.797654e+01	+3.250000e+01	-1.800000e+02	+3.190000e+01	-1.800000e+02
+1.156522e+08	+4.396774e+00	+1.344282e+02	-3.200000e+01	+8.780059e+01	+3.250000e+01	-1.800000e+02	+3.190000e+01	-1.800000e+02
+1.222408e+08	+4.588387e+00	+1.323167e+02	-3.200000e+01	+8.780059e+01	+3.250000e+01	-1.800000e+02	+3.190000e+01	-1.800000e+02
+1.288294e+08	+4.588387e+00	+1.323167e+02	-3.200000e+01	+8.762463e+01	+3.250000e+01	-1.800000e+02	+3.190000e+01	-1.800000e+02
+1.354181e+08	+4.843871e+00	+1.273900e+02	-3.200000e+01	+8.815249e+01	+3.250000e+01	-1.800000e+02	+3.190000e+01	-1.800000e+02
+1.420067e+08	+5.354839e+00	+1.242229e+02	-3.200000e+01	+8.832845e+01	+3.250000e+01	-1.800000e+02	+3.190000e+01	-1.800000e+02
+1.485953e+08	+5.610323e+00	+1.210557e+02	-3.200000e+01	+8.797654e+01	+3.250000e+01	-1.800000e+02	+3.190000e+01	-1.800000e+02
+1.551839e+08	+5.929677e+00	+1.171848e+02	-3.200000e+01	+8.780059e+01	+3.250000e+01	-1.800000e+02	+3.190000e+01	-1.800000e+02
+1.617726e+08	+6.185161e+00	+1.129619e+02	-3.200000e+01	+8.815249e+01	+3.250000e+01	-1.800000e+02	+3.190000e+01	-1.800000e+02
+1.683612e+08	+6.440645e+00	+1.076833e+02	-3.200000e+01	+8.850440e+01	+3.250000e+01	-1.800000e+02	+3.190000e+01	-1.800000e+02
+1.749498e+08	+6.440645e+00	+1.022287e+02	-3.200000e+01	+8.797654e+01	+3.250000e+01	-1.800000e+02	+3.190000e+01	-1.800000e+02
+1.815385e+08	+6.376774e+00	+9.765396e+01	-3.181261e+01	+8.621701e+01	+3.250000e+01	-1.800000e+02	+3.190000e+01	-1.800000e+02
+1.881271e+08	+6.376774e+00	+9.307918e+01	-3.168768e+01	+8.533724e+01	+3.250000e+01	-1.800000e+02	+3.190000e+01	-1.800000e+02
+1.947157e+08	+6.312903e+00	+8.832845e+01	-3.162522e+01	+8.551320e+01	+3.250000e+01	-1.800000e+02	+3.190000e+01	-1.800000e+02
+2.013043e+08	+6.185161e+00	+8.340176e+01	-3.168768e+01	+8.428152e+01	+3.250000e+01	-1.800000e+02	+3.190000e+01	-1.800000e+02
+2.078930e+08	+5.993548e+00	+7.882698e+01	-3.175015e+01	+8.410557e+01	+3.250000e+01	-1.800000e+02	+3.190000e+01	-1.800000e+02
+2.144816e+08	+5.738065e+00	+7.442815e+01	-3.193754e+01	+8.410557e+01	+3.250000e+01	-1.800000e+02	+3.190000e+01	-1.800000e+02
+2.210702e+08	+5.418710e+00	+7.073314e+01	-3.200000e+01	-8.340176e+01	+3.250000e+01	-1.800000e+02	+3.190000e+01	-1.800000e+02
+2.276589e+08	+5.099355e+00	+6.756598e+01	-3.200000e+01	+8.041056e+01	+3.250000e+01	-1.800000e+02	+3.190000e+01	-1.800000e+02
+2.342475e+08	+4.780000e+00	+6.475073e+01	-3.200000e+01	+7.970674e+01	+3.250000e+01	-1.800000e+02	+3.190000e+01	-1.800000e+02
+2.408361e+08	+4.460645e+00	+6.228739e+01	-3.200000e+01	+9.008798e+01	+3.250000e+01	-1.800000e+02	+3.190000e+01	-1.800000e+02
+2.474247e+08	+4.205161e+00	+6.017595e+01	-3.200000e+01	+1.020528e+02	+3.250000e+01	-1.800000e+02	+3.190000e+01	-1.800000e+02
+2.540134e+08	+3.414897e+00	+5.841642e+01	-3.486000e+01	+1.076833e+02	+3.300000e+01	-1.800000e+02	+3.300000e+01	-1.800000e+02
+2.606020e+08	+3.215894e+00	+5.665689e+01	-3.486000e+01	+1.029326e+02	+3.300000e+01	-1.800000e+02	+3.300000e+01	-1.800000e+02
+2.671906e+08	+3.083226e+00	+5.524927e+01	-3.486000e+01	+1.022287e+02	+3.300000e+01	-1.800000e+02	+3.300000e+01	-1.800000e+02
+2.737793e+08	+2.950557e+00	+5.384164e+01	-3.486000e+01	+1.024047e+02	+3.300000e+01	-1.800000e+02	+3.300000e+01	-1.800000e+02
+2.803679e+08	+2.884223e+00	+5.243402e+01	-3.486000e+01	+9.835777e+01	+3.300000e+01	-1.800000e+02	+3.300000e+01	-1.800000e+02
+2.869565e+08	+2.884223e+00	+5.120235e+01	-3.486000e+01	+8.744868e+01	+3.300000e+01	-1.800000e+02	+3.300000e+01	-1.800000e+02
+2.935452e+08	+2.884223e+00	+4.997067e+01	-3.486000e+01	+7.073314e+01	+3.300000e+01	-1.800000e+02	+3.300000e+01	-1.800000e+02
+3.001338e+08	+2.950557e+00	+4.891496e+01	-3.486000e+01	+6.387097e+01	+3.300000e+01	-1.800000e+02	+3.300000e+01	-1.800000e+02
+3.067224e+08	+3.083226e+00	+4.750733e+01	-3.486000e+01	+6.000000e+01	+3.300000e+01	-1.800000e+02	+3.300000e+01	-1.800000e+02
+3.133110e+08	+3.215894e+00	+4.627566e+01	-3.486000e+01	-5.665689e+01	+3.300000e+01	-1.800000e+02	+3.300000e+01	-1.800000e+02
+3.198997e+08	+3.414897e+00	+4.469208e+01	-3.486000e+01	-5.665689e+01	+3.300000e+01	-1.800000e+02	+3.300000e+01	-1.800000e+02
+3.264883e+08	+3.680235e+00	+4.293255e+01	-3.486000e+01	+6.123167e+01	+3.300000e+01	-1.800000e+02	+3.300000e+01	-1.800000e+02
+3.330769e+08	+3.945572e+00	+4.082111e+01	-3.486000e+01	+6.369501e+01	+3.300000e+01	-1.800000e+02	+3.300000e+01	-1.800000e+02
+3.396656e+08	+4.277243e+00	+3.853372e+01	-3.486000e+01	+6.897361e+01	+3.300000e+01	-1.800000e+02	+3.300000e+01	-1.800000e+02
+3.462542e+08	+4.608915e+00	+3.571848e+01	-3.486000e+01	+7.653959e+01	+3.300000e+01	-1.800000e+02	+3.300000e+01	-1.800000e+02
+3.528428e+08	+4.940587e+00	+3.237537e+01	-3.486000e+01	+8.709677e+01	+3.300000e+01	-1.800000e+02	+3.300000e+01	-1.800000e+02
+3.594314e+08	+5.272258e+00	+2.868035e+01	-3.486000e+01	+9.167155e+01	+3.300000e+01	-1.800000e+02	+3.300000e+01	-1.800000e+02
+3.660201e+08	+5.537595e+00	+2.463343e+01	-3.399765e+01	+8.181818e+01	+3.300000e+01	-1.800000e+02	+3.300000e+01	-1.800000e+02
+3.726087e+08	+5.869267e+00	+2.005865e+01	-3.326798e+01	+7.126100e+01	+3.300000e+01	-1.800000e+02	+3.300000e+01	-1.800000e+02
+3.791973e+08	+6.068270e+00	+1.513196e+01	-3.247196e+01	+6.017595e+01	+3.300000e+01	-1.800000e+02	+3.300000e+01	-1.800000e+02
+3.857860e+08	+6.134604e+00	+9.677419e+00	-3.154328e+01	+4.733138e+01	+3.300000e+01	-1.800000e+02	+3.300000e+01	-1.800000e+02
+3.923746e+08	+6.200938e+00	-4.398827e+00	-3.061460e+01	+2.973607e+01	+3.300000e+01	-1.800000e+02	+3.300000e+01	-1.800000e+02
+3.989632e+08	+6.134604e+00	-1.055718e+00	-3.107894e+01	+2.903226e+01	+3.300000e+01	-1.800000e+02	+3.300000e+01	-1.800000e+02
+4.055518e+08	+5.869267e+00	-2.463343e+00	-3.247196e+01	+4.592375e+01	+3.300000e+01	-1.800000e+02	+3.300000e+01	-1.800000e+02
+4.121405e+08	+5.603930e+00	-6.686217e+00	-3.340065e+01	+5.683284e+01	+3.300000e+01	-1.800000e+02	+3.300000e+01	-1.800000e+02
+4.187291e+08	+5.205924e+00	-1.090909e+01	-3.426299e+01	+6.422287e+01	+3.300000e+01	-1.800000e+02	+3.300000e+01	-1.800000e+02
+4.253177e+08	+4.807918e+00	-1.478006e+01	-3.479367e+01	+6.615836e+01	+3.300000e+01	-1.800000e+02	+3.300000e+01	-1.800000e+02
+4.319064e+08	+4.409912e+00	-1.794721e+01	-3.486000e+01	+6.299120e+01	+3.300000e+01	-1.800000e+02	+3.300000e+01	-1.800000e+02
+4.384950e+08	+4.011906e+00	-2.076246e+01	-3.486000e+01	+5.384164e+01	+3.300000e+01	-1.800000e+02	+3.300000e+01	-1.800000e+02
+4.450836e+08	+3.613900e+00	-2.322581e+01	-3.486000e+01	+5.929619e+01	+3.300000e+01	-1.800000e+02	+3.300000e+01	-1.800000e+02
+4.516722e+08	+3.215894e+00	-2.516129e+01	-3.486000e+01	+6.651026e+01	+3.300000e+01	-1.800000e+02	+3.300000e+01	-1.800000e+02
+4.582609e+08	+2.950557e+00	-2.674487e+01	-3.486000e+01	+6.281525e+01	+3.300000e+01	-1.800000e+02	+3.300000e+01	-1.800000e+02
+4.648495e+08	+2.618886e+00	-2.797654e+01	-3.486000e+01	+5.736070e+01	+3.300000e+01	-1.800000e+02	+3.300000e+01	-1.800000e+02
+4.714381e+08	+2.419883e+00	-2.903226e+01	-3.486000e+01	+4.504399e+01	+3.300000e+01	-1.800000e+02	+3.300000e+01	-1.800000e+02
+4.780268e+08	+2.220880e+00	-2.973607e+01	-3.466100e+01	-3.378299e+01	+3.300000e+01	-1.800000e+02	+3.300000e+01	-1.800000e+02
+4.846154e+08	+2.088211e+00	-3.043988e+01	-3.413032e+01	-3.307918e+01	+3.300000e+01	-1.800000e+02	+3.300000e+01	-1.800000e+02
+4.912040e+08	+2.021877e+00	-3.131965e+01	-3.413032e+01	-3.695015e+01	+3.300000e+01	-1.800000e+02	+3.300000e+01	-1.800000e+02
+4.977926e+08	+2.021877e+00	-3.202346e+01	-3.419666e+01	-4.293255e+01	+3.300000e+01	-1.800000e+02	+3.300000e+01	-1.800000e+02
+5.043813e+08	+2.386217e+00	-3.272727e+01	-3.171777e+01	-5.067449e+01	+3.320000e+01	-1.800000e+02	+3.250000e+01	-1.800000e+02
+5.109699e+08	+2.518182e+00	-3.343109e+01	-3.159073e+01	+5.964809e+01	+3.320000e+01	-1.800000e+02	+3.250000e+01	-1.800000e+02
+5.175585e+08	+2.584164e+00	-3.431085e+01	-3.140018e+01	+7.319648e+01	+3.320000e+01	-1.800000e+02	+3.250000e+01	-1.800000e+02
+5.241472e+08	+2.716129e+00	-3.519062e+01	-3.133666e+01	+8.938416e+01	+3.320000e+01	-1.800000e+02	+3.250000e+01	-1.800000e+02
+5.307358e+08	+2.980059e+00	-3.624633e+01	-3.140018e+01	+1.092669e+02	+3.320000e+01	-1.800000e+02	+3.250000e+01	-1.800000e+02
+5.373244e+08	+3.243988e+00	-3.747801e+01	-3.152721e+01	+1.273900e+02	+3.320000e+01	-1.800000e+02	+3.250000e+01	-1.800000e+02
+5.439130e+08	+3.573900e+00	-3.888563e+01	-3.152721e+01	+1.386510e+02	+3.320000e+01	-1.800000e+02	+3.250000e+01	-1.800000e+02
+5.505017e+08	+3.969795e+00	-4.082111e+01	-3.101906e+01	+1.252786e+02	+3.320000e+01	-1.800000e+02	+3.250000e+01	-1.800000e+02
+5.570903e+08	+4.365689e+00	-4.398827e+01	-2.981220e+01	+8.252199e+01	+3.320000e+01	-1.800000e+02	+3.250000e+01	-1.800000e+02
+5.636789e+08	+4.629619e+00	-4.733138e+01	-2.936757e+01	+4.064516e+01	+3.320000e+01	-1.800000e+02	+3.250000e+01	-1.800000e+02
+5.702676e+08	+4.827566e+00	-5.049853e+01	-2.955812e+01	-2.375367e+01	+3.320000e+01	-1.800000e+02	+3.250000e+01	-1.800000e+02
+5.768562e+08	+5.091496e+00	-5.384164e+01	-2.987572e+01	-2.674487e+01	+3.320000e+01	-1.800000e+02	+3.250000e+01	-1.800000e+02
+5.834448e+08	+5.355425e+00	-5.753666e+01	-2.968516e+01	-3.307918e+01	+3.320000e+01	-1.800000e+02	+3.250000e+01	-1.800000e+02
+5.900334e+08	+5.685337e+00	-6.158358e+01	-2.968516e+01	-4.574780e+01	+3.320000e+01	-1.800000e+02	+3.250000e+01	-1.800000e+02
+5.966221e+08	+5.883284e+00	-6.633431e+01	-2.974868e+01	-5.841642e+01	+3.320000e+01	-1.800000e+02	+3.250000e+01	-1.800000e+02
+6.032107e+08	+6.015249e+00	-7.143695e+01	-2.993924e+01	-7.407625e+01	+3.320000e+01	-1.800000e+02	+3.250000e+01	-1.800000e+02
+6.097993e+08	+6.081232e+00	-7.671554e+01	-3.063795e+01	-8.656891e+01	+3.320000e+01	-1.800000e+02	+3.250000e+01	-1.800000e+02
+6.163880e+08	+5.949267e+00	-8.181818e+01	-3.120962e+01	+9.378299e+01	+3.320000e+01	-1.800000e+02	+3.250000e+01	-1.800000e+02
+6.229766e+08	+5.883284e+00	-8.656891e+01	-3.159073e+01	+9.853372e+01	+3.320000e+01	-1.800000e+02	+3.250000e+01	-1.800000e+02
+6.295652e+08	+5.751320e+00	-9.114370e+01	-3.197185e+01	+1.025806e+02	+3.320000e+01	-1.800000e+02	+3.250000e+01	-1.800000e+02
+6.361538e+08	+5.487390e+00	-9.554252e+01	-3.235296e+01	+1.057478e+02	+3.320000e+01	-1.800000e+02	+3.250000e+01	-1.800000e+02
+6.427425e+08	+5.223460e+00	-9.941349e+01	-3.248000e+01	+1.083871e+02	+3.320000e+01	-1.800000e+02	+3.250000e+01	-1.800000e+02
+6.493311e+08	+4.959531e+00	-1.029326e+02	-3.248000e+01	+1.096188e+02	+3.320000e+01	-1.800000e+02	+3.250000e+01	-1.800000e+02
+6.559197e+08	+4.695601e+00	-1.062757e+02	-3.248000e+01	+1.078592e+02	+3.320000e+01	-1.800000e+02	+3.250000e+01	-1.800000e+02
+6.625084e+08	+4.365689e+00	-1.092669e+02	-3.248000e+01	+1.039883e+02	+3.320000e+01	-1.800000e+02	+3.250000e+01	-1.800000e+02
+6.690970e+08	+4.167742e+00	-1.117302e+02	-3.248000e+01	-1.017009e+02	+3.320000e+01	-1.800000e+02	+3.250000e+01	-1.800000e+02
+6.756856e+08	+3.969795e+00	-1.141935e+02	-3.248000e+01	-1.013490e+02	+3.320000e+01	-1.800000e+02	+3.250000e+01	-1.800000e+02
+6.822742e+08	+3.771848e+00	-1.163050e+02	-3.248000e+01	-1.002933e+02	+3.320000e+01	-1.800000e+02	+3.250000e+01	-1.800000e+02
+6.888629e+08	+3.639883e+00	-1.184164e+02	-3.248000e+01	-1.024047e+02	+3.320000e+01	-1.800000e+02	+3.250000e+01	-1.800000e+02
+6.954515e+08	+3.507918e+00	-1.201760e+02	-3.248000e+01	+1.043402e+02	+3.320000e+01	-1.800000e+02	+3.250000e+01	-1.800000e+02
+7.020401e+08	+3.375953e+00	-1.221114e+02	-3.248000e+01	+1.075073e+02	+3.320000e+01	-1.800000e+02	+3.250000e+01	-1.800000e+02
+7.086288e+08	+3.309971e+00	-1.238710e+02	-3.248000e+01	+1.115543e+02	+3.320000e+01	-1.800000e+02	+3.250000e+01	-1.800000e+02
+7.152174e+08	+3.243988e+00	-1.256305e+02	-3.248000e+01	+1.184164e+02	+3.320000e+01	-1.800000e+02	+3.250000e+01	-1.800000e+02
+7.218060e+08	+3.243988e+00	-1.273900e+02	-3.248000e+01	+1.256305e+02	+3.320000e+01	-1.800000e+02	+3.250000e+01	-1.800000e+02
+7.283946e+08	+3.243988e+00	-1.291496e+02	-3.248000e+01	+1.293255e+02	+3.320000e+01	-1.800000e+02	+3.250000e+01	-1.800000e+02
+7.349833e+08	+3.309971e+00	-1.310850e+02	-3.248000e+01	+1.289736e+02	+3.320000e+01	-1.800000e+02	+3.250000e+01	-1.800000e+02
+7.415719e+08	+3.441935e+00	-1.330205e+02	-3.248000e+01	+1.235191e+02	+3.320000e+01	-1.800000e+02	+3.250000e+01	-1.800000e+02
+7.481605e+08	+3.507918e+00	-1.354839e+02	-3.248000e+01	+1.157771e+02	+3.320000e+01	-1.800000e+02	+3.250000e+01	-1.800000e+02
+7.547492e+08	+3.639883e+00	-1.379472e+02	-3.248000e+01	+1.066276e+02	+3.320000e+01	-1.800000e+02	+3.250000e+01	-1.800000e+02
+7.613378e+08	+3.705865e+00	-1.407625e+02	-3.248000e+01	+1.004692e+02	+3.320000e+01	-1.800000e+02	+3.250000e+01	-1.800000e+02
+7.679264e+08	+3.771848e+00	-1.434018e+02	-3.248000e+01	+9.888563e+01	+3.320000e+01	-1.800000e+02	+3.250000e+01	-1.800000e+02
+7.745151e+08	+3.903812e+00	-1.462170e+02	-3.216240e+01	+9.624633e+01	+3.320000e+01	-1.800000e+02	+3.250000e+01	-1.800000e+02
+7.811037e+08	+4.035777e+00	-1.493842e+02	-3.203537e+01	+9.571848e+01	+3.320000e+01	-1.800000e+02	+3.250000e+01	-1.800000e+02
+7.876923e+08	+4.101760e+00	-1.529032e+02	-3.190833e+01	+9.712610e+01	+3.320000e+01	-1.800000e+02	+3.250000e+01	-1.800000e+02
+7.942809e+08	+4.167742e+00	-1.565982e+02	-3.184481e+01	+9.483871e+01	+3.320000e+01	-1.800000e+02	+3.250000e+01	-1.800000e+02
+8.008696e+08	+4.461290e+00	-1.602933e+02	-3.167953e+01	+9.307918e+01	+3.420000e+01	-1.800000e+02	+3.320000e+01	-1.800000e+02
+8.074582e+08	+4.393548e+00	-1.641642e+02	-3.161548e+01	+9.202346e+01	+3.420000e+01	-1.800000e+02	+3.320000e+01	-1.800000e+02
+8.140468e+08	+4.393548e+00	+1.676833e+02	-3.148739e+01	+9.043988e+01	+3.420000e+01	-1.800000e+02	+3.320000e+01	-1.800000e+02
+8.206355e+08	+4.258065e+00	+1.708504e+02	-3.187167e+01	+8.850440e+01	+3.420000e+01	-1.800000e+02	+3.320000e+01	-1.800000e+02
+8.272241e+08	+4.190323e+00	+1.734897e+02	-3.206381e+01	+8.551320e+01	+3.420000e+01	-1.800000e+02	+3.320000e+01	-1.800000e+02
+8.338127e+08	+4.054839e+00	+1.748974e+02	-3.206381e+01	+8.181818e+01	+3.420000e+01	-1.800000e+02	+3.320000e+01	-1.800000e+02
+8.404013e+08	+3.987097e+00	+1.756012e+02	-3.232000e+01	+7.847507e+01	+3.420000e+01	-1.800000e+02	+3.320000e+01	-1.800000e+02
+8.469900e+08	+3.851613e+00	+1.759531e+02	-3.232000e+01	+7.706745e+01	+3.420000e+01	-1.800000e+02	+3.320000e+01	-1.800000e+02
+8.535786e+08	+3.783871e+00	+1.757771e+02	-3.232000e+01	+7.671554e+01	+3.420000e+01	-1.800000e+02	+3.320000e+01	-1.800000e+02
+8.601672e+08	+4.461290e+00	+1.752493e+02	-3.232000e+01	+7.671554e+01	+3.420000e+01	-1.800000e+02	+3.320000e+01	-1.800000e+02
+8.667559e+08	+3.648387e+00	+1.741935e+02	-3.232000e+01	+7.583578e+01	+3.420000e+01	-1.800000e+02	+3.320000e+01	-1.800000e+02
+8.733445e+08	+3.580645e+00	+1.729619e+02	-3.232000e+01	+7.478006e+01	+3.420000e+01	-1.800000e+02	+3.320000e+01	-1.800000e+02
+8.799331e+08	+3.580645e+00	+1.713783e+02	-3.232000e+01	+7.319648e+01	+3.420000e+01	-1.800000e+02	+3.320000e+01	-1.800000e+02
+8.865217e+08	+3.648387e+00	+1.696188e+02	-3.232000e+01	+7.178886e+01	+3.420000e+01	-1.800000e+02	+3.320000e+01	-1.800000e+02
+8.931104e+08	+3.716129e+00	+1.675073e+02	-3.232000e+01	+7.055718e+01	+3.420000e+01	-1.800000e+02	+3.320000e+01	-1.800000e+02
+8.996990e+08	+3.783871e+00	+1.653959e+02	-3.232000e+01	+6.879765e+01	+3.420000e+01	-1.800000e+02	+3.320000e+01	-1.800000e+02
+9.062876e+08	+3.919355e+00	+1.629326e+02	-3.167953e+01	+6.739003e+01	+3.420000e+01	-1.800000e+02	+3.320000e+01	-1.800000e+02
+9.128763e+08	+4.054839e+00	+1.602933e+02	-3.232000e+01	-6.615836e+01	+3.420000e+01	-1.800000e+02	+3.320000e+01	-1.800000e+02
+9.194649e+08	+4.190323e+00	+1.576540e+02	-3.232000e+01	-6.615836e+01	+3.420000e+01	-1.800000e+02	+3.320000e+01	-1.800000e+02
+9.260535e+08	+4.393548e+00	+1.546628e+02	-3.232000e+01	-6.615836e+01	+3.420000e+01	-1.800000e+02	+3.320000e+01	-1.800000e+02
+9.326421e+08	+4.529032e+00	+1.513196e+02	-3.232000e+01	-6.739003e+01	+3.420000e+01	-1.800000e+02	+3.320000e+01	-1.800000e+02
+9.392308e+08	+4.732258e+00	+1.479765e+02	-3.232000e+01	-6.950147e+01	+3.420000e+01	-1.800000e+02	+3.320000e+01	-1.800000e+02
+9.458194e+08	+4.935484e+00	+1.444575e+02	-3.232000e+01	-7.266862e+01	+3.420000e+01	-1.800000e+02	+3.320000e+01	-1.800000e+02
+9.524080e+08	+5.138710e+00	+1.405865e+02	-3.199977e+01	-7.601173e+01	+3.420000e+01	-1.800000e+02	+3.320000e+01	-1.800000e+02
+9.589967e+08	+5.274194e+00	+1.363636e+02	-3.187167e+01	-7.935484e+01	+3.420000e+01	-1.800000e+02	+3.320000e+01	-1.800000e+02
+9.655853e+08	+5.341935e+00	+1.321408e+02	-3.180762e+01	-8.217009e+01	+3.420000e+01	-1.800000e+02	+3.320000e+01	-1.800000e+02
+9.721739e+08	+5.341935e+00	+1.321408e+02	-3.155144e+01	-8.498534e+01	+3.420000e+01	-1.800000e+02	+3.320000e+01	-1.800000e+02
+9.787625e+08	+5.477419e+00	+1.229912e+02	-3.142334e+01	-8.815249e+01	+3.420000e+01	-1.800000e+02	+3.320000e+01	-1.800000e+02
+9.853512e+08	+5.409677e+00	+1.182405e+02	-3.148739e+01	-9.149560e+01	+3.420000e+01	-1.800000e+02	+3.320000e+01	-1.800000e+02
+9.919398e+08	+5.341935e+00	+1.136657e+02	-3.142334e+01	+9.501466e+01	+3.420000e+01	-1.800000e+02	+3.320000e+01	-1.800000e+02
+9.985284e+08	+5.206452e+00	+1.090909e+02	-3.148739e+01	+9.800587e+01	+3.420000e+01	-1.800000e+02	+3.320000e+01	-1.800000e+02
+1.005117e+09	+5.003226e+00	+1.048680e+02	-3.161548e+01	+1.008211e+02	+3.420000e+01	-1.800000e+02	+3.320000e+01	-1.800000e+02
+1.011706e+09	+4.732258e+00	+1.008211e+02	-3.167953e+01	+1.036364e+02	+3.420000e+01	-1.800000e+02	+3.320000e+01	-1.800000e+02
+1.018294e+09	+4.461290e+00	+9.730205e+01	-3.174358e+01	+1.052199e+02	+3.420000e+01	-1.800000e+02	+3.320000e+01	-1.800000e+02
+1.024883e+09	+4.258065e+00	+9.413490e+01	-3.174358e+01	+1.064516e+02	+3.420000e+01	-1.800000e+02	+3.320000e+01	-1.800000e+02
+1.031472e+09	+3.987097e+00	+9.114370e+01	-3.187167e+01	+1.062757e+02	+3.420000e+01	-1.800000e+02	+3.320000e+01	-1.800000e+02
+1.038060e+09	+3.716129e+00	+8.850440e+01	-3.193572e+01	+1.046921e+02	+3.420000e+01	-1.800000e+02	+3.320000e+01	-1.800000e+02
+1.044649e+09	+3.580645e+00	+8.621701e+01	-3.193572e+01	+1.024047e+02	+3.420000e+01	-1.800000e+02	+3.320000e+01	-1.800000e+02
+1.051237e+09	+3.377419e+00	+8.392962e+01	-3.193572e+01	+1.004692e+02	+3.420000e+01	-1.800000e+02	+3.320000e+01	-1.800000e+02
+1.057826e+09	+3.377419e+00	+8.392962e+01	-3.199977e+01	+9.624633e+01	+3.420000e+01	-1.800000e+02	+3.320000e+01	-1.800000e+02
+1.064415e+09	+3.106452e+00	+8.005865e+01	-3.225595e+01	+9.255132e+01	+3.420000e+01	-1.800000e+02	+3.320000e+01	-1.800000e+02
