# Hz S DB R 50.000000
+3.000000e+07	-4.547061e+00	+1.738950e+02	-4.115454e+01	+1.498073e+02	+2.511126e+00	-1.091069e+02	+5.947742e-02	-9.389695e+01
+3.658863e+07	-4.287032e+00	+1.772325e+02	-4.149733e+01	+1.587120e+02	+1.200692e+00	-1.099198e+02	-1.825587e+00	-8.840920e+01
+4.317726e+07	-4.296109e+00	+1.767148e+02	-4.154227e+01	+1.712791e+02	+6.595266e-01	-1.095619e+02	-3.592967e+00	-8.400184e+01
+4.976589e+07	-4.355994e+00	+1.762192e+02	-4.119147e+01	-1.748274e+02	+2.794114e-01	-1.099516e+02	-5.360603e+00	-7.985402e+01
+5.635452e+07	-4.337232e+00	+1.756217e+02	-4.092306e+01	-1.617699e+02	+9.457641e-02	-1.115743e+02	-7.345581e+00	-7.660509e+01
+6.294314e+07	-4.334608e+00	+1.747993e+02	-4.078822e+01	-1.491438e+02	-1.413787e-01	-1.180088e+02	-1.155391e+01	-6.844573e+01
+6.953177e+07	-4.340583e+00	+1.741784e+02	-4.067960e+01	-1.368063e+02	+2.585199e-01	-1.082642e+02	-9.236339e+00	-7.477613e+01
+7.612040e+07	-4.281959e+00	+1.738267e+02	-4.057765e+01	-1.242678e+02	+5.122214e-01	-1.106781e+02	-1.089425e+01	-7.443517e+01
+8.270903e+07	-4.340263e+00	+1.737602e+02	-4.041260e+01	-1.121973e+02	+6.912936e-01	-1.156502e+02	-1.539680e+01	-7.309265e+01
+8.929766e+07	-4.329604e+00	+1.728708e+02	-4.035529e+01	-8.220541e+01	+1.025054e+00	-1.204720e+02	-2.538553e+01	-5.525060e+01
+9.588629e+07	-4.297569e+00	+1.724299e+02	-4.032855e+01	-9.026766e+01	+1.386865e+00	-1.260232e+02	-2.134310e+01	+8.353585e+01
+1.024749e+08	-4.311761e+00	+1.718737e+02	-4.040680e+01	-8.630101e+01	+1.829471e+00	-1.325914e+02	-1.261553e+01	+8.909517e+01
+1.090635e+08	-4.261788e+00	+1.717910e+02	-4.049183e+01	-7.509793e+01	+2.214034e+00	-1.400858e+02	-8.088079e+00	+8.630572e+01
+1.156522e+08	-4.264336e+00	+1.712154e+02	-4.071936e+01	-6.353922e+01	+2.597825e+00	-1.474726e+02	-5.099434e+00	+8.313585e+01
+1.222408e+08	-4.091533e+00	+1.703039e+02	-4.110649e+01	-5.157875e+01	+5.394637e+00	-1.731940e+02	+2.134442e+00	+8.009360e+01
+1.288294e+08	-4.263213e+00	+1.722130e+02	-4.122035e+01	-3.728293e+01	+3.254136e+00	-1.613737e+02	-1.079133e+00	+7.736011e+01
+1.354181e+08	-4.245984e+00	+1.694486e+02	-4.148869e+01	-2.334852e+01	+3.121280e+00	-1.456768e+02	-7.632865e-01	+7.502740e+01
+1.420067e+08	-3.964977e+00	+1.684786e+02	-4.124700e+01	-7.087677e+00	+3.576235e+00	-1.640273e+02	+8.377573e-01	+7.401581e+01
+1.485953e+08	-3.983317e+00	+1.681930e+02	-4.176950e+01	+5.890962e+00	+4.213910e+00	-1.758018e+02	+2.266917e+00	+7.326565e+01
+1.551839e+08	-3.998834e+00	+1.656354e+02	-4.209719e+01	+2.010292e+01	+5.169313e+00	+1.791053e+02	+3.808136e+00	+7.356248e+01
+1.617726e+08	-1.577863e+00	+1.182083e+02	-3.518599e+01	+5.820235e+01	+6.855942e+00	+1.774101e+02	+5.592615e+00	+7.514112e+01
+1.683612e+08	-3.964507e+00	+1.636088e+02	-4.175024e+01	+5.271066e+01	+8.527607e+00	+1.743121e+02	+7.985886e+00	+7.708024e+01
+1.749498e+08	-4.154181e+00	+1.626924e+02	-4.113031e+01	+6.833633e+01	+1.163143e+01	+1.762386e+02	+1.150401e+01	+8.186915e+01
+1.815385e+08	-4.238842e+00	+1.630234e+02	-3.937546e+01	+8.385790e+01	+1.779178e+01	-1.792368e+02	+1.755112e+01	+9.023516e+01
+1.881271e+08	-4.159670e+00	+1.632181e+02	-3.609500e+01	+1.242919e+02	+2.786784e+01	-8.187787e+01	+2.754351e+01	-1.675811e+02
+1.947157e+08	-4.277911e+00	+1.615000e+02	-4.417094e+01	+1.049034e+02	+1.425746e+01	-3.199442e+01	+1.365015e+01	-1.117532e+02
+2.013043e+08	-4.332178e+00	+1.606640e+02	-4.365601e+01	+1.214948e+02	+1.445372e+01	-3.156416e+01	+1.370137e+01	-1.158473e+02
+2.078930e+08	-4.392580e+00	+1.600473e+02	-4.270896e+01	+1.264894e+02	+9.436132e+00	-2.403769e+01	+8.496058e+00	-1.040641e+02
+2.144816e+08	-4.467575e+00	+1.594633e+02	-4.201467e+01	+1.377675e+02	+6.396099e+00	-2.092581e+01	+5.107942e+00	-9.730942e+01
+2.210702e+08	-4.507422e+00	+1.591505e+02	-4.147492e+01	-1.780566e+01	+4.630729e+00	-2.030477e+01	+2.453925e+00	-9.268450e+01
+2.276589e+08	-4.579966e+00	+1.592124e+02	-4.101357e+01	+1.576657e+02	+2.748144e+00	-1.939176e+01	+2.005048e-01	-8.863917e+01
+2.342475e+08	-4.919130e+00	+1.581812e+02	-4.044955e+01	+1.700506e+02	+1.875960e+00	-2.269587e+01	-1.098514e+00	-8.607427e+01
+2.408361e+08	-4.749028e+00	+1.590924e+02	-4.030828e+01	-1.687391e+02	+8.864040e-01	-2.141817e+01	-3.702695e+00	-8.376484e+01
+2.474247e+08	-5.598661e+00	+1.575250e+02	-3.946348e+01	-1.483401e+02	+2.851060e-01	-2.097285e+01	-6.587190e+00	-8.115483e+01
+2.540134e+08	-4.854749e+00	+1.590127e+02	-4.242404e+01	-1.300991e+02	-7.969420e-01	-2.154471e+01	-1.011736e+01	-7.568528e+01
+2.606020e+08	-4.359503e+00	+1.593581e+02	-4.283894e+01	-1.177506e+02	-6.777804e-01	-4.025483e+01	-1.764722e+01	+4.658905e+01
+2.671906e+08	-4.969748e+00	+1.571900e+02	-4.199094e+01	-1.093093e+02	-2.850548e-01	-2.498817e+01	-2.082438e+01	-3.228952e+01
+2.737793e+08	-4.712648e+00	+1.584985e+02	-4.186079e+01	-9.737525e+01	+4.038516e-01	-2.126489e+01	-2.137485e+01	-4.490925e+01
+2.803679e+08	-4.104789e+00	+1.590616e+02	-4.230716e+01	-6.868793e+01	+1.184037e+00	-2.147330e+01	-2.401173e+01	+6.121763e+01
+2.869565e+08	-4.546162e+00	+1.576357e+02	-4.172528e+01	-8.972027e+01	+2.171871e+00	-3.559026e+01	-1.382331e+01	+8.995549e+01
+2.935452e+08	-4.401770e+00	+1.572691e+02	-4.175005e+01	-1.022481e+02	+3.215763e+00	-4.311725e+01	-8.253250e+00	+9.409468e+01
+3.001338e+08	-4.393304e+00	+1.567657e+02	-4.153106e+01	-9.748537e+01	+4.370907e+00	-5.257587e+01	-4.359628e+00	+9.188109e+01
+3.067224e+08	-4.349262e+00	+1.558796e+02	-4.114975e+01	-9.134787e+01	+5.534901e+00	-6.445696e+01	-1.054093e+00	+8.626322e+01
+3.133110e+08	-4.329686e+00	+1.552111e+02	-4.110266e+01	+1.642389e+02	+6.635992e+00	-7.881820e+01	+1.638267e+00	+7.790079e+01
+3.198997e+08	-6.952184e+00	+1.628105e+02	-4.006878e+01	+1.606823e+02	+7.761457e+00	-1.019978e+02	+4.549183e+00	+6.420308e+01
+3.264883e+08	-4.252628e+00	+1.512600e+02	-4.127775e+01	-6.140214e+01	+5.478118e+00	-9.773023e+01	+2.446431e+00	+5.877525e+01
+3.330769e+08	-4.455835e+00	+1.509160e+02	-4.188769e+01	-4.831345e+01	+5.070069e+00	-1.087103e+02	+3.038441e+00	+5.101673e+01
+3.396656e+08	-3.854145e+00	+1.486914e+02	-4.242461e+01	-3.205419e+01	+4.743282e+00	-1.173743e+02	+3.504600e+00	+4.640019e+01
+3.462542e+08	-6.903660e+00	+1.557436e+02	-4.417624e+01	-5.346405e+00	+4.642537e+00	-1.238041e+02	+3.943757e+00	+4.347325e+01
+3.528428e+08	-3.810803e+00	+1.469234e+02	-4.390775e+01	+1.250656e+01	+4.639478e+00	-1.275772e+02	+4.533551e+00	+4.291900e+01
+3.594314e+08	-3.732296e+00	+1.461056e+02	-4.453201e+01	+3.211582e+01	+5.396215e+00	-1.328739e+02	+5.389894e+00	+4.341561e+01
+3.660201e+08	-3.834648e+00	+1.476596e+02	-4.442015e+01	+4.093693e+01	+6.531368e+00	-1.351008e+02	+6.635728e+00	+4.594579e+01
+3.726087e+08	-3.820092e+00	+1.468270e+02	-4.440881e+01	+5.724516e+01	+8.280348e+00	-1.384528e+02	+8.445453e+00	+4.745037e+01
+3.791973e+08	-3.862686e+00	+1.463378e+02	-4.460287e+01	+5.904155e+01	+1.123663e+01	-1.412349e+02	+1.138927e+01	+4.926058e+01
+3.857860e+08	-4.040987e+00	+1.451018e+02	-4.637685e+01	+5.707424e+01	+1.722364e+01	-1.418340e+02	+1.732278e+01	+5.299288e+01
+3.923746e+08	-4.265745e+00	+1.357203e+02	-3.933229e+01	+3.706973e+01	+6.610744e+00	+4.303391e+01	+5.486601e+00	-9.123604e+01
+3.989632e+08	-4.286300e+00	+1.425860e+02	-3.945075e+01	+4.418665e+01	+1.153176e+01	+3.832359e+01	+1.095965e+01	-1.156984e+02
+4.055518e+08	-4.537507e+00	+1.454053e+02	-4.162831e+01	+7.501086e+01	+1.000506e+01	+3.076059e+01	+9.193249e+00	-1.281542e+02
+4.121405e+08	-4.536385e+00	+1.432451e+02	-4.252094e+01	+1.078467e+02	+5.943894e+00	+3.467572e+01	+4.537354e+00	-1.201816e+02
+4.187291e+08	-4.603221e+00	+1.473177e+02	-4.357106e+01	+1.334356e+02	+3.099527e+00	+3.663161e+01	+9.997140e-01	-1.142792e+02
+4.253177e+08	-4.807356e+00	+1.471551e+02	-4.360828e+01	+1.500084e+02	+9.675462e-01	+2.883163e+01	-2.016915e+00	-1.091063e+02
+4.319064e+08	-4.937228e+00	+1.470770e+02	-4.321391e+01	+1.611172e+02	-7.150376e-01	+3.504857e+01	-5.064066e+00	-1.062341e+02
+4.384950e+08	-4.843248e+00	+1.490215e+02	-4.264426e+01	+1.642332e+02	-1.708593e+00	+2.861032e+01	-7.822159e+00	-1.003662e+02
+4.450836e+08	-4.727646e+00	+1.475785e+02	-4.228877e+01	-1.757072e+02	-2.567417e+00	+2.674337e+01	-1.102142e+01	-9.463089e+01
+4.516722e+08	-5.145764e+00	+1.448328e+02	-4.206289e+01	-1.566253e+02	-3.081367e+00	+2.890674e+01	-1.663273e+01	-8.670147e+01
+4.582609e+08	-5.102920e+00	+1.437399e+02	-4.161193e+01	-1.485637e+02	-3.234671e+00	+2.811438e+01	-2.775239e+01	+2.701040e+01
+4.648495e+08	-5.124661e+00	+1.431428e+02	-4.138208e+01	-1.422455e+02	-3.127011e+00	+3.784583e+01	-2.800118e+01	-5.047730e-01
+4.714381e+08	-4.997341e+00	+1.429174e+02	-4.095917e+01	-1.432545e+02	-2.944376e+00	+4.022420e+01	-2.168686e+01	+6.626663e+01
+4.780268e+08	-5.273901e+00	+1.449614e+02	-4.076676e+01	+1.523814e+02	-2.431830e+00	+4.287504e+01	-1.368469e+01	+8.461747e+01
+4.846154e+08	-5.177315e+00	+1.447845e+02	-4.011796e+01	+1.524578e+02	-1.728747e+00	+4.633383e+01	-9.353956e+00	+9.210103e+01
+4.912040e+08	-5.245817e+00	+1.354444e+02	-4.024583e+01	+1.562250e+02	-6.203260e-01	+4.698757e+01	-6.393675e+00	+9.857660e+01
+4.977926e+08	-5.168735e+00	+1.348097e+02	-4.019589e+01	+1.617839e+02	+8.883842e-01	+4.649781e+01	-3.591258e+00	+1.035859e+02
+5.043813e+08	-5.456008e+00	+1.376501e+02	-3.850640e+01	+1.634450e+02	+3.782005e+00	+4.414726e+01	-7.976986e-01	+1.076191e+02
+5.109699e+08	-5.153665e+00	+1.354745e+02	-3.820989e+01	-7.387598e+01	+6.218968e+00	+4.343946e+01	+2.433363e+00	+1.123011e+02
+5.175585e+08	-4.998680e+00	+1.341740e+02	-3.812207e+01	-4.924996e+01	+1.643121e+01	+1.076968e+02	+1.410759e+01	-1.581677e+02
+5.241472e+08	-4.960430e+00	+1.342892e+02	-3.761234e+01	-1.887904e+01	+1.506771e+01	+4.250322e+01	+1.263081e+01	+1.254137e+02
+5.307358e+08	-4.794047e+00	+1.340747e+02	-3.660818e+01	+1.114643e+01	+2.105943e+01	+2.966441e+01	+1.862859e+01	+1.133646e+02
+5.373244e+08	-4.527933e+00	+1.341253e+02	-4.374739e+01	+2.304362e+01	+2.626063e+01	-1.120368e+02	+2.419731e+01	-3.015916e+01
+5.439130e+08	-3.975218e+00	+1.390008e+02	-4.053408e+01	+6.940829e+01	+1.559802e+01	-1.307637e+02	+1.395033e+01	-4.135377e+01
+5.505017e+08	-3.800090e+00	+1.376524e+02	-3.932054e+01	+7.158947e+01	+1.124040e+01	-1.363172e+02	+1.014766e+01	-4.156718e+01
+5.570903e+08	-3.813953e+00	+1.355941e+02	-3.747855e+01	+4.472764e+01	+8.228539e+00	-1.387899e+02	+8.093657e+00	-4.064522e+01
+5.636789e+08	-3.318389e+00	+1.343579e+02	-3.771014e+01	-3.110227e+00	+6.705795e+00	-1.423443e+02	+6.737010e+00	-4.072485e+01
+5.702676e+08	-3.518529e+00	+1.342710e+02	-3.762447e+01	-2.983607e+01	+5.909274e+00	-1.439525e+02	+5.824751e+00	-4.220385e+01
+5.768562e+08	-3.594924e+00	+1.337804e+02	-3.794111e+01	-3.598229e+01	+5.495044e+00	-1.561946e+02	+5.061242e+00	-4.469198e+01
+5.834448e+08	-4.081168e+00	+1.333591e+02	-3.772547e+01	-3.898979e+01	+5.240589e+00	-1.640103e+02	+4.379993e+00	-4.799237e+01
+5.900334e+08	-4.088322e+00	+1.313535e+02	-3.770266e+01	-4.015372e+01	+5.073689e+00	-1.713140e+02	+3.631986e+00	-5.178984e+01
+5.966221e+08	-4.185810e+00	+1.301382e+02	-3.811146e+01	-4.208630e+01	+3.524385e+00	+1.575194e+02	-7.541395e-01	-5.928660e+01
+6.032107e+08	-3.768686e+00	+1.298497e+02	-3.829689e+01	-4.372083e+01	+5.070105e+00	+1.716982e+02	+2.256673e+00	-6.255598e+01
+6.097993e+08	-3.818931e+00	+1.291127e+02	-3.902126e+01	-4.294557e+01	+5.750853e+00	+1.707714e+02	+2.860143e+00	-6.844088e+01
+6.163880e+08	-4.005228e+00	+1.286225e+02	-4.010737e+01	+1.486630e+02	+4.806954e+00	+1.569946e+02	+7.933364e-01	-7.592453e+01
+6.229766e+08	-4.050874e+00	+1.285858e+02	-4.061089e+01	+1.709228e+02	+3.581248e+00	+1.451311e+02	-1.586941e+00	-8.200664e+01
+6.295652e+08	-4.093960e+00	+1.283074e+02	-4.108325e+01	-1.686029e+02	+2.734409e+00	+1.342846e+02	-4.761372e+00	-8.548278e+01
+6.361538e+08	-4.216542e+00	+1.277356e+02	-4.134196e+01	-1.494275e+02	+1.661076e+00	+1.266968e+02	-8.790849e+00	-8.595906e+01
+6.427425e+08	-4.727756e+00	+1.261744e+02	-4.121472e+01	-1.320677e+02	+6.946431e-01	+1.206232e+02	-1.446525e+01	-7.935184e+01
+6.493311e+08	-4.759751e+00	+1.262610e+02	-4.087766e+01	-1.164812e+02	-9.230683e-02	+1.160079e+02	-2.345287e+01	-3.530451e+01
+6.559197e+08	-4.798782e+00	+1.256831e+02	-4.042006e+01	-1.048705e+02	-2.281875e-01	+1.016297e+02	-1.111147e+01	+7.430953e+01
+6.625084e+08	-4.514691e+00	+1.268862e+02	-4.022325e+01	-9.562665e+01	-1.194357e+00	+1.137400e+02	-1.458867e+01	+6.032050e+01
+6.690970e+08	-4.490703e+00	+1.267625e+02	-4.015188e+01	+9.481053e+01	-1.671287e+00	+1.197031e+02	-1.211413e+01	+6.445478e+01
+6.756856e+08	-4.497167e+00	+1.265911e+02	-3.985527e+01	+8.596714e+01	-1.587519e+00	+1.137269e+02	-8.889185e+00	+7.018878e+01
+6.822742e+08	-4.875334e+00	+1.247707e+02	-3.970737e+01	+8.611101e+01	-1.216221e+00	+1.134857e+02	-6.238441e+00	+7.429931e+01
+6.888629e+08	-4.851070e+00	+1.244782e+02	-3.969969e+01	+9.337687e+01	-7.899249e-01	+1.110154e+02	-4.851228e+00	+7.668506e+01
+6.954515e+08	-4.551880e+00	+1.264830e+02	-3.978016e+01	-4.692896e+01	+2.452494e-01	+1.118369e+02	-2.212772e+00	+7.957844e+01
+7.020401e+08	-4.576265e+00	+1.263229e+02	-4.004485e+01	-3.264852e+01	+1.751117e+00	+1.126021e+02	+3.012729e-01	+8.197700e+01
+7.086288e+08	-4.556713e+00	+1.261146e+02	-4.046592e+01	-1.712943e+01	+3.708891e+00	+1.121960e+02	+2.773156e+00	+8.419176e+01
+7.152174e+08	-4.491826e+00	+1.267335e+02	-4.119325e+01	+2.498684e+00	+6.101829e+00	+1.169067e+02	+5.499131e+00	+8.596624e+01
+7.218060e+08	-4.562970e+00	+1.272571e+02	-4.257691e+01	+2.267827e+01	+9.667746e+00	+1.056909e+02	+8.832077e+00	+8.796528e+01
+7.283946e+08	-4.557001e+00	+1.255274e+02	-3.692061e+01	+1.701361e+02	+2.506637e+01	+8.531285e+01	+2.489628e+01	+8.642603e+01
+7.349833e+08	-4.428894e+00	+1.260878e+02	-4.608721e+01	+9.968022e+01	+1.589434e+01	+9.661966e+01	+1.542009e+01	+8.727457e+01
+7.415719e+08	-4.510624e+00	+1.239491e+02	-3.844656e+01	+1.742959e+02	+2.373838e+01	+7.663106e+01	+2.319142e+01	+6.968850e+01
+7.481605e+08	-4.336771e+00	+1.197704e+02	-3.170917e+01	+6.816553e+01	+2.229821e+01	-5.402712e+01	+2.179469e+01	-5.561349e+01
+7.547492e+08	-4.235304e+00	+1.187259e+02	-3.062385e+01	+8.268921e+01	+2.518628e+01	-1.674980e+01	+2.468263e+01	-2.029341e+01
+7.613378e+08	-4.526484e+00	+1.178739e+02	-3.800261e+01	+6.547479e+01	+1.074498e+01	-8.335006e+01	+9.827863e+00	-7.330700e+01
+7.679264e+08	-4.539867e+00	+1.180205e+02	-3.914629e+01	+9.229954e+01	+8.280037e+00	-8.812585e+01	+7.027332e+00	-7.422414e+01
+7.745151e+08	-4.404193e+00	+1.206816e+02	-3.955881e+01	+8.322803e+01	+6.488544e+00	-9.294695e+01	+4.866538e+00	-7.519943e+01
+7.811037e+08	-4.453429e+00	+1.195756e+02	-3.999117e+01	+8.644206e+01	+5.046460e+00	-9.885987e+01	+3.018390e+00	-7.668186e+01
+7.876923e+08	-4.410387e+00	+1.201328e+02	-4.021645e+01	+1.076463e+02	+4.022459e+00	-1.042933e+02	+1.273743e+00	-7.788711e+01
+7.942809e+08	-4.442963e+00	+1.193995e+02	-3.977513e+01	+1.197215e+02	+1.483040e+00	-1.315940e+02	-6.844791e+00	-7.762907e+01
+8.008696e+08	-4.562205e+00	+1.192145e+02	-4.026417e+01	+1.324709e+02	+2.874337e+00	-1.189544e+02	-2.604338e+00	-8.380697e+01
+8.074582e+08	-4.792940e+00	+1.167896e+02	-4.017457e+01	+1.460848e+02	+3.023248e+00	-1.178218e+02	-2.517007e+00	-8.475737e+01
+8.140468e+08	-1.351939e+01	-1.678396e+02	-4.006771e+01	-1.699123e+02	+2.610121e+00	-1.248493e+02	-5.131234e+00	-8.408936e+01
+8.206355e+08	-4.749636e+00	+1.007517e+02	-3.998473e+01	+1.715204e+02	+1.779130e+00	-1.309519e+02	-8.374788e+00	-8.275674e+01
+8.272241e+08	-4.932890e+00	+1.040979e+02	-4.022703e+01	-1.790074e+02	+1.326232e+00	-1.377071e+02	-1.289228e+01	-7.805000e+01
+8.338127e+08	-4.984492e+00	+1.074315e+02	-4.026004e+01	-1.703944e+02	+8.433992e-01	-1.438939e+02	-2.017853e+01	-5.326436e+01
+8.404013e+08	-5.026114e+00	+1.110519e+02	-4.054275e+01	-1.603987e+02	+2.219540e-01	-1.502907e+02	-2.141605e+01	+3.872283e+01
+8.469900e+08	-5.100871e+00	+1.133450e+02	-4.060969e+01	-1.492624e+02	+1.429175e-01	-1.535373e+02	-1.457432e+01	+6.376714e+01
+8.535786e+08	-5.497802e+00	+1.136189e+02	-4.052305e+01	-1.382461e+02	+1.469104e-02	-1.574647e+02	-1.050821e+01	+7.155825e+01
+8.601672e+08	-4.326310e+00	+1.172655e+02	-4.086139e+01	-1.212921e+02	+3.237253e-01	-1.593552e+02	-5.686429e+00	+7.661792e+01
+8.667559e+08	-5.032926e+00	+1.186281e+02	-4.061240e+01	-9.212998e+01	-5.189246e-01	-1.586988e+02	-7.642851e+00	+7.602163e+01
+8.733445e+08	-1.085118e+01	+1.505613e+02	-4.244007e+01	-1.247903e+02	-5.175669e-01	-1.561237e+02	-6.964933e+00	+7.812981e+01
+8.799331e+08	-4.915228e+00	+1.184646e+02	-4.030852e+01	-9.509711e+01	-3.306668e-01	-1.615980e+02	-4.750306e+00	+8.172838e+01
+8.865217e+08	-4.889240e+00	+1.191575e+02	-4.027682e+01	-8.348122e+01	+2.788772e-01	-1.629714e+02	-2.792082e+00	+8.540633e+01
+8.931104e+08	-4.793938e+00	+1.180785e+02	-4.015775e+01	-7.152576e+01	+1.095364e+00	-1.620459e+02	-8.690010e-01	+8.916945e+01
+8.996990e+08	-4.511847e+00	+1.152981e+02	-3.946893e+01	-6.380367e+01	+2.328509e+00	-1.605144e+02	+1.229903e+00	+9.306218e+01
+9.062876e+08	-4.443291e+00	+1.143840e+02	-3.894647e+01	-5.190880e+01	+4.140163e+00	-1.579945e+02	+3.576831e+00	+9.843163e+01
+9.128763e+08	-4.656641e+00	+1.154366e+02	-3.990451e+01	-1.721250e+02	+6.738233e+00	-1.543747e+02	+6.490331e+00	+1.048243e+02
+9.194649e+08	-4.370564e+00	+1.125706e+02	-3.917330e+01	-1.620216e+02	+1.039682e+01	-1.459383e+02	+1.025421e+01	+1.163214e+02
+9.260535e+08	-4.583658e+00	+1.134554e+02	-4.014776e+01	-1.463600e+02	+9.527869e+00	-4.849198e+01	+8.519128e+00	-1.181807e+02
+9.326421e+08	-5.070230e+00	+1.147011e+02	-3.899599e+01	-1.435746e+02	+1.536524e+01	-4.696003e+01	+1.491337e+01	-1.336268e+02
+9.392308e+08	-4.350318e+00	+1.095227e+02	-3.879782e+01	-1.198808e+02	+1.532861e+01	-2.304126e+01	+1.455862e+01	-1.156199e+02
+9.458194e+08	-4.319852e+00	+1.086336e+02	-3.971909e+01	-1.114701e+02	+9.430002e+00	-7.627210e+00	+8.618628e+00	-9.528598e+01
+9.524080e+08	-4.315922e+00	+1.078648e+02	-3.973479e+01	-1.038395e+02	+6.070279e+00	-4.153439e+00	+4.770816e+00	-8.749287e+01
+9.589967e+08	-4.716299e+00	+1.084360e+02	-3.983123e+01	-9.485738e+01	+3.826538e+00	-3.832539e+00	+1.864212e+00	-8.296430e+01
+9.655853e+08	-4.393741e+00	+1.062681e+02	-4.010358e+01	-8.262920e+01	+2.311476e+00	-3.924020e+00	-4.990290e-01	-7.861026e+01
+9.721739e+08	-4.476110e+00	+1.093736e+02	-3.999665e+01	-8.620192e+01	+1.254430e+00	-5.165747e+00	-2.299430e+00	-7.500497e+01
+9.787625e+08	-4.377395e+00	+1.045121e+02	-4.001856e+01	-8.281183e+01	+1.105532e+00	-4.855080e+00	-3.952942e+00	-7.147948e+01
+9.853512e+08	-4.819593e+00	+1.046498e+02	-4.023578e+01	-7.172472e+01	+2.299612e-01	-9.063320e+00	-5.525296e+00	-6.828227e+01
+9.919398e+08	-4.822314e+00	+1.040089e+02	-4.025024e+01	+1.304033e+02	-2.228027e-02	-1.168101e+01	-7.408261e+00	-6.378015e+01
+9.985284e+08	-4.821847e+00	+1.027910e+02	-4.037967e+01	+1.476249e+02	-3.935492e-01	-2.144301e+01	-1.248442e+01	-4.882975e+01
+1.005117e+09	-4.841823e+00	+1.019508e+02	-4.042748e+01	+1.653413e+02	+6.752285e-01	-2.956044e+00	-9.770061e+00	-6.334070e+01
+1.011706e+09	-4.496594e+00	+1.004855e+02	-4.027773e+01	-1.773281e+02	+1.165166e+00	-1.442077e+01	-1.193734e+01	-6.289220e+01
+1.018294e+09	-4.535305e+00	+1.000728e+02	-4.019231e+01	-1.608638e+02	+1.627075e+00	-2.461394e+01	-1.806371e+01	-4.712862e+01
+1.024883e+09	-5.041537e+00	+1.041995e+02	-4.033228e+01	-1.461962e+02	+2.152804e+00	-3.151030e+01	-2.121347e+01	+3.300751e+01
+1.031472e+09	-5.298325e+00	+1.078495e+02	-4.011588e+01	-1.327348e+02	+3.045509e+00	-3.983138e+01	-1.360887e+01	+6.857637e+01
+1.038060e+09	-5.585875e+00	+1.046119e+02	-4.022412e+01	-1.217389e+02	+2.989801e+00	-4.727515e+01	-8.960841e+00	+7.362555e+01
+1.044649e+09	-5.080921e+00	+1.021975e+02	-4.021719e+01	-1.107243e+02	+3.249193e+00	-5.578763e+01	-6.021934e+00	+7.365614e+01
+1.051237e+09	-5.122549e+00	+1.006326e+02	-4.010161e+01	-1.010881e+02	+3.596206e+00	-6.496501e+01	-3.631652e+00	+7.137857e+01
+1.057826e+09	-5.144641e+00	+1.021983e+02	-4.035302e+01	-9.294838e+01	+4.819871e+00	-8.442160e+01	+6.389051e-01	+7.020865e+01
+1.064415e+09	-5.213618e+00	+9.933007e+01	-4.059146e+01	-7.544995e+01	+3.890920e+00	-7.784968e+01	-1.026691e+00	+6.867668e+01
