# Hz S RI R 50.000000
+3.000000e+07	+2.849617e-01	+3.345451e-02	+7.001250e-01	+8.864743e-01	+1.588734e+00	-5.742143e-01	+1.652503e+00	-3.198830e-01
+3.658863e+07	+3.308849e-01	+2.889097e-01	+7.217405e-01	+1.161715e+00	+1.874813e+00	-7.777446e-01	+1.807562e+00	-3.899614e-01
+4.317726e+07	+3.715202e-01	+1.708168e-01	+7.172495e-01	+1.296596e+00	+2.350015e+00	-1.015082e+00	+1.966823e+00	-5.609157e-01
+4.976589e+07	+3.811176e-01	+2.433006e-01	+7.216631e-01	+1.533854e+00	+2.931981e+00	-1.418300e+00	+2.095112e+00	-8.805483e-01
+5.635452e+07	+3.773539e-01	+1.817534e-01	+6.956734e-01	+1.746811e+00	+3.089451e+00	-2.022910e+00	+1.801216e+00	-1.389627e+00
+6.294314e+07	+3.166341e-01	+1.577037e-01	+6.695421e-01	+2.009534e+00	+2.002953e+00	-2.690400e+00	+7.471110e-01	-1.794042e+00
+6.953177e+07	+3.051622e-01	+1.652905e-01	+6.535755e-01	+2.257566e+00	+2.245910e+00	-2.680455e+00	+1.063286e+00	-2.062714e+00
+7.612040e+07	+2.836944e-01	+2.626471e-01	+6.603327e-01	+2.505680e+00	+1.716663e+00	-2.902018e+00	+6.473222e-01	-2.224530e+00
+8.270903e+07	+2.782322e-01	+3.661080e-01	+6.684467e-01	+2.733655e+00	+1.222346e+00	-3.031349e+00	+2.702783e-01	-2.241808e+00
+8.929766e+07	+2.759604e-01	+5.171783e-01	+6.709008e-01	-3.014754e+00	+9.464751e-01	-3.107796e+00	+6.393037e-02	-1.925743e+00
+9.588629e+07	+2.754794e-01	+5.414085e-01	+6.660214e-01	-3.119362e+00	+7.750563e-01	-3.136790e+00	+8.250939e-02	+5.375070e-01
+1.024749e+08	+2.766186e-01	+5.936082e-01	+6.589784e-01	-3.022548e+00	+6.640209e-01	+3.132936e+00	+1.843683e-01	+7.271466e-01
+1.090635e+08	+2.783600e-01	+6.319892e-01	+6.508286e-01	-2.789909e+00	+5.891447e-01	+3.131173e+00	+2.624850e-01	+8.000808e-01
+1.156522e+08	+2.791572e-01	+6.869923e-01	+6.444610e-01	-2.551368e+00	+5.452792e-01	-3.140514e+00	+3.255117e-01	+8.785950e-01
+1.222408e+08	+2.864320e-01	+7.834057e-01	+6.434032e-01	-2.310393e+00	+5.627578e-01	+2.975883e+00	+5.512442e-01	+1.084759e+00
+1.288294e+08	+2.876828e-01	+8.302932e-01	+6.479707e-01	-2.058414e+00	+5.070410e-01	-3.102262e+00	+4.378668e-01	+1.054160e+00
+1.354181e+08	+2.878953e-01	+8.764506e-01	+6.483431e-01	-1.819090e+00	+5.011748e-01	-2.745972e+00	+4.481309e-01	+1.110191e+00
+1.420067e+08	+3.124806e-01	+9.539696e-01	+6.713555e-01	-1.554140e+00	+5.117808e-01	-2.948076e+00	+5.203322e-01	+1.223335e+00
+1.485953e+08	+3.050810e-01	+1.013819e+00	+6.600240e-01	-1.319997e+00	+5.322358e-01	-3.037769e+00	+5.907140e-01	+1.330918e+00
+1.551839e+08	+3.031507e-01	+1.055732e+00	+6.570712e-01	-1.061621e+00	+5.648499e-01	-3.015591e+00	+6.707654e-01	+1.460004e+00
+1.617726e+08	+3.039523e-01	+1.058481e+00	+6.668313e-01	-8.170185e-01	+6.077319e-01	-2.946345e+00	+7.649195e-01	+1.618510e+00
+1.683612e+08	+3.212009e-01	+1.175755e+00	+6.943698e-01	-5.555425e-01	+6.681842e-01	-2.835244e+00	+8.847030e-01	+1.810760e+00
+1.749498e+08	+3.210685e-01	+1.217016e+00	+7.119565e-01	-3.173508e-01	+7.456010e-01	-2.630978e+00	+1.026180e+00	+2.081849e+00
+1.815385e+08	+3.151639e-01	+1.281769e+00	+7.185013e-01	-7.961339e-02	+8.514482e-01	-2.410246e+00	+1.174811e+00	+2.380913e+00
+1.881271e+08	+3.425473e-01	+1.294651e+00	+7.475031e-01	+8.594793e-02	+9.035209e-01	-2.132140e+00	+1.256132e+00	+2.747470e+00
+1.947157e+08	+3.275824e-01	+1.402301e+00	+7.417876e-01	+1.276707e-01	+8.644522e-01	-1.783277e+00	+1.184258e+00	-3.096498e+00
+2.013043e+08	+3.243881e-01	+1.459756e+00	+7.567688e-01	+3.279124e-01	+8.391813e-01	-1.651045e+00	+1.162052e+00	-3.049820e+00
+2.078930e+08	+3.201350e-01	+1.498318e+00	+7.599573e-01	+5.509135e-01	+7.494912e-01	-1.359868e+00	+1.032810e+00	-2.694028e+00
+2.144816e+08	+3.177108e-01	+1.521478e+00	+7.755898e-01	+7.653352e-01	+6.511066e-01	-1.121865e+00	+8.735054e-01	-2.407374e+00
+2.210702e+08	+3.172279e-01	+1.547101e+00	+7.857237e-01	+9.717365e-01	+5.784892e-01	-9.218917e-01	+7.092101e-01	-2.212312e+00
+2.276589e+08	+3.226606e-01	+1.573106e+00	+7.918973e-01	+1.175241e+00	+5.047821e-01	-8.013716e-01	+5.907769e-01	-1.993039e+00
+2.342475e+08	+3.192280e-01	+1.543517e+00	+8.007399e-01	+1.389979e+00	+4.610426e-01	-7.348127e-01	+5.138045e-01	-1.831536e+00
+2.408361e+08	+3.299995e-01	+1.632030e+00	+7.979325e-01	+1.597106e+00	+4.287295e-01	-6.219325e-01	+3.941990e-01	-1.720920e+00
+2.474247e+08	+2.815559e-01	+1.583127e+00	+7.860251e-01	+1.751351e+00	+4.111141e-01	-5.342257e-01	+2.865521e-01	-1.616232e+00
+2.540134e+08	+3.842597e-01	+1.667477e+00	+8.279726e-01	+1.986755e+00	+4.075770e-01	-4.728443e-01	+1.927988e-01	-1.470940e+00
+2.606020e+08	+4.172326e-01	+1.713578e+00	+8.266973e-01	+2.286468e+00	+4.166861e-01	-6.316138e-01	+7.928864e-02	+8.226393e-01
+2.671906e+08	+3.585419e-01	+1.642135e+00	+8.274215e-01	+2.446067e+00	+4.281254e-01	-3.932738e-01	+5.529466e-02	-5.728062e-01
+2.737793e+08	+3.661734e-01	+1.767855e+00	+8.317749e-01	+2.669363e+00	+4.523530e-01	-2.982157e-01	+5.077548e-02	-7.700500e-01
+2.803679e+08	+4.089865e-01	+1.820900e+00	+8.336302e-01	-3.022382e+00	+4.871146e-01	-2.118861e-01	+3.764684e-02	+1.187445e+00
+2.869565e+08	+3.758191e-01	+1.835170e+00	+8.175282e-01	+3.087773e+00	+5.358324e-01	-3.441748e-01	+1.165956e-01	+1.787945e+00
+2.935452e+08	+3.891681e-01	+1.867700e+00	+8.026224e-01	-3.109872e+00	+6.029028e-01	-3.321978e-01	+2.196183e-01	+2.006518e+00
+3.001338e+08	+3.906921e-01	+1.898762e+00	+7.991121e-01	-2.887627e+00	+6.982546e-01	-3.036595e-01	+3.465838e-01	+2.192589e+00
+3.067224e+08	+4.016643e-01	+1.879716e+00	+8.156753e-01	-2.654422e+00	+8.437097e-01	-2.585630e-01	+5.366809e-01	+2.350168e+00
+3.133110e+08	+4.077305e-01	+1.997988e+00	+7.840117e-01	-2.395556e+00	+1.087148e+00	-1.684885e-01	+8.331633e-01	+2.548231e+00
+3.198997e+08	+3.963090e-01	+2.209163e+00	+7.473400e-01	-2.131320e+00	+1.641717e+00	+7.287959e-02	+1.525747e+00	+2.957029e+00
+3.264883e+08	+4.876950e-01	+2.003923e+00	+8.755188e-01	-1.899646e+00	+1.847504e+00	-4.106295e-02	+1.787864e+00	+2.672528e+00
+3.330769e+08	+5.841814e-01	+2.235427e+00	+9.815405e-01	-1.530795e+00	+3.442764e+00	+2.591187e-01	+3.738391e+00	+3.029147e+00
+3.396656e+08	+5.598342e-01	+3.004995e+00	+8.612619e-01	-7.974853e-01	+5.660744e+00	+1.355966e+00	+6.727671e+00	-2.089072e+00
+3.462542e+08	+1.501825e-01	+2.997272e+00	+5.207608e-01	-9.265682e-01	+3.116080e+00	+2.200132e+00	+3.925240e+00	-1.179743e+00
+3.528428e+08	+2.070883e-01	+2.366881e+00	+5.722408e-01	-8.228435e-01	+1.952372e+00	+2.414909e+00	+2.580560e+00	-8.994246e-01
+3.594314e+08	+2.387207e-01	+2.288456e+00	+6.165892e-01	-6.239085e-01	+1.498422e+00	+2.463557e+00	+2.017617e+00	-7.657773e-01
+3.660201e+08	+2.798080e-01	+2.425566e+00	+6.772532e-01	-4.039619e-01	+1.281121e+00	+2.472080e+00	+1.735003e+00	-6.834247e-01
+3.726087e+08	+3.258622e-01	+2.521839e+00	+7.523514e-01	-1.610903e-01	+1.135763e+00	+2.455291e+00	+1.551077e+00	-6.121200e-01
+3.791973e+08	+3.016736e-01	+2.532783e+00	+7.281841e-01	+8.501618e-02	+1.065672e+00	+2.421483e+00	+1.452614e+00	-5.602157e-01
+3.857860e+08	+3.138312e-01	+2.576195e+00	+7.384631e-01	+7.733150e-02	+1.035923e+00	+2.360678e+00	+1.397402e+00	-5.353332e-01
+3.923746e+08	+3.409195e-01	+2.555499e+00	+7.389942e-01	+1.643698e-01	+8.536830e-01	+1.739784e+00	+1.007463e+00	-6.022213e-01
+3.989632e+08	+3.354509e-01	+2.634542e+00	+7.547407e-01	+4.090723e-01	+1.027863e+00	+2.112308e+00	+1.280657e+00	-5.810005e-01
+4.055518e+08	+3.378347e-01	+2.685861e+00	+7.643631e-01	+6.323550e-01	+1.164232e+00	+2.195250e+00	+1.411464e+00	-5.832333e-01
+4.121405e+08	+3.273285e-01	+2.598914e+00	+7.474510e-01	+8.768193e-01	+1.222578e+00	+2.046534e+00	+1.384052e+00	-6.591113e-01
+4.187291e+08	+3.500637e-01	+2.596582e+00	+7.223491e-01	+1.084555e+00	+1.269822e+00	+1.861593e+00	+1.328737e+00	-7.739189e-01
+4.253177e+08	+3.518912e-01	+2.654327e+00	+7.410624e-01	+1.344269e+00	+1.283942e+00	+1.491425e+00	+1.211407e+00	-9.115601e-01
+4.319064e+08	+3.513251e-01	+2.676976e+00	+7.472199e-01	+1.597660e+00	+1.255965e+00	+1.335432e+00	+9.941089e-01	-1.096574e+00
+4.384950e+08	+3.549168e-01	+2.837191e+00	+7.814411e-01	+1.841901e+00	+1.211560e+00	+9.998727e-01	+8.000759e-01	-1.221548e+00
+4.450836e+08	+3.412843e-01	+2.764782e+00	+7.820507e-01	+2.113069e+00	+1.130971e+00	+7.690254e-01	+5.672126e-01	-1.330157e+00
+4.516722e+08	+3.340791e-01	+2.777611e+00	+8.064804e-01	+2.343511e+00	+1.047421e+00	+6.553810e-01	+2.939124e-01	-1.350421e+00
+4.582609e+08	+3.344990e-01	+2.819912e+00	+8.495127e-01	+2.565809e+00	+1.013857e+00	+4.714594e-01	+8.094364e-02	+4.638866e-01
+4.648495e+08	+3.542131e-01	+2.850798e+00	+8.677071e-01	+2.793321e+00	+1.015750e+00	+6.607102e-01	+7.842411e-02	+5.843112e-03
+4.714381e+08	+3.467047e-01	+2.995130e+00	+9.073448e-01	+3.011149e+00	+1.033712e+00	+6.278734e-01	+1.644232e-01	+1.090387e+00
+4.780268e+08	+3.495818e-01	+3.113738e+00	+9.105207e-01	-3.001634e+00	+1.096671e+00	+5.409024e-01	+4.151368e-01	+1.292555e+00
+4.846154e+08	+3.665248e-01	-3.130465e+00	+9.233599e-01	-2.993048e+00	+1.163494e+00	+4.429909e-01	+6.678541e-01	+1.280788e+00
+4.912040e+08	+3.868474e-01	+3.049441e+00	+9.462758e-01	-2.828433e+00	+1.250672e+00	+2.669441e-01	+8.907357e-01	+1.203952e+00
+4.977926e+08	+4.043830e-01	+3.087700e+00	+9.738068e-01	-2.599865e+00	+1.329334e+00	+5.769303e-02	+1.114059e+00	+1.089790e+00
+5.043813e+08	+4.101284e-01	-3.140983e+00	+9.363591e-01	-2.425984e+00	+1.403570e+00	-2.682637e-01	+1.314073e+00	+8.492916e-01
+5.109699e+08	+4.242460e-01	+3.136177e+00	+9.621813e-01	-2.194191e+00	+1.373063e+00	-4.790818e-01	+1.426704e+00	+7.188488e-01
+5.175585e+08	+4.408156e-01	+3.110110e+00	+9.873356e-01	-1.989662e+00	+1.548408e+00	-1.236510e+00	+1.942030e+00	+3.916643e-01
+5.241472e+08	+4.435378e-01	+3.114784e+00	+9.873196e-01	-1.790328e+00	+1.280150e+00	-8.611994e-01	+1.538009e+00	+4.864291e-01
+5.307358e+08	+4.463584e-01	+3.109808e+00	+9.778118e-01	-1.590287e+00	+1.202989e+00	-8.665513e-01	+1.457797e+00	+5.262880e-01
+5.373244e+08	+4.510672e-01	+3.114684e+00	+9.672423e-01	-1.371607e+00	+1.172698e+00	-8.278552e-01	+1.461467e+00	+5.448551e-01
+5.439130e+08	+4.529144e-01	-3.078439e+00	+9.566938e-01	-1.123643e+00	+1.173962e+00	-9.213231e-01	+1.522851e+00	+5.633735e-01
+5.505017e+08	+4.484459e-01	-3.094063e+00	+9.510677e-01	-9.135430e-01	+1.212710e+00	-9.696857e-01	+1.642073e+00	+5.964149e-01
+5.570903e+08	+4.084478e-01	-3.117427e+00	+9.049924e-01	-6.943914e-01	+1.240837e+00	-1.008053e+00	+1.787981e+00	+6.193047e-01
+5.636789e+08	+4.684167e-01	+3.121850e+00	+9.429444e-01	-7.563441e-01	+1.442967e+00	-1.036942e+00	+2.106638e+00	+6.420018e-01
+5.702676e+08	+4.948167e-01	-3.138273e+00	+9.150502e-01	-1.681900e-01	+1.800144e+00	-9.853239e-01	+2.577194e+00	+7.441318e-01
+5.768562e+08	+4.408218e-01	+2.997498e+00	+8.101370e-01	-2.907654e-01	+2.585830e+00	-1.054431e+00	+3.540501e+00	+8.239381e-01
+5.834448e+08	+4.325420e-01	+2.315660e+00	+4.334063e-01	-5.925231e-01	+5.026812e+00	-8.641139e-01	+6.475951e+00	+1.088885e+00
+5.900334e+08	+1.298602e+00	+2.987550e+00	+1.517994e+00	-8.050464e-01	+1.054816e+01	+6.223314e-01	+1.267978e+01	+2.650307e+00
+5.966221e+08	+5.507382e-01	-2.676797e+00	+1.045077e+00	+2.378909e-01	+1.623740e+00	+1.719973e+00	+1.425552e+00	-2.128596e+00
+6.032107e+08	+5.275306e-01	-2.820084e+00	+9.434650e-01	+3.750278e-01	+1.976130e+00	+1.538952e+00	+2.040256e+00	-2.582935e+00
+6.097993e+08	+5.010381e-01	-2.819794e+00	+8.653180e-01	+6.080810e-01	+1.560692e+00	+1.512150e+00	+1.610058e+00	-2.678732e+00
+6.163880e+08	+4.488049e-01	-2.868287e+00	+8.074176e-01	+9.066715e-01	+1.054032e+00	+1.629542e+00	+9.632934e-01	-2.452001e+00
+6.229766e+08	+4.383500e-01	-2.717061e+00	+8.193613e-01	+1.162517e+00	+7.609037e-01	+1.672308e+00	+6.110927e-01	-2.303748e+00
+6.295652e+08	+4.261802e-01	-2.660607e+00	+8.157424e-01	+1.426264e+00	+6.441325e-01	+1.709037e+00	+4.014460e-01	-2.124359e+00
+6.361538e+08	+4.123113e-01	-2.616956e+00	+8.167893e-01	+1.684713e+00	+5.413381e-01	+1.752498e+00	+2.414665e-01	-1.958515e+00
+6.427425e+08	+3.949303e-01	-2.481355e+00	+8.332024e-01	+1.935061e+00	+4.710215e-01	+1.787396e+00	+1.225389e-01	-1.713044e+00
+6.493311e+08	+3.874011e-01	-2.442781e+00	+8.403857e-01	+2.171959e+00	+4.263633e-01	+1.826455e+00	+4.297833e-02	-8.358619e-01
+6.559197e+08	+3.795344e-01	-2.398071e+00	+8.537957e-01	+2.404956e+00	+4.133681e-01	+1.759353e+00	+1.732175e-01	+1.239039e+00
+6.625084e+08	+3.831361e-01	-2.421784e+00	+8.386009e-01	+2.625644e+00	+3.824531e-01	+1.951671e+00	+1.181890e-01	+9.831269e-01
+6.690970e+08	+3.699543e-01	-2.375178e+00	+8.274960e-01	-3.005931e+00	+3.684403e-01	+2.103023e+00	+1.597719e-01	+1.091584e+00
+6.756856e+08	+3.739899e-01	-2.318331e+00	+8.329551e-01	+3.133602e+00	+3.793943e-01	+2.083529e+00	+2.354139e-01	+1.264535e+00
+6.822742e+08	+3.682351e-01	-2.211662e+00	+8.415169e-01	-3.120414e+00	+4.004303e-01	+2.142581e+00	+3.159804e-01	+1.394339e+00
+6.888629e+08	+3.649872e-01	-2.171803e+00	+8.359484e-01	-2.928079e+00	+4.286116e-01	+2.175345e+00	+3.731955e-01	+1.517990e+00
+6.954515e+08	+3.695629e-01	-2.184568e+00	+8.225040e-01	-2.692741e+00	+4.785026e-01	+2.254441e+00	+4.939916e-01	+1.647249e+00
+7.020401e+08	+3.703490e-01	-2.150690e+00	+8.114386e-01	-2.467670e+00	+5.518292e-01	+2.348663e+00	+6.362112e-01	+1.788461e+00
+7.086288e+08	+3.740333e-01	-2.126551e+00	+8.042392e-01	-2.240380e+00	+6.530426e-01	+2.458364e+00	+8.000156e-01	+1.960596e+00
+7.152174e+08	+3.893421e-01	-2.093975e+00	+7.924302e-01	-2.008732e+00	+7.814032e-01	+2.711417e+00	+1.004859e+00	+2.179043e+00
+7.218060e+08	+3.983286e-01	-2.077521e+00	+8.106661e-01	-1.784663e+00	+9.429574e-01	+2.761313e+00	+1.193493e+00	+2.466202e+00
+7.283946e+08	+3.894100e-01	-2.070865e+00	+8.083871e-01	-1.594569e+00	+1.161489e+00	-3.110003e+00	+1.560798e+00	-3.075747e+00
+7.349833e+08	+4.327346e-01	-2.081409e+00	+8.148385e-01	-1.370932e+00	+1.158160e+00	-3.123849e+00	+1.536505e+00	+3.014072e+00
+7.415719e+08	+4.959738e-01	-1.869914e+00	+9.189315e-01	-1.156691e+00	+1.211545e+00	-2.813316e+00	+1.613740e+00	-2.919988e+00
+7.481605e+08	+5.042522e-01	-1.764924e+00	+9.492483e-01	-9.108808e-01	+1.117892e+00	-2.463623e+00	+1.505493e+00	-2.480522e+00
+7.547492e+08	+5.175318e-01	-1.737318e+00	+9.231499e-01	-6.946161e-01	+1.261100e+00	-2.325428e+00	+1.575732e+00	-2.393099e+00
+7.613378e+08	+4.835765e-01	-1.618701e+00	+9.540565e-01	-3.974243e-01	+8.590968e-01	-1.968880e+00	+1.038821e+00	-1.817843e+00
+7.679264e+08	+4.696063e-01	-1.555969e+00	+9.358877e-01	+8.664750e-02	+7.333947e-01	-1.859475e+00	+8.656779e-01	-1.661256e+00
+7.745151e+08	+4.757150e-01	-1.664388e+00	+9.270286e-01	-5.134128e-02	+6.477086e-01	-1.796568e+00	+7.440475e-01	-1.510005e+00
+7.811037e+08	+4.536162e-01	-1.645245e+00	+9.214361e-01	-2.638309e-02	+5.912759e-01	-1.790041e+00	+6.590477e-01	-1.396920e+00
+7.876923e+08	+4.138034e-01	-1.604371e+00	+9.081111e-01	+2.322596e-01	+5.616581e-01	-1.758360e+00	+5.741525e-01	-1.288000e+00
+7.942809e+08	+4.227429e-01	-1.559491e+00	+9.311032e-01	+4.646801e-01	+5.169831e-01	-1.985435e+00	+2.780982e-01	-1.021864e+00
+8.008696e+08	+4.036609e-01	-1.514700e+00	+8.683539e-01	+6.883216e-01	+5.571850e-01	-1.778782e+00	+4.266891e-01	-1.141098e+00
+8.074582e+08	+3.943248e-01	-1.501607e+00	+8.775411e-01	+9.220680e-01	+5.788117e-01	-1.701135e+00	+4.330213e-01	-1.086778e+00
+8.140468e+08	+3.643486e-01	-1.339768e+00	+8.301225e-01	+1.145167e+00	+5.911101e-01	-1.717203e+00	+3.500925e-01	-9.766620e-01
+8.206355e+08	+3.637273e-01	-1.403079e+00	+8.653101e-01	+1.377369e+00	+6.104261e-01	-1.750456e+00	+2.677280e-01	-8.695292e-01
+8.272241e+08	+3.498017e-01	-1.387991e+00	+8.698613e-01	+1.601094e+00	+6.504471e-01	-1.797768e+00	+1.799441e-01	-7.213791e-01
+8.338127e+08	+3.358165e-01	-1.335889e+00	+8.586475e-01	+1.821503e+00	+7.028724e-01	-1.855263e+00	+8.967989e-02	-2.448876e-01
+8.404013e+08	+3.146469e-01	-1.223890e+00	+8.454503e-01	+2.044236e+00	+7.626294e-01	-1.936101e+00	+9.328366e-02	+1.382253e+00
+8.469900e+08	+2.982379e-01	-1.222658e+00	+8.240926e-01	+2.262673e+00	+8.969426e-01	-1.987402e+00	+2.442969e-01	+1.846487e+00
+8.535786e+08	+2.595253e-01	-1.123885e+00	+7.911559e-01	+2.504841e+00	+1.074172e+00	-2.083969e+00	+4.740866e-01	+1.950321e+00
+8.601672e+08	+2.397407e-01	-9.735369e-01	+7.213837e-01	+2.746264e+00	+1.598638e+00	-2.216214e+00	+1.186091e+00	+1.925232e+00
+8.667559e+08	+2.485728e-01	-1.033625e+00	+7.474552e-01	-2.972544e+00	+1.382583e+00	-2.258597e+00	+8.859889e-01	+1.872585e+00
+8.733445e+08	+2.652857e-01	-7.230415e-01	+7.491478e-01	-3.012961e+00	+1.554602e+00	-2.339514e+00	+1.098513e+00	+1.779765e+00
+8.799331e+08	+3.073055e-01	-5.741249e-01	+7.453441e-01	-2.850030e+00	+2.017157e+00	-2.662764e+00	+1.770961e+00	+1.615305e+00
+8.865217e+08	+3.753922e-01	-4.810139e-01	+8.179341e-01	-2.552358e+00	+2.540867e+00	-3.068342e+00	+2.577181e+00	+1.299751e+00
+8.931104e+08	+4.332359e-01	-5.776414e-01	+9.069814e-01	-2.364975e+00	+2.705685e+00	+2.725446e+00	+3.072038e+00	+8.705196e-01
+8.996990e+08	+4.370516e-01	-9.159143e-01	+8.788880e-01	-2.387006e+00	+2.426931e+00	+2.271762e+00	+3.008103e+00	+4.754430e-01
+9.062876e+08	+4.086625e-01	-8.115120e-01	+8.489989e-01	-2.114416e+00	+2.046715e+00	+1.965505e+00	+2.684511e+00	+2.423633e-01
+9.128763e+08	+3.865832e-01	-7.571859e-01	+8.374155e-01	-1.835227e+00	+1.745684e+00	+1.747228e+00	+2.379596e+00	+1.015760e-01
+9.194649e+08	+3.619799e-01	-7.485088e-01	+7.821200e-01	-1.623753e+00	+1.557347e+00	+1.578464e+00	+2.174312e+00	+1.359887e-02
+9.260535e+08	+3.296217e-01	-6.502461e-01	+7.919059e-01	-1.304888e+00	+1.418138e+00	+7.488826e-01	+1.816466e+00	-3.524037e-01
+9.326421e+08	+3.118832e-01	-4.131876e-01	+8.176255e-01	-9.709550e-01	+1.349420e+00	+1.217284e+00	+1.891895e+00	-1.261254e-01
+9.392308e+08	+3.112475e-01	-5.381558e-01	+7.740393e-01	-7.897823e-01	+1.223750e+00	+1.269142e+00	+1.874584e+00	-1.289345e-01
+9.458194e+08	+3.056665e-01	-4.830604e-01	+7.974095e-01	-5.426977e-01	+1.171225e+00	+1.130599e+00	+1.679324e+00	-1.975674e-01
+9.524080e+08	+3.024236e-01	-3.836343e-01	+8.351975e-01	-2.924586e-01	+1.115580e+00	+9.870090e-01	+1.542816e+00	-2.757354e-01
+9.589967e+08	+2.927311e-01	-2.967205e-01	+8.946668e-01	-2.709091e-02	+1.076931e+00	+8.595253e-01	+1.428948e+00	-3.430861e-01
+9.655853e+08	+3.120594e-01	-2.001429e-01	+9.059143e-01	+1.923766e-01	+1.076130e+00	+7.537745e-01	+1.333385e+00	-3.895063e-01
+9.721739e+08	+3.355926e-01	-7.747847e-02	+9.464779e-01	+1.563177e-01	+1.153095e+00	+6.546921e-01	+1.342812e+00	-4.452825e-01
+9.787625e+08	+3.612797e-01	+1.302954e-02	+9.766023e-01	+1.972173e-01	+1.361006e+00	+6.118149e-01	+1.349114e+00	-5.801636e-01
+9.853512e+08	+3.939165e-01	+1.032083e-01	+1.022192e+00	+4.059890e-01	+1.602823e+00	+3.163067e-01	+1.463659e+00	-6.616522e-01
+9.919398e+08	+4.629898e-01	+1.018430e-01	+1.010737e+00	+5.742057e-01	+1.901575e+00	-6.085150e-02	+1.441570e+00	-9.486624e-01
+9.985284e+08	+5.002768e-01	-2.645296e-01	+9.032107e-01	+7.837473e-01	+1.568371e+00	-8.574647e-01	+6.761523e-01	-1.328875e+00
+1.005117e+09	+5.148638e-01	-8.007345e-02	+8.885232e-01	+9.849983e-01	+1.943540e+00	-6.111457e-01	+1.030208e+00	-1.669193e+00
+1.011706e+09	+4.959331e-01	-1.955279e-01	+8.720481e-01	+1.247451e+00	+1.570287e+00	-1.050668e+00	+5.947589e-01	-1.914911e+00
+1.018294e+09	+4.546291e-01	-2.184844e-01	+8.891024e-01	+1.483663e+00	+1.160278e+00	-1.315514e+00	+2.021199e-01	-1.738328e+00
+1.024883e+09	+4.285816e-01	-6.426330e-02	+9.083651e-01	+1.740707e+00	+9.376760e-01	-1.423152e+00	+1.057729e-01	-3.246920e-01
+1.031472e+09	+4.038645e-01	-1.789832e-02	+8.998039e-01	+1.939458e+00	+8.268671e-01	-1.503936e+00	+1.977369e-01	+3.383702e-01
+1.038060e+09	+3.891349e-01	-1.651083e-02	+8.885667e-01	+2.172065e+00	+6.984994e-01	-1.536623e+00	+2.909373e-01	+5.641297e-01
+1.044649e+09	+3.685786e-01	+6.444955e-02	+8.681127e-01	+2.405667e+00	+6.365797e-01	-1.569614e+00	+3.601472e-01	+6.893968e-01
+1.051237e+09	+3.747846e-01	+5.231499e-02	+8.542382e-01	+2.616920e+00	+5.990872e-01	-1.611334e+00	+4.298438e-01	+7.702682e-01
+1.057826e+09	+3.607590e-01	+8.057816e-02	+8.309038e-01	+2.843828e+00	+5.902664e-01	-1.768766e+00	+5.976963e-01	+9.439006e-01
+1.064415e+09	+3.583396e-01	+9.860668e-02	+8.122999e-01	-3.077964e+00	+5.561791e-01	-1.623271e+00	+5.306759e-01	+9.407340e-01
