# Hz S DB R 50.000000
+1.000000e+06	+1.129484e+01	+1.689150e+02	-3.112551e+01	-8.621701e+01	-3.284000e+01	-8.991202e+01	+8.163930e+00	+0.000000e+00
+8.688963e+06	+1.116710e+01	+1.743695e+02	-3.043842e+01	-8.692082e+01	-3.284000e+01	-9.008798e+01	+8.476246e+00	-9.853372e+00
+1.637793e+07	+1.091161e+01	+1.703226e+02	-3.131290e+01	-8.692082e+01	-3.284000e+01	-9.026393e+01	+8.851026e+00	-2.797654e+01
+2.406689e+07	+1.052839e+01	+1.662757e+02	-3.143783e+01	-8.709677e+01	-3.284000e+01	-9.026393e+01	+9.413196e+00	-4.733138e+01
+3.175585e+07	+1.014516e+01	+1.627566e+02	-3.150029e+01	-8.727273e+01	-3.284000e+01	-9.026393e+01	+1.003783e+01	-6.862170e+01
+3.944482e+07	+9.761935e+00	+1.601173e+02	-2.881437e+01	-8.709677e+01	-3.111548e+01	+9.043988e+01	+1.066246e+01	-9.272727e+01
+4.713378e+07	+9.314839e+00	+1.578299e+02	-3.200000e+01	-8.709677e+01	-3.098774e+01	+9.061584e+01	+1.097478e+01	-1.189443e+02
+5.482274e+07	+8.995484e+00	+1.562463e+02	-3.131290e+01	+8.744868e+01	-2.996581e+01	+9.043988e+01	+1.091232e+01	-1.463930e+02
+6.251171e+07	+8.676129e+00	+1.550147e+02	-3.200000e+01	+8.744868e+01	-3.226516e+01	-9.008798e+01	+1.035015e+01	+1.722581e+02
+7.020067e+07	+8.420645e+00	+1.539589e+02	-3.200000e+01	-8.727273e+01	-3.271226e+01	-8.991202e+01	+9.600587e+00	+1.720821e+02
+7.788963e+07	+8.229032e+00	+1.534311e+02	-3.200000e+01	-8.709677e+01	-3.284000e+01	-9.043988e+01	+8.788563e+00	+1.504399e+02
+8.557860e+07	+8.101290e+00	+1.529032e+02	-3.200000e+01	-8.604106e+01	-3.220129e+01	-9.061584e+01	+8.163930e+00	+1.303812e+02
+9.326756e+07	+8.037419e+00	+1.523754e+02	-3.200000e+01	-8.762463e+01	-3.284000e+01	-9.061584e+01	+7.726686e+00	+1.115543e+02
+1.009565e+08	+8.037419e+00	+1.521994e+02	-3.200000e+01	+8.868035e+01	-3.284000e+01	-9.061584e+01	+7.476833e+00	+9.343109e+01
+1.086455e+08	+8.101290e+00	+1.518475e+02	-3.200000e+01	+8.868035e+01	-3.284000e+01	-9.079179e+01	+7.539296e+00	+7.618768e+01
+1.163344e+08	+8.229032e+00	+1.514956e+02	-3.200000e+01	+8.850440e+01	-3.284000e+01	+9.096774e+01	+7.914076e+00	+5.806452e+01
+1.240234e+08	+8.484516e+00	+1.509677e+02	-3.200000e+01	-8.604106e+01	-3.284000e+01	+9.131965e+01	+8.476246e+00	+3.870968e+01
+1.317124e+08	+8.740000e+00	+1.500880e+02	-3.200000e+01	+8.850440e+01	-3.284000e+01	+9.114370e+01	+9.163343e+00	-1.917889e+01
+1.394013e+08	+9.123226e+00	+1.488563e+02	-3.200000e+01	+8.832845e+01	-3.277613e+01	+9.061584e+01	+9.912903e+00	+0.000000e+00
+1.470903e+08	+9.570323e+00	+1.472727e+02	-3.200000e+01	+8.832845e+01	-2.773032e+01	+8.885630e+01	+1.053754e+01	-9.501466e+00
+1.547793e+08	+1.001742e+01	+1.449853e+02	-3.200000e+01	+8.832845e+01	-3.060452e+01	+8.498534e+01	+1.084985e+01	-3.536657e+01
+1.624682e+08	+1.059226e+01	+1.416422e+02	-2.943900e+01	+8.780059e+01	-3.009355e+01	+7.478006e+01	+1.060000e+01	-6.193548e+01
+1.701572e+08	+1.110323e+01	+1.370674e+02	-3.200000e+01	+8.727273e+01	-3.028516e+01	-5.296188e+01	+9.975367e+00	-8.656891e+01
+1.778462e+08	+1.135871e+01	+1.309091e+02	-3.175015e+01	+8.639296e+01	-2.677226e+01	-6.475073e+01	+9.225806e+00	-1.083871e+02
+1.855351e+08	+1.148645e+01	+1.261584e+02	-3.106305e+01	+8.568915e+01	-3.213742e+01	-6.422287e+01	+8.538710e+00	-1.282698e+02
+1.932241e+08	+1.167806e+01	+1.208798e+02	-3.043842e+01	+8.463343e+01	-3.284000e+01	-7.601173e+01	+7.976540e+00	-1.465689e+02
+2.009130e+08	+1.174194e+01	+1.148974e+02	-3.037595e+01	+8.340176e+01	-3.284000e+01	-8.058651e+01	+7.539296e+00	+1.638123e+02
+2.086020e+08	+1.161419e+01	+1.085630e+02	-3.043842e+01	+8.568915e+01	-3.284000e+01	-8.252199e+01	+7.414370e+00	+1.771848e+02
+2.162910e+08	+1.135871e+01	+1.025806e+02	-3.031349e+01	-8.269795e+01	-3.284000e+01	-8.709677e+01	+7.414370e+00	+1.722581e+02
+2.239799e+08	+1.091161e+01	+9.730205e+01	-3.056334e+01	-8.058651e+01	-3.284000e+01	-9.026393e+01	+7.726686e+00	+1.553666e+02
+2.316689e+08	+1.046452e+01	+9.290323e+01	-3.025103e+01	-8.076246e+01	-3.284000e+01	-9.994135e+01	+8.413783e+00	+1.367155e+02
+2.393579e+08	+9.953548e+00	+8.903226e+01	-3.081320e+01	-9.360704e+01	-3.079613e+01	+1.226393e+02	+9.350733e+00	+1.157771e+02
+2.470468e+08	+9.378710e+00	+8.621701e+01	-3.175015e+01	-9.554252e+01	-3.213742e+01	+1.147214e+02	+1.035015e+01	+9.043988e+01
+2.547358e+08	+8.389971e+00	+8.428152e+01	-3.486000e+01	-8.832845e+01	-3.233930e+01	+1.002933e+02	+1.091067e+01	+6.158358e+01
+2.624247e+08	+7.859296e+00	+8.287390e+01	-3.486000e+01	+1.053959e+02	-2.696622e+01	+8.780059e+01	+1.117601e+01	+3.096774e+01
+2.701137e+08	+7.394956e+00	+8.234604e+01	-3.486000e+01	+1.024047e+02	-3.214029e+01	+8.692082e+01	+1.057900e+01	+0.000000e+00
+2.778027e+08	+7.063284e+00	+8.181818e+01	-3.486000e+01	+1.011730e+02	-3.187496e+01	-7.636364e+01	+9.384985e+00	-8.973607e+00
+2.854916e+08	+6.731613e+00	+8.164223e+01	-3.486000e+01	+9.695015e+01	-3.439566e+01	-7.548387e+01	+8.124633e+00	-3.202346e+01
+2.931806e+08	+6.466276e+00	+8.199413e+01	-3.486000e+01	+8.357771e+01	-3.486000e+01	-8.322581e+01	+7.063284e+00	-5.155425e+01
+3.008696e+08	+6.333607e+00	+8.234604e+01	-3.486000e+01	+7.196481e+01	-3.486000e+01	-8.322581e+01	+6.333607e+00	-6.862170e+01
+3.085585e+08	+6.333607e+00	+8.269795e+01	-3.486000e+01	+6.967742e+01	-3.486000e+01	+8.586510e+01	+5.869267e+00	-8.445748e+01
+3.162475e+08	+6.333607e+00	+8.304985e+01	-3.486000e+01	+6.826979e+01	-3.486000e+01	+8.480938e+01	+5.736598e+00	-9.976540e+01
+3.239365e+08	+6.399941e+00	+8.340176e+01	-3.486000e+01	+6.791789e+01	-3.486000e+01	-8.146628e+01	+5.869267e+00	-1.150733e+02
+3.316254e+08	+6.598944e+00	+8.375367e+01	-3.486000e+01	+6.774194e+01	-3.486000e+01	-8.129032e+01	+6.333607e+00	-1.305572e+02
+3.393144e+08	+6.864282e+00	+8.392962e+01	-3.486000e+01	+6.404692e+01	-3.486000e+01	-8.410557e+01	+7.063284e+00	-1.467449e+02
+3.470033e+08	+7.195953e+00	+8.357771e+01	-3.486000e+01	+6.950147e+01	-3.486000e+01	-8.692082e+01	+8.058299e+00	+1.646921e+02
+3.546923e+08	+7.660293e+00	+8.304985e+01	-3.486000e+01	+6.809384e+01	-3.459466e+01	-9.395894e+01	+9.185982e+00	+1.777126e+02
+3.623813e+08	+8.124633e+00	+8.199413e+01	-3.353331e+01	+6.000000e+01	-3.068094e+01	+1.041642e+02	+1.038000e+01	+1.581818e+02
+3.700702e+08	+8.721642e+00	+8.005865e+01	-3.180862e+01	+4.609971e+01	-3.200762e+01	+1.089150e+02	+1.097701e+01	+1.289736e+02
+3.777592e+08	+9.384985e+00	+7.724340e+01	-3.048194e+01	-2.868035e+01	-2.504252e+01	+9.976540e+01	+1.077801e+01	+9.818182e+01
+3.854482e+08	+9.981994e+00	+7.337243e+01	-2.981859e+01	-2.199413e+01	-3.207396e+01	+8.480938e+01	+9.849326e+00	+6.932551e+01
+3.931371e+08	+1.057900e+01	+6.862170e+01	-3.015026e+01	-3.413490e+01	-3.300264e+01	+7.302053e+01	+8.588974e+00	+4.398827e+01
+4.008261e+08	+1.104334e+01	+6.281525e+01	-3.028293e+01	-4.750733e+01	-3.340065e+01	+6.510264e+01	+7.262287e+00	+2.252199e+01
+4.085151e+08	+1.137501e+01	+5.595308e+01	-3.041560e+01	-5.507331e+01	-3.466100e+01	-5.894428e+01	+6.200938e+00	-3.519062e+00
+4.162040e+08	+1.150768e+01	+4.821114e+01	-3.048194e+01	-6.123167e+01	-3.419666e+01	+6.035191e+01	+5.471261e+00	+0.000000e+00
+4.238930e+08	+1.137501e+01	+4.064516e+01	-3.048194e+01	-7.038123e+01	-3.466100e+01	+5.753666e+01	+5.139589e+00	-1.196481e+01
+4.315819e+08	+1.104334e+01	+3.343109e+01	-3.015026e+01	-7.794721e+01	-3.486000e+01	+5.472141e+01	+5.073255e+00	-2.797654e+01
+4.392709e+08	+1.044633e+01	+2.692082e+01	-3.114528e+01	-9.958944e+01	-3.393132e+01	+6.879765e+01	+5.471261e+00	-4.398827e+01
+4.469599e+08	+9.716657e+00	+2.217009e+01	-3.233930e+01	+1.108504e+02	-2.882358e+01	-3.835777e+01	+6.267273e+00	-6.158358e+01
+4.546488e+08	+8.986979e+00	+1.847507e+01	-3.373232e+01	+1.069795e+02	-3.107894e+01	-3.184751e+01	+7.328622e+00	-8.111437e+01
+4.623378e+08	+8.323636e+00	+1.583578e+01	-3.452833e+01	+9.923754e+01	-3.061460e+01	-3.237537e+01	+8.456305e+00	-1.031085e+02
+4.700268e+08	+7.660293e+00	+1.390029e+01	-3.486000e+01	+9.413490e+01	-2.888991e+01	-3.941349e+01	+9.716657e+00	-1.289736e+02
+4.777157e+08	+7.063284e+00	+1.266862e+01	-3.486000e+01	+8.797654e+01	-2.743056e+01	-5.067449e+01	+1.044633e+01	+1.590616e+02
+4.854047e+08	+6.598944e+00	+1.214076e+01	-3.486000e+01	+7.882698e+01	-2.749689e+01	-4.434018e+01	+1.051267e+01	+1.590616e+02
+4.930936e+08	+6.134604e+00	+1.178886e+01	-3.486000e+01	+7.302053e+01	-2.709889e+01	-6.158358e+01	+9.451320e+00	+1.506158e+02
+5.007826e+08	+6.147214e+00	+1.178886e+01	-3.241648e+01	+5.929619e+01	-3.047302e+01	-9.008798e+01	+8.807390e+00	+1.265103e+02
+5.084716e+08	+5.883284e+00	+1.214076e+01	-3.209889e+01	-4.592375e+01	-3.139677e+01	-1.045161e+02	+7.537009e+00	+1.062757e+02
+5.161605e+08	+5.685337e+00	+1.214076e+01	-3.222592e+01	-2.991202e+01	-3.199062e+01	+1.119062e+02	+6.584223e+00	+8.920821e+01
+5.238495e+08	+5.553372e+00	+1.231672e+01	-3.197185e+01	-4.662757e+01	-3.311232e+01	+1.259824e+02	+5.821994e+00	+7.390029e+01
+5.315385e+08	+5.355425e+00	+1.266862e+01	-3.248000e+01	-5.366569e+01	-3.430000e+01	+9.765396e+01	+5.440880e+00	+5.912023e+01
+5.392274e+08	+5.355425e+00	+1.319648e+01	-3.248000e+01	+5.912023e+01	-3.430000e+01	+9.079179e+01	+5.313842e+00	+4.451613e+01
+5.469164e+08	+5.355425e+00	+1.372434e+01	-3.248000e+01	+6.105572e+01	-3.430000e+01	-8.357771e+01	+5.440880e+00	+2.938416e+01
+5.546054e+08	+5.421408e+00	+1.425220e+01	-3.248000e+01	+5.665689e+01	-3.430000e+01	-8.340176e+01	+5.758475e+00	-1.337243e+01
+5.622943e+08	+5.553372e+00	+1.442815e+01	-3.248000e+01	-5.331378e+01	-3.430000e+01	-8.533724e+01	+6.266628e+00	+0.000000e+00
+5.699833e+08	+5.751320e+00	+1.460411e+01	-3.216240e+01	-5.067449e+01	-3.430000e+01	+8.621701e+01	+7.028856e+00	-3.870968e+00
+5.776722e+08	+6.015249e+00	+1.460411e+01	-3.146370e+01	-5.190616e+01	-3.350821e+01	+8.762463e+01	+7.981642e+00	-2.604106e+01
+5.853612e+08	+6.015249e+00	+1.460411e+01	-3.063795e+01	-6.281525e+01	-3.284839e+01	+8.445748e+01	+8.934428e+00	-5.155425e+01
+5.930502e+08	+6.741056e+00	+1.354839e+01	-3.019331e+01	-7.565982e+01	-3.265044e+01	-8.304985e+01	+9.506100e+00	-8.129032e+01
+6.007391e+08	+7.136950e+00	+1.231672e+01	-3.000276e+01	-8.762463e+01	-3.284839e+01	-8.181818e+01	+9.315543e+00	-1.126100e+02
+6.084281e+08	+7.598827e+00	+1.055718e+01	-3.006628e+01	-9.888563e+01	-3.383812e+01	-8.252199e+01	+8.489795e+00	-1.414663e+02
+6.161171e+08	+8.126686e+00	+8.269795e+00	-2.955812e+01	-1.090909e+02	-3.397009e+01	-8.410557e+01	+7.409971e+00	+1.666276e+02
+6.238060e+08	+8.588563e+00	+5.630499e+00	-2.962164e+01	-1.170088e+02	-3.430000e+01	-8.586510e+01	+6.393666e+00	+1.771848e+02
+6.314950e+08	+8.984457e+00	+3.343109e+00	-2.955812e+01	-1.226393e+02	-3.357419e+01	-8.938416e+01	+5.694956e+00	+1.632845e+02
+6.391839e+08	+9.380352e+00	-2.111437e+00	-2.854182e+01	-1.182405e+02	-3.430000e+01	-9.378299e+01	+5.186804e+00	+1.456891e+02
+6.468729e+08	+9.710264e+00	-3.167155e+00	-2.828774e+01	+1.361877e+02	-3.430000e+01	-9.712610e+01	+4.996246e+00	+1.293255e+02
+6.545619e+08	+9.842229e+00	-6.862170e+00	-2.911349e+01	+1.402346e+02	-3.430000e+01	-9.906158e+01	+4.996246e+00	+1.129619e+02
+6.622508e+08	+9.908211e+00	-1.214076e+01	-2.746199e+01	+1.400587e+02	-3.370616e+01	-1.110264e+02	+5.440880e+00	+9.659824e+01
+6.699398e+08	+9.776246e+00	-1.759531e+01	-2.930405e+01	+1.374194e+02	-3.337625e+01	-1.148974e+02	+5.885513e+00	+7.935484e+01
+6.776288e+08	+9.512317e+00	-2.234604e+01	-3.019331e+01	+1.268622e+02	-3.278240e+01	+1.170088e+02	+6.584223e+00	+6.105572e+01
+6.853177e+08	+9.248387e+00	-2.656891e+01	-3.082850e+01	+1.217595e+02	-3.205660e+01	+1.173607e+02	+7.219413e+00	+4.117302e+01
+6.930067e+08	+8.918475e+00	-3.008798e+01	-3.127314e+01	+1.171848e+02	-3.199062e+01	+1.143695e+02	+7.854604e+00	-1.953079e+01
+7.006957e+08	+8.588563e+00	-3.307918e+01	-3.216240e+01	+1.106745e+02	-3.146276e+01	+1.177126e+02	+8.299238e+00	+0.000000e+00
+7.083846e+08	+8.258651e+00	-3.554252e+01	-3.165425e+01	-1.078592e+02	-3.159472e+01	+1.171848e+02	+8.489795e+00	-1.090909e+01
+7.160736e+08	+7.928739e+00	-3.730205e+01	-3.248000e+01	+1.094428e+02	-3.271642e+01	+1.066276e+02	+8.299238e+00	-3.589443e+01
+7.237625e+08	+7.598827e+00	-3.888563e+01	-3.248000e+01	+1.129619e+02	-3.350821e+01	+9.589443e+01	+7.854604e+00	-5.964809e+01
+7.314515e+08	+7.400880e+00	-3.994135e+01	-3.248000e+01	+1.112023e+02	-3.073695e+01	-8.885630e+01	+7.282933e+00	-8.234604e+01
+7.391405e+08	+7.202933e+00	-4.082111e+01	-3.248000e+01	+1.078592e+02	-3.430000e+01	-8.674487e+01	+6.711261e+00	-1.032845e+02
+7.468294e+08	+7.070968e+00	-4.152493e+01	-3.248000e+01	+1.038123e+02	-3.430000e+01	-8.780059e+01	+6.266628e+00	-1.233431e+02
+7.545184e+08	+7.004985e+00	-4.222874e+01	-3.248000e+01	+1.009971e+02	-3.430000e+01	-9.043988e+01	+6.012551e+00	-1.425220e+02
+7.622074e+08	+7.004985e+00	-4.275660e+01	-3.114610e+01	+9.976540e+01	-3.430000e+01	-9.360704e+01	+5.885513e+00	+1.622287e+02
+7.698963e+08	+7.004985e+00	-4.346041e+01	-3.248000e+01	+1.002933e+02	-3.403607e+01	+9.624633e+01	+5.949032e+00	+1.766569e+02
+7.775853e+08	+7.136950e+00	-4.434018e+01	-3.146370e+01	+9.853372e+01	-3.364018e+01	+9.624633e+01	+6.139589e+00	+1.675073e+02
+7.852742e+08	+7.268915e+00	-4.521994e+01	-3.241648e+01	+9.695015e+01	-3.311232e+01	+9.343109e+01	+6.457185e+00	+1.451613e+02
+7.929632e+08	+7.466862e+00	-4.645161e+01	-3.203537e+01	+9.290323e+01	-2.572229e+01	+9.360704e+01	+6.711261e+00	+1.224633e+02
+8.006522e+08	+8.051613e+00	-4.803519e+01	-3.084692e+01	+8.815249e+01	-3.279677e+01	+9.131965e+01	+7.389091e+00	+9.870968e+01
+8.083411e+08	+8.254839e+00	-5.014663e+01	-3.071883e+01	+8.604106e+01	-3.300000e+01	+8.956012e+01	+7.453138e+00	+7.513196e+01
+8.160301e+08	+8.525806e+00	-5.260997e+01	-3.020645e+01	+8.428152e+01	-3.300000e+01	+8.762463e+01	+7.389091e+00	+5.190616e+01
+8.237191e+08	+8.729032e+00	-5.542522e+01	-2.975812e+01	+8.129032e+01	-3.320323e+01	+8.692082e+01	+7.196950e+00	+2.991202e+01
+8.314080e+08	+8.864516e+00	-5.859238e+01	-2.943789e+01	+7.548387e+01	-3.435484e+01	+8.604106e+01	+6.940762e+00	-8.445748e+00
+8.390970e+08	+9.000000e+00	-6.211144e+01	-2.892551e+01	+6.633431e+01	-3.469355e+01	-8.199413e+01	+6.748622e+00	+0.000000e+00
+8.467860e+08	+9.135484e+00	-6.563050e+01	-2.834909e+01	+5.454545e+01	-3.510000e+01	-8.041056e+01	+6.620528e+00	-1.038123e+01
+8.544749e+08	+9.067742e+00	-6.932551e+01	-2.879742e+01	-4.504399e+01	-3.062903e+01	-8.410557e+01	+6.620528e+00	-2.885630e+01
+8.621639e+08	+9.067742e+00	-7.302053e+01	-2.943789e+01	-4.645161e+01	-3.510000e+01	-8.885630e+01	+6.812669e+00	-4.662757e+01
+8.698528e+08	+8.864516e+00	-7.653959e+01	-2.982217e+01	-5.560117e+01	-3.394839e+01	-8.956012e+01	+7.132903e+00	-6.492669e+01
+8.775418e+08	+8.729032e+00	-7.988270e+01	-2.777267e+01	+6.404692e+01	-3.496452e+01	-9.202346e+01	+7.581232e+00	-8.410557e+01
+8.852308e+08	+8.458065e+00	-8.269795e+01	-3.033455e+01	-6.158358e+01	-3.435484e+01	-9.466276e+01	+7.965513e+00	-1.046921e+02
+8.929197e+08	+8.187097e+00	-8.516129e+01	-2.822100e+01	-6.105572e+01	-3.306774e+01	+9.677419e+01	+8.349795e+00	-1.268622e+02
+9.006087e+08	+7.983871e+00	-8.727273e+01	-3.059073e+01	-6.246334e+01	-3.245806e+01	+9.870968e+01	+8.541935e+00	-1.509677e+02
+9.082977e+08	+7.712903e+00	-8.885630e+01	-3.084692e+01	-6.563050e+01	-3.205161e+01	+9.800587e+01	+8.477889e+00	+1.741935e+02
+9.159866e+08	+7.509677e+00	-9.026393e+01	-3.097501e+01	-6.774194e+01	-3.164516e+01	+9.554252e+01	+8.157654e+00	+1.697947e+02
+9.236756e+08	+7.306452e+00	-9.114370e+01	-3.187167e+01	-7.161290e+01	-3.117097e+01	+8.956012e+01	+7.645279e+00	+1.458651e+02
+9.313645e+08	+7.170968e+00	-9.184751e+01	-3.232000e+01	-7.108504e+01	-3.218710e+01	+8.410557e+01	+7.068856e+00	+1.238710e+02
+9.390535e+08	+7.103226e+00	-9.237537e+01	-3.206381e+01	-7.425220e+01	-3.232258e+01	+8.445748e+01	+6.492434e+00	+1.031085e+02
+9.467425e+08	+7.103226e+00	-9.272727e+01	-3.155144e+01	-7.689150e+01	-3.367742e+01	+8.164223e+01	+6.044106e+00	+8.340176e+01
+9.544314e+08	+7.103226e+00	-9.272727e+01	-3.225595e+01	-8.058651e+01	-3.415161e+01	-7.970674e+01	+5.851965e+00	+6.457478e+01
+9.621204e+08	+7.170968e+00	-9.307918e+01	-3.232000e+01	-8.551320e+01	-3.455806e+01	-7.953079e+01	+5.851965e+00	+4.592375e+01
+9.698094e+08	+7.306452e+00	-9.325513e+01	-3.232000e+01	-9.079179e+01	-3.449032e+01	-8.287390e+01	+6.044106e+00	+2.709677e+01
+9.774983e+08	+7.577419e+00	-9.360704e+01	-3.232000e+01	+9.413490e+01	-3.469355e+01	-8.428152e+01	+6.428387e+00	-7.038123e+00
+9.851873e+08	+7.848387e+00	-9.413490e+01	-3.232000e+01	+9.519062e+01	-3.374516e+01	-8.551320e+01	+7.132903e+00	+0.000000e+00
+9.928763e+08	+8.187097e+00	-9.483871e+01	-3.225595e+01	+9.395894e+01	-3.354194e+01	-8.780059e+01	+7.837419e+00	-1.601173e+01
+1.000565e+09	+8.593548e+00	-9.607038e+01	-3.199977e+01	+9.237537e+01	-3.245806e+01	-9.008798e+01	+8.541935e+00	-4.117302e+01
+1.008254e+09	+9.067742e+00	-9.765396e+01	-3.007836e+01	+9.026393e+01	-3.218710e+01	+9.167155e+01	+8.990264e+00	-6.739003e+01
+1.015943e+09	+9.609677e+00	-9.994135e+01	-3.116716e+01	+8.762463e+01	-3.015484e+01	+9.219941e+01	+9.054311e+00	-9.448680e+01
+1.023632e+09	+1.015161e+01	-1.027566e+02	-3.180762e+01	+8.463343e+01	-3.171290e+01	+9.131965e+01	+8.670029e+00	-1.203519e+02
+1.031321e+09	+1.076129e+01	-1.068035e+02	-3.027050e+01	+8.111437e+01	-3.239032e+01	+8.973607e+01	+7.965513e+00	-1.441056e+02
+1.039010e+09	+1.123548e+01	-1.115543e+02	-2.950194e+01	+7.741935e+01	-3.266129e+01	+8.797654e+01	+7.196950e+00	+1.659238e+02
+1.046699e+09	+1.170968e+01	-1.173607e+02	-2.905361e+01	+7.390029e+01	-3.306774e+01	+8.762463e+01	+6.556481e+00	+1.757771e+02
+1.054388e+09	+1.198065e+01	-1.240469e+02	-2.873337e+01	+7.302053e+01	-3.340645e+01	+8.692082e+01	+6.044106e+00	+1.685630e+02
+1.062077e+09	+1.211613e+01	-1.314370e+02	-2.834909e+01	+7.108504e+01	-3.381290e+01	-8.692082e+01	+5.723871e+00	+1.518475e+02
+1.069766e+09	+1.198065e+01	-1.388270e+02	-2.834909e+01	+6.879765e+01	-3.320323e+01	-8.656891e+01	+5.659824e+00	+1.353079e+02
+1.077455e+09	+1.164194e+01	-1.456891e+02	-2.854123e+01	+6.756598e+01	-3.381290e+01	-8.639296e+01	+5.787918e+00	+1.189443e+02
+1.085144e+09	+1.110000e+01	-1.518475e+02	-2.879742e+01	+6.527859e+01	-3.415161e+01	-8.744868e+01	+6.108152e+00	+1.020528e+02
+1.092833e+09	+1.055806e+01	-1.571261e+02	-2.918170e+01	-6.439883e+01	-3.272903e+01	-8.938416e+01	+6.748622e+00	+8.375367e+01
+1.100522e+09	+1.031748e+01	-1.611730e+02	-3.005226e+01	+6.633431e+01	-3.308205e+01	-9.131965e+01	+7.816540e+00	+6.351906e+01
+1.108211e+09	+9.706217e+00	-1.641642e+02	-3.064293e+01	+6.404692e+01	-3.179161e+01	-9.343109e+01	+8.669736e+00	+3.994135e+01
+1.115900e+09	+9.162874e+00	-1.660997e+02	-3.090545e+01	+6.387097e+01	-3.009367e+01	+9.747801e+01	+9.326041e+00	-1.231672e+01
+1.123589e+09	+8.619531e+00	-1.673314e+02	-3.123361e+01	+6.334311e+01	-3.097660e+01	+9.730205e+01	+9.522933e+00	+0.000000e+00
+1.131278e+09	+8.144106e+00	-1.682111e+02	-3.116798e+01	+6.211144e+01	-3.063701e+01	-9.466276e+01	+9.129150e+00	-2.604106e+01
+1.138967e+09	+7.736598e+00	-1.685630e+02	-3.129924e+01	+6.105572e+01	-3.179161e+01	-9.360704e+01	+8.275953e+00	-5.348974e+01
+1.146656e+09	+7.397009e+00	-1.685630e+02	-3.195554e+01	+5.894428e+01	-2.486399e+01	-9.395894e+01	+7.291496e+00	-7.706745e+01
+1.154344e+09	+7.125337e+00	-1.685630e+02	-3.234933e+01	+5.824047e+01	-3.274246e+01	+9.870968e+01	+6.372669e+00	-9.782991e+01
+1.162033e+09	+6.989501e+00	-1.685630e+02	-3.221806e+01	-5.806452e+01	-3.328581e+01	+1.017009e+02	+5.650733e+00	-1.166569e+02
+1.169722e+09	+6.853666e+00	-1.685630e+02	-3.241496e+01	-5.806452e+01	-2.778446e+01	+9.906158e+01	+5.256950e+00	-1.339003e+02
+1.177411e+09	+6.785748e+00	-1.682111e+02	-3.234933e+01	-5.788856e+01	-3.362540e+01	+9.782991e+01	+5.060059e+00	-1.511437e+02
+1.185100e+09	+6.717830e+00	-1.680352e+02	-3.234933e+01	-5.876833e+01	-3.403290e+01	+9.307918e+01	+5.125689e+00	+1.673314e+02
+1.192789e+09	+6.785748e+00	-1.675073e+02	-3.149613e+01	-5.912023e+01	-3.362540e+01	+8.885630e+01	+5.519472e+00	+1.752493e+02
+1.200478e+09	+6.921584e+00	-1.671554e+02	-3.228370e+01	-5.947214e+01	-3.382915e+01	-8.604106e+01	+6.110147e+00	+1.697947e+02
+1.208167e+09	+7.125337e+00	-1.668035e+02	-3.228370e+01	-6.017595e+01	-3.342164e+01	-8.498534e+01	+7.028974e+00	+1.527273e+02
