# Hz S DB R 50.000000
+1.000000e+06	-1.651579e+01	+9.706818e+01	-4.804770e+01	-8.685874e+01	-4.083611e+01	-8.500689e+01	-1.520285e-01	+1.610389e-02
+8.688963e+06	-8.608783e-03	-1.790016e+02	-4.213911e+01	-7.413978e+01	-4.064680e+01	-8.741926e+01	+1.748308e-01	+1.137753e+00
+1.637793e+07	+2.693349e-02	-1.782154e+02	-4.270537e+01	-5.449669e+01	-4.093712e+01	-8.244154e+01	+5.643184e-01	+1.618921e+00
+2.406689e+07	+5.328402e-03	-1.773851e+02	-4.226897e+01	-3.651762e+01	-4.133057e+01	-7.577003e+01	+9.817592e-01	+1.985628e+00
+3.175585e+07	-2.003364e-02	-1.764873e+02	-4.178766e+01	-1.932332e+01	-4.190630e+01	-6.673270e+01	+1.333171e+00	+2.964156e+00
+3.944482e+07	+5.487645e-03	-1.754709e+02	-3.851666e+01	-2.872315e+00	-4.077610e+01	+1.259405e+02	+1.595110e+00	+4.087227e+00
+4.713378e+07	-7.540123e-03	-1.745696e+02	-4.113529e+01	+1.162553e+01	-4.124421e+01	+1.410371e+02	+1.395168e+00	+6.219611e+00
+5.482274e+07	+4.757039e-02	-1.733861e+02	-4.001997e+01	-1.599347e+02	-4.052704e+01	+1.567174e+02	+8.694937e-01	+7.667021e+00
+6.251171e+07	+5.374966e-02	-1.724165e+02	-4.033360e+01	-1.466294e+02	-4.274041e+01	-7.343547e+00	+1.778969e-01	-3.780606e+00
+7.020067e+07	+1.424188e-02	-1.719131e+02	-4.020084e+01	+5.230998e+01	-4.325309e+01	+4.876598e+00	-1.024696e+00	+7.170527e+00
+7.788963e+07	+3.755421e-02	-1.707806e+02	-4.004487e+01	+6.601686e+01	-4.316162e+01	+1.524789e+01	-2.037203e+00	+6.586903e+00
+8.557860e+07	+8.183903e-02	-1.698598e+02	-3.996648e+01	+8.016029e+01	-4.230519e+01	+2.201933e+01	-2.806338e+00	+7.084363e+00
+9.326756e+07	+6.497415e-02	-1.692325e+02	-4.003258e+01	+9.664107e+01	-4.281300e+01	+2.943548e+01	-3.290976e+00	+8.858628e+00
+1.009565e+08	+5.702049e-02	-1.682747e+02	-3.996703e+01	-8.620841e+01	-4.272103e+01	+3.645659e+01	-3.423108e+00	+1.112171e+01
+1.086455e+08	-1.541090e-02	-1.673905e+02	-4.021798e+01	-7.376021e+01	-4.266873e+01	+4.307351e+01	-3.070851e+00	+1.390201e+01
+1.163344e+08	-3.594755e-03	-1.666008e+02	-4.042112e+01	-5.975310e+01	-4.272225e+01	-1.277231e+02	-2.253851e+00	+1.580422e+01
+1.240234e+08	+1.396401e-02	-1.656645e+02	-4.066854e+01	+1.405653e+02	-4.284696e+01	-1.189465e+02	-1.205433e+00	+1.621621e+01
+1.317124e+08	-2.981308e-02	-1.647525e+02	-4.057222e+01	-2.994013e+01	-4.339631e+01	-1.022508e+02	-5.247839e-01	-1.693650e+01
+1.394013e+08	-1.137272e-02	-1.639184e+02	-4.090437e+01	-1.577926e+01	-4.320467e+01	-9.423378e+01	+7.215796e-01	+4.522549e+00
+1.470903e+08	+6.738303e-02	-1.628970e+02	-4.100352e+01	-1.072874e+00	-3.804478e+01	-9.292898e+01	+1.943515e+00	+2.077387e+01
+1.547793e+08	+5.641952e-02	-1.622225e+02	-4.156752e+01	+1.454149e+01	-4.107162e+01	-8.205070e+01	+2.249920e+00	+2.436479e+01
+1.624682e+08	+1.185367e-01	-1.622102e+02	-3.929707e+01	+2.899223e+01	-4.077054e+01	-7.614226e+01	+2.026577e+00	+2.569264e+01
+1.701572e+08	+4.267337e-01	-1.668539e+02	-4.211699e+01	+4.207447e+01	-4.063255e+01	+1.721089e+02	+1.725248e+00	+2.692301e+01
+1.778462e+08	-1.319205e-01	-1.607018e+02	-4.253132e+01	+6.192968e+01	-3.675165e+01	+1.711640e+02	+9.408448e-01	+2.591728e+01
+1.855351e+08	-2.064327e-01	-1.591192e+02	-4.200710e+01	+7.856591e+01	-4.144191e+01	-1.797639e+02	+1.309307e-01	+2.513904e+01
+1.932241e+08	-1.442849e-01	-1.574859e+02	-4.154963e+01	+8.204204e+01	-4.158710e+01	+1.743372e+02	-3.293347e-01	+2.508724e+01
+2.009130e+08	-7.235880e-02	-1.559856e+02	-4.206528e+01	+9.344596e+01	-4.117714e+01	+1.758122e+02	-5.423690e-01	-1.603450e+01
+2.086020e+08	-2.440645e-02	-1.550552e+02	-4.182305e+01	+1.148204e+02	-4.109514e+01	-1.791694e+02	-8.197870e-01	+1.325832e+01
+2.162910e+08	+8.831084e-02	-1.542071e+02	-4.021128e+01	-3.251862e+01	-4.100516e+01	-1.761627e+02	-6.325942e-01	+2.829615e+01
+2.239799e+08	+6.033475e-02	-1.535336e+02	-4.139165e+01	-1.479796e+01	-4.117105e+01	-1.730589e+02	-2.897562e-01	+3.030334e+01
+2.316689e+08	+1.578695e-01	-1.525729e+02	-4.079139e+01	+2.744734e+00	-4.168764e+01	-1.754094e+02	+2.307324e-01	+3.179048e+01
+2.393579e+08	+2.256354e-01	-1.522334e+02	-4.101192e+01	+7.362056e+00	-4.040030e+01	+5.656758e+01	+6.532886e-01	+3.349894e+01
+2.470468e+08	+2.022793e-01	-1.518133e+02	-4.155099e+01	+2.261494e+01	-4.273657e+01	+6.171654e+01	+6.821886e-01	+3.391212e+01
+2.547358e+08	+9.991603e-02	-1.511222e+02	-4.388063e+01	+4.624181e+01	-4.378074e+01	+6.186300e+01	+1.401558e-01	+3.365247e+01
+2.624247e+08	-4.835943e-03	-1.500871e+02	-4.322920e+01	-1.004371e+02	-3.817128e+01	+6.244244e+01	-1.939778e-02	+2.273438e+01
+2.701137e+08	-1.591503e-02	-1.487248e+02	-4.223085e+01	-8.937495e+01	-4.320885e+01	+7.908120e+01	-1.201009e+00	+1.748421e+01
+2.778027e+08	-3.375420e+00	+2.346578e+01	-4.470355e+01	-1.017984e+02	-4.300445e+01	-6.624341e+01	-2.890924e+00	+2.668399e+01
+2.854916e+08	-3.798612e+00	+2.832955e+01	-4.456670e+01	-8.836232e+01	-4.461880e+01	-7.081840e+01	-4.202455e+00	+2.537415e+01
+2.931806e+08	-4.156641e+00	+3.280960e+01	-4.452133e+01	-9.654652e+01	-4.432729e+01	-7.238755e+01	-5.212811e+00	+2.697876e+01
+3.008696e+08	-4.333225e+00	+3.731767e+01	-4.452627e+01	-9.255950e+01	-4.370845e+01	-6.598277e+01	-5.590245e+00	+3.137076e+01
+3.085585e+08	-4.421443e+00	+4.181967e+01	-4.460271e+01	-7.862833e+01	-4.319749e+01	+1.089032e+02	-5.370223e+00	+3.688439e+01
+3.162475e+08	-4.406206e+00	+4.625810e+01	-4.467068e+01	-6.345934e+01	-4.272407e+01	+1.138292e+02	-4.431827e+00	+4.146009e+01
+3.239365e+08	-4.283493e+00	+4.993874e+01	-4.472829e+01	-4.809219e+01	-4.292671e+01	-4.447584e+01	-3.375843e+00	+4.098402e+01
+3.316254e+08	-1.235434e-01	-1.412255e+02	-4.099982e+01	-3.780860e+01	-4.255374e+01	-3.759916e+01	-2.092894e+00	+4.012800e+01
+3.393144e+08	-7.052223e-02	-1.404443e+02	-4.135837e+01	-3.002798e+01	-4.251724e+01	-3.509542e+01	-5.081495e-01	+3.742312e+01
+3.470033e+08	-1.029515e-01	-1.398271e+02	-4.232287e+01	-1.072602e+01	-4.390895e+01	-2.706378e+01	-1.285663e-01	+8.972537e+00
+3.546923e+08	-2.244879e-02	-1.392338e+02	-4.243723e+01	-1.664779e+00	-4.305314e+01	-2.286085e+01	+1.958486e+00	+4.691406e+01
+3.623813e+08	-9.491040e-02	-1.384901e+02	-4.163140e+01	+4.285148e+00	-4.044823e+01	-1.698682e+02	+2.109854e+00	+5.599703e+01
+3.700702e+08	-1.558318e-02	-1.377341e+02	-4.047042e+01	+6.674207e+00	-4.302301e+01	-1.478558e+02	+1.391634e+00	+5.768841e+01
+3.777592e+08	+1.267706e-02	-1.374444e+02	-3.978973e+01	-5.245999e+01	-3.631920e+01	-1.391430e+02	+6.861453e-01	+5.601698e+01
+3.854482e+08	-6.926824e-04	-1.369125e+02	-3.971253e+01	-3.729899e+01	-4.279582e+01	-1.391451e+02	+1.160602e-02	+5.298127e+01
+3.931371e+08	+8.448259e-02	-1.363195e+02	-4.057840e+01	-3.824424e+01	-4.230438e+01	-1.416795e+02	+1.154588e-01	+4.474125e+01
+4.008261e+08	-2.969915e-01	-1.313731e+02	-4.130801e+01	-2.994890e+01	-4.121945e+01	-1.468001e+02	-3.281481e-02	+3.345051e+01
+4.085151e+08	+2.251882e-01	-1.368073e+02	-4.101465e+01	-1.988229e+01	-4.238084e+01	+9.820498e+01	-1.096839e+00	+2.377563e+01
+4.162040e+08	+3.766654e-01	-1.369827e+02	-4.107516e+01	-6.770318e+00	-4.190359e+01	-1.337615e+02	-1.958709e+00	+4.772145e+01
+4.238930e+08	+5.084835e-01	-1.356284e+02	-4.067442e+01	+4.184659e+00	-4.209385e+01	-1.208014e+02	-1.919402e+00	+5.592882e+01
+4.315819e+08	+6.288426e-01	-1.347911e+02	-3.995753e+01	+1.620490e+01	-4.200568e+01	-1.292165e+02	-1.461673e+00	+5.874080e+01
+4.392709e+08	+6.209939e-01	-1.346193e+02	-4.039445e+01	+1.341976e+01	-4.088501e+01	-1.101070e+02	-6.024343e-01	+6.181970e+01
+4.469599e+08	+6.018380e-01	-1.337682e+02	-4.079473e+01	-1.187444e+02	-3.598692e+01	+1.498695e+02	+3.688113e-01	+6.292083e+01
+4.546488e+08	+5.299352e-01	-1.330643e+02	-4.148025e+01	-1.071023e+02	-3.892243e+01	+1.630002e+02	+9.599463e-01	+6.337846e+01
+4.623378e+08	+8.579804e-01	-1.319512e+02	-4.147045e+01	-1.019984e+02	-4.058055e+01	+1.753387e+02	-3.420180e-02	+6.503964e+01
+4.700268e+08	+4.946187e-01	-1.314219e+02	-4.172805e+01	-9.041751e+01	-4.012889e+01	-1.769664e+02	-6.829363e-01	+5.156954e+01
+4.777157e+08	+2.033873e-01	-1.310023e+02	-4.161982e+01	-7.114508e+01	-3.929213e+01	-1.591603e+02	-1.593153e+00	+1.859711e+01
+4.854047e+08	+2.568791e-01	-1.296199e+02	-4.094015e+01	-8.014906e+01	-3.915308e+01	-1.478778e+02	-2.385684e+00	+3.390941e+01
+4.930936e+08	+9.730683e-01	-1.613528e+02	-3.942198e+01	-8.075418e+01	-3.742115e+01	-1.586346e+02	-3.376914e+00	+4.487508e+01
+5.007826e+08	+7.579912e-01	-1.619840e+02	-3.736879e+01	-8.184189e+01	-4.011216e+01	-1.748976e+02	-4.194246e+00	+4.545145e+01
+5.084716e+08	+3.378962e-01	-1.625829e+02	-3.696804e+01	-1.749875e+02	-4.002083e+01	+1.786493e+02	-4.844700e+00	+4.796588e+01
+5.161605e+08	+3.341197e-02	-1.620399e+02	-3.714240e+01	-1.470622e+02	-3.968710e+01	+4.233225e+01	-4.812670e+00	+5.310046e+01
+5.238495e+08	-1.888633e-01	-1.614558e+02	-3.682397e+01	-1.513560e+02	-4.017108e+01	+6.342439e+01	-4.453327e+00	+5.822907e+01
+5.315385e+08	-5.825316e-01	-1.609469e+02	-3.733005e+01	-1.461202e+02	-4.116401e+01	+4.223410e+01	-3.817792e+00	+5.985713e+01
+5.392274e+08	-7.696800e-01	-1.606827e+02	-3.762859e+01	-2.242884e+01	-4.015169e+01	+3.756222e+01	-2.431578e+00	+5.261942e+01
+5.469164e+08	-1.145246e+00	-1.599787e+02	-3.771458e+01	-6.017586e+00	-4.015686e+01	-1.311165e+02	-1.673079e+00	+5.401385e+01
+5.546054e+08	-1.288257e+00	-1.590520e+02	-3.824526e+01	-2.124821e-01	-4.129630e+01	-1.231516e+02	-1.136645e+00	+2.902804e+01
+5.622943e+08	-2.054252e-01	-1.228148e+02	-3.686417e+01	-9.385579e+01	-4.003946e+01	-1.111584e+02	+7.736893e-01	+6.646740e+01
+5.699833e+08	-2.139272e-01	-1.217972e+02	-3.651517e+01	-7.929790e+01	-4.035983e+01	+7.340067e+01	+1.495441e+00	+8.678284e+01
+5.776722e+08	-2.391344e-01	-1.205476e+02	-3.629852e+01	-7.685457e+01	-4.085310e+01	+7.584754e+01	+1.246739e+00	+8.721877e+01
+5.853612e+08	-6.044063e-01	-1.182662e+02	-3.619009e+01	-8.509715e+01	-4.146316e+01	+8.291561e+01	+9.180550e-01	+8.575621e+01
+5.930502e+08	-1.840078e-01	-1.179687e+02	-3.649907e+01	-8.430236e+01	-4.162774e+01	-7.059663e+01	+9.073490e-01	+8.086325e+01
+6.007391e+08	-1.334751e-01	-1.170840e+02	-3.713558e+01	-8.118872e+01	-4.126592e+01	-5.500222e+01	+1.068659e+00	+7.653686e+01
+6.084281e+08	-1.424444e-01	-1.163527e+02	-3.778762e+01	-7.399868e+01	-4.337689e+01	-3.705007e+01	-9.538922e-01	+6.897348e+01
+6.161171e+08	-3.185223e-02	-1.154624e+02	-3.780235e+01	-6.452947e+01	-4.330531e+01	-1.567618e+01	-1.593165e+00	+4.111719e+01
+6.238060e+08	-4.319469e-03	-1.143055e+02	-3.812719e+01	-5.751607e+01	-4.197100e+01	-2.289156e+01	-1.389058e+00	+7.181346e+01
+6.314950e+08	-2.392664e-01	-1.178445e+02	-3.838205e+01	-4.273107e+01	-4.077297e+01	-1.969507e+01	-1.475308e+00	+7.803287e+01
+6.391839e+08	+7.390349e-03	-1.118895e+02	-3.747806e+01	-2.219734e+01	-4.092819e+01	-1.697423e+01	-1.287465e+00	+7.997587e+01
+6.468729e+08	+1.585149e-01	-1.077507e+02	-3.718301e+01	-1.096908e+02	-4.052456e+01	-1.311577e+01	-8.839751e-01	+8.246723e+01
+6.545619e+08	+1.438114e-01	-1.055184e+02	-3.818429e+01	-1.029571e+02	-4.038606e+01	-8.087309e+00	-5.670028e-01	+8.584890e+01
+6.622508e+08	+1.627859e-01	-1.060265e+02	-3.636461e+01	-6.887094e+01	-4.040271e+01	-1.303960e+01	-2.924366e-01	+8.479082e+01
+6.699398e+08	+1.188392e-01	-1.051528e+02	-3.745425e+01	-5.579834e+01	-4.030436e+01	-1.048576e+01	+2.554480e-03	+7.898319e+01
+6.776288e+08	+5.768146e-02	-1.040241e+02	-3.793673e+01	-5.274112e+01	-3.979450e+01	-1.320127e+02	+5.348811e-01	+7.677731e+01
+6.853177e+08	+4.451003e-02	-1.029914e+02	-3.834556e+01	-5.103460e+01	-3.986730e+01	-1.222379e+02	+2.097080e-01	+7.804249e+01
+6.930067e+08	+4.849980e-03	-1.019534e+02	-3.939024e+01	-4.158317e+01	-4.142925e+01	-1.096263e+02	-7.799859e-01	+4.332121e+01
+7.006957e+08	-4.898440e-02	-1.006269e+02	-3.943608e+01	-3.174911e+01	-4.047244e+01	-1.011682e+02	-4.146909e-01	+8.004880e+01
+7.083846e+08	-5.507910e-03	-9.988776e+01	-3.857819e+01	+1.249781e+02	-4.045859e+01	-9.106861e+01	-5.103832e-01	+9.065837e+01
+7.160736e+08	-6.444370e-02	-9.871565e+01	-3.940247e+01	-3.032057e+00	-4.154652e+01	-8.301294e+01	-9.409490e-01	+8.955463e+01
+7.237625e+08	-1.468136e-01	-9.755861e+01	-3.907952e+01	+3.202335e-01	-4.207932e+01	-9.164403e+01	-1.315046e+00	+8.992703e+01
+7.314515e+08	-1.491681e-01	-9.639084e+01	-3.946045e+01	+2.894392e+01	-3.863638e+01	+9.239516e+01	-1.385972e+00	+8.922686e+01
+7.391405e+08	-1.475333e-01	-9.526549e+01	-3.950820e+01	+4.230773e+01	-4.271417e+01	+1.073582e+02	-1.960760e+00	+7.941937e+01
+7.468294e+08	-1.274991e-01	-9.407259e+01	-3.940593e+01	+5.392155e+01	-4.242703e+01	+1.154133e+02	-1.614629e+00	+8.241712e+01
+7.545184e+08	-1.099579e-01	-9.327365e+01	-3.928057e+01	+6.616812e+01	-4.221963e+01	+1.220950e+02	-1.271278e+00	+8.544993e+01
+7.622074e+08	-1.209511e-01	-9.223120e+01	-3.764514e+01	+8.167032e+01	-4.256731e+01	+1.300641e+02	-1.460984e+00	+5.615328e+01
+7.698963e+08	-1.456152e-01	-9.121137e+01	-3.892000e+01	+1.020466e+02	-4.212332e+01	-3.228084e+01	-7.893054e-01	+8.923409e+01
+7.775853e+08	-1.129420e-01	-9.012352e+01	-3.780206e+01	+9.627739e+01	-4.177903e+01	-2.270707e+01	-5.685135e-01	+1.021793e+02
+7.852742e+08	-5.171047e-02	-8.901898e+01	-3.852474e+01	+1.031518e+02	-4.163936e+01	-1.478988e+01	-5.404507e-01	+1.027823e+02
+7.929632e+08	+3.221970e-02	-8.818536e+01	-3.808002e+01	+1.137488e+02	-3.423435e+01	-5.668734e+00	-1.671485e+00	+1.055164e+02
+8.006522e+08	+5.461060e-02	-8.753226e+01	-3.721160e+01	+1.221825e+02	-4.049799e+01	+5.596582e+00	-1.151981e-01	+9.694192e+01
+8.083411e+08	+7.586082e-03	-8.683227e+01	-3.719830e+01	+1.328561e+02	-4.144970e+01	+1.474148e+01	-7.524139e-01	+8.936746e+01
+8.160301e+08	+6.017802e-02	-8.593658e+01	-3.680306e+01	+1.444775e+02	-4.121523e+01	+2.357497e+01	-5.665361e-01	+8.884045e+01
+8.237191e+08	+6.907495e-02	-8.504062e+01	-3.668719e+01	+1.561814e+02	-4.098281e+01	+3.242611e+01	-4.224189e-01	+8.931329e+01
+8.314080e+08	+1.600575e-02	-8.393984e+01	-3.694751e+01	+1.640822e+02	-4.189176e+01	+3.909532e+01	-5.821665e-01	+7.128822e+01
+8.390970e+08	+4.688822e-02	-8.348095e+01	-3.619696e+01	+1.713088e+02	-4.155835e+01	-1.179347e+02	-1.360637e-01	+1.034944e+02
+8.467860e+08	+1.033331e-01	-8.242816e+01	-3.571024e+01	+1.759246e+02	-4.160961e+01	-1.064954e+02	-2.527769e-02	+1.153976e+02
+8.544749e+08	+1.064512e-01	-8.179516e+01	-3.638483e+01	+9.249509e+01	-3.699815e+01	-1.019425e+02	+1.195294e-01	+1.165311e+02
+8.621639e+08	+2.176906e-01	-8.134109e+01	-3.719386e+01	+1.085890e+02	-4.137504e+01	-9.340475e+01	+4.677318e-01	+1.202681e+02
+8.698528e+08	+1.697836e-01	-8.165270e+01	-3.784027e+01	+1.284488e+02	-4.158543e+01	-9.986711e+01	-8.675616e-01	+1.021570e+02
+8.775418e+08	+2.312744e-01	-7.339857e+01	-3.575416e+01	-1.107048e+02	-4.268844e+01	-9.638274e+01	-7.896672e-01	+1.009398e+02
+8.852308e+08	-3.354882e-02	-7.693344e+01	-3.833458e+01	+1.377884e+02	-4.256311e+01	-8.995235e+01	-9.776561e-01	+1.017058e+02
+8.929197e+08	-2.904248e-01	-7.947417e+01	-3.613235e+01	+1.553964e+02	-4.166363e+01	+1.115601e+02	-1.144647e+00	+1.013218e+02
+9.006087e+08	-3.094583e-01	-8.098006e+01	-3.847738e+01	+1.689107e+02	-4.134511e+01	+1.248057e+02	-1.344475e+00	+1.012765e+02
+9.082977e+08	-3.645704e-01	-8.120705e+01	-3.871351e+01	-1.798388e+02	-4.117349e+01	+1.372003e+02	-1.551814e+00	+9.254069e+01
+9.159866e+08	-3.272114e-01	-8.138784e+01	-3.856969e+01	-1.702807e+02	-4.019503e+01	+1.454062e+02	-1.451048e+00	+1.125886e+02
+9.236756e+08	-2.674726e-01	-8.085529e+01	-3.902669e+01	-1.616473e+02	-3.941785e+01	+1.516537e+02	-1.434257e+00	+1.150623e+02
+9.313645e+08	-2.098378e-01	-8.008644e+01	-3.882472e+01	-1.482776e+02	-4.007300e+01	+1.579023e+02	-6.285662e-01	+1.231383e+02
+9.390535e+08	-1.739863e-01	-7.947926e+01	-3.834754e+01	-1.383848e+02	-3.934614e+01	+1.677797e+02	-4.093423e-01	+1.077941e+02
+9.467425e+08	-1.593078e-01	-7.836585e+01	-3.746804e+01	-1.271635e+02	-4.060026e+01	+1.740238e+02	-6.435559e-01	+1.078345e+02
+9.544314e+08	-1.389737e-01	-7.716222e+01	-3.793425e+01	-1.173966e+02	-4.105635e+01	+2.082853e+01	+1.667749e-01	+1.127352e+02
+9.621204e+08	-2.063081e-01	-7.633116e+01	-3.816252e+01	-1.090387e+02	-4.175816e+01	+2.863017e+01	+5.758031e-01	+1.174104e+02
+9.698094e+08	-1.778703e-01	-7.532581e+01	-3.845154e+01	-1.089465e+02	-4.229253e+01	+3.215908e+01	+6.180021e-01	+1.204247e+02
+9.774983e+08	-1.194696e-01	-7.485578e+01	-3.912273e+01	+7.741276e+01	-4.345508e+01	+3.810781e+01	+2.400531e-01	+1.082476e+02
+9.851873e+08	-9.331884e-02	-7.389390e+01	-3.932151e+01	+9.191181e+01	-4.272440e+01	+4.357975e+01	+5.288787e-01	+1.343715e+02
+9.928763e+08	-1.623379e-01	-7.292936e+01	-3.974391e+01	+1.063535e+02	-4.286890e+01	+4.771338e+01	+2.462043e-01	+1.390079e+02
+1.000565e+09	-1.892003e-01	-7.204159e+01	-4.014021e+01	+1.196328e+02	-4.179174e+01	+8.616788e+01	+1.442841e+00	+1.411746e+02
+1.008254e+09	-1.798145e-01	-7.105457e+01	-3.868812e+01	+1.339118e+02	-4.345306e+01	-9.894665e+01	-4.358750e-01	+1.207519e+02
+1.015943e+09	-1.531601e-01	-7.009170e+01	-4.017539e+01	+1.465899e+02	-4.130806e+01	-9.242865e+01	-7.087864e-01	+1.190229e+02
+1.023632e+09	-1.660109e-01	-6.890651e+01	-4.125615e+01	+1.593236e+02	-4.226788e+01	-8.069296e+01	-7.059150e-01	+1.193702e+02
+1.031321e+09	-1.641579e-01	-6.800782e+01	-4.005056e+01	+1.730246e+02	-4.258292e+01	-6.177590e+01	-7.651532e-01	+1.191087e+02
+1.039010e+09	-2.168071e-01	-6.651175e+01	-3.985099e+01	-1.732708e+02	-4.167312e+01	-6.264828e+01	-8.033681e-01	+8.914849e+01
+1.046699e+09	-3.624554e-01	-6.411264e+01	-3.961673e+01	-1.551362e+02	-4.110132e+01	-5.422925e+01	-8.995410e-01	+1.208801e+02
+1.054388e+09	-1.862831e-01	-6.438470e+01	-3.959271e+01	-1.357391e+02	-4.108395e+01	-4.421469e+01	-6.680893e-01	+1.365882e+02
+1.062077e+09	-1.400144e-01	-6.306144e+01	-3.930480e+01	-1.173097e+02	-4.096653e+01	+1.530735e+02	-2.197786e-01	+1.490850e+02
+1.069766e+09	-2.027737e-01	-6.391826e+01	-3.931508e+01	-1.044382e+02	-4.049739e+01	+1.588406e+02	-7.256766e-01	+1.265009e+02
+1.077455e+09	-1.712609e-01	-6.296074e+01	-3.935604e+01	-9.476648e+01	-4.136363e+01	+1.656495e+02	-5.270548e-01	+1.239533e+02
+1.085144e+09	-1.584330e-01	-6.212117e+01	-3.932889e+01	-7.781700e+01	-4.175421e+01	+1.717161e+02	-3.992618e-01	+1.252275e+02
+1.092833e+09	-1.145235e-01	-6.171273e+01	-3.937568e+01	+1.711538e+02	-4.045250e+01	+1.766907e+02	-3.275405e-01	+1.246916e+02
+1.100522e+09	-1.336022e-01	-6.113996e+01	-4.025170e+01	-3.998155e+01	-4.138415e+01	-1.772761e+02	-4.652294e-01	+1.228932e+02
+1.108211e+09	-1.314456e-01	-6.069691e+01	-4.038280e+01	-2.475856e+01	-4.033127e+01	-1.686217e+02	-5.789048e-01	+1.212930e+02
+1.115900e+09	-1.134613e-01	-5.999319e+01	-3.993660e+01	-7.438620e+00	-4.000866e+01	+3.850661e+01	-1.596905e+00	+9.895912e+01
+1.123589e+09	-1.647842e-01	-5.915483e+01	-3.995747e+01	+4.865373e+00	-3.934632e+01	+5.042098e+01	-5.306512e-01	+1.368551e+02
+1.131278e+09	-1.954324e-01	-5.833185e+01	-3.933261e+01	+1.874422e+01	-3.877132e+01	-1.239271e+02	-6.831037e-01	+1.433836e+02
+1.138967e+09	-2.055573e-01	-5.730132e+01	-3.870504e+01	+3.269533e+01	-4.007211e+01	-1.103531e+02	-1.266489e+00	+1.285289e+02
+1.146656e+09	+4.421935e-02	-8.076394e+01	-3.863291e+01	+4.151009e+01	-3.240862e+01	-8.036838e+01	-8.922096e-01	+1.318377e+02
+1.154344e+09	-1.708765e-01	-8.007108e+01	-3.860698e+01	+5.320791e+01	-3.988526e+01	+1.103233e+02	-6.365559e-01	+1.360155e+02
+1.162033e+09	-2.052378e-01	-7.972321e+01	-3.851811e+01	-5.734501e+01	-4.023155e+01	+1.158321e+02	-2.930580e-01	+1.398390e+02
+1.169722e+09	-4.114554e-01	-7.894419e+01	-3.849644e+01	-5.764403e+01	-3.324126e+01	+1.256984e+02	+8.644726e-01	+1.390563e+02
+1.177411e+09	-5.703177e-01	-7.836326e+01	-3.854494e+01	-4.739451e+01	-4.084138e+01	+1.237617e+02	+6.235382e-02	+1.456856e+02
+1.185100e+09	-7.611797e-01	-7.717362e+01	-3.868451e+01	-3.823313e+01	-4.207280e+01	+1.215425e+02	-3.096436e-01	+1.216436e+02
+1.192789e+09	-8.999434e-01	-7.611375e+01	-3.813366e+01	-2.479615e+01	-4.172100e+01	+1.217957e+02	-7.668855e-02	+1.491200e+02
+1.200478e+09	-9.887860e-01	-7.508271e+01	-3.908087e+01	-1.195346e+01	-4.165530e+01	-3.291025e+01	+9.527851e-01	+1.781825e+02
+1.208167e+09	-1.778356e-01	-4.941050e+01	-3.888727e+01	-2.536048e+00	-4.185903e+01	-4.001044e+01	+2.286206e-01	+1.557022e+02
