!Keysight Technologies N9917A: A.12.46
!Date: Thursday, 09 November 2023 20:32:33
!Timezone: (UTC-03:00) Buenos Aires
!Model: N9917A
!Serial: MY56072049
!GPS Latitude: 
!GPS Longitude: 
!GPS TimeStamp: 0001-01-01 00:00:00Z
!GPS Seconds Since Last Read: 0
!CHECKSUM:0847198808
!Correction: S11(ON U)S21(ON U)S12(ON U)S22(ON U)
!S2P File: Measurements:S11,S21,S12,S22:
# Hz S DB R 50
100000000	-0.131794511813591	-154.066189073639	-70.0811489951091	-118.802634704307	-75.497453293333	-138.139785740969	-0.0233873211776021	23.4568981603806	
103062500	-0.112839912989427	-153.31388037009	-65.5642048607374	95.1864136615681	-66.8236777579592	166.795955496689	-0.0327038309282238	24.2577089865066	
106125000	-0.105268907462026	-152.517527363157	-68.8965963145139	-34.3762079765788	-68.0692642190363	-131.667989410695	-0.0391009754417433	25.0572027780005	
109187500	-0.0917580380931478	-151.743039063159	-75.4518069254389	44.2000701990538	-66.7841609780642	-171.299429439161	-0.0494430813504613	25.7079290364669	
112250000	-0.0776508434553778	-150.986304481143	-77.4989291395281	108.825299968058	-72.6154805919596	82.3590449155909	-0.0650231275959414	26.4301823655256	
115312500	-0.0724633265212286	-150.238326647005	-76.9394936959302	83.8916254958426	-75.245273128225	-5.47767972364068	-0.0858564092323506	27.2031769084136	
118375000	-0.0571327089967923	-149.362744268488	-63.8405463176604	37.692709882749	-73.6018968855917	-179.477752011147	-0.0959971414529636	27.9724919115778	
121437500	-0.0292848657200053	-148.648119063594	-71.9203103074328	175.347829222855	-65.3844943897176	161.512980531112	-0.127572446917553	28.6038912908203	
124500000	-0.0218541627222032	-147.764529228626	-63.2533775457166	-24.1622451366934	-72.2224779710282	-52.7184808284772	-0.139437200363396	29.3525822092298	
127562500	-0.0119555063151842	-146.938450889634	-68.4567985400968	76.3238838654931	-65.7949939457532	34.5906826571154	-0.14985366946622	30.0295807218839	
130625000	0.0114248677081525	-146.189773847164	-75.6655813043206	-13.8907557279902	-71.6250843099355	149.175217816073	-0.164762943300378	30.7587860896776	
133687500	0.0210396059854791	-145.343909965225	-79.183065842813	-125.740065394484	-72.8405107198061	-2.77548611915834	-0.175894506448216	31.3960131319829	
136750000	0.0289150807511281	-144.481196232826	-67.0469377663368	-120.623431548436	-70.1991179795285	-178.842534102428	-0.19317633834755	32.1168594238144	
139812500	0.034442043436034	-143.676795258615	-78.1790710166454	-120.391026157794	-77.3775124300114	121.968824381209	-0.19293505719852	32.8189099994599	
142875000	0.0362009411021358	-142.826112083848	-67.6655826045345	101.845025995607	-74.3671479849943	60.4970308260433	-0.19345947241426	33.4178629657825	
145937500	0.0371519412970163	-141.975998089543	-71.0891108719982	-98.528075149824	-74.7098597292881	120.032777535006	-0.196383906227649	34.0707294914781	
149000000	0.0377598792855737	-141.153021491819	-67.034234843403	-37.5775654963072	-70.0401067516751	-151.484116880841	-0.185996885278214	34.7983386300232	
152062500	0.0193413113334867	-140.261012676724	-67.6559586570804	106.226692724957	-66.7809610592078	33.5797066551726	-0.184169654668282	35.4927789859567	
155125000	0.0236862470476379	-139.445710670307	-70.9176035025599	25.8884835011306	-70.4129727863336	37.860574670152	-0.175467487425875	36.1761670080219	
158187500	0.0119270787942652	-138.687493048845	-75.090786236759	-30.3066244479166	-75.1919449862033	-74.2944244585715	-0.171903117294181	36.9279575959464	
161250000	-0.0153344272096733	-137.817514051473	-71.5777710664911	134.10671046609	-72.122485100406	60.3664247839661	-0.157331677140345	37.623712722298	
164312500	-0.0308892066375872	-137.008400498711	-68.1026870515491	129.336851434564	-75.9851729046119	111.326035243477	-0.144326192031929	38.3476389906759	
167375000	-0.0370629846812941	-136.184827447547	-64.8982608071626	-146.04727498425	-66.5666669725988	-0.684192627863631	-0.12107490268032	39.0245094238151	
170437500	-0.0459291125361323	-135.418632541362	-66.0076050026416	-162.997496760882	-70.0620561663007	-38.4248349942658	-0.110660398355017	39.784635655937	
173500000	-0.0641337844700564	-134.636510100504	-68.8539528813403	155.174938935142	-74.9864456156651	-144.127710346801	-0.107509497890179	40.5880113670988	
176562500	-0.0680996173862149	-133.946488754347	-87.1588381816013	-11.1295341944962	-67.8085109380173	117.338886834153	-0.0890082293381038	41.2289581585294	
179625000	-0.0903313400786252	-133.127824197313	-72.9524690700703	-37.380502724966	-66.3538242841864	47.4078803567718	-0.0795274211324512	42.0227384527117	
182687500	-0.109207997178878	-132.378352663606	-69.0304749799046	-154.804508771603	-63.9560419942684	-131.618632713554	-0.0720621698161845	42.7949198211548	
185750000	-0.113620407166378	-131.600731648916	-64.3358610268109	-80.6309998815978	-77.8870405743862	-166.400414067531	-0.0629814336170649	43.5922936598035	
188812500	-0.113045944103383	-130.862968272715	-70.2962356260031	-72.4548090207193	-65.17612079723	-58.5270023158862	-0.0601132869599679	44.3432621929948	
191875000	-0.113498797401794	-130.18686709466	-68.591716969687	-17.1407271488281	-68.320963142862	-81.1163555932085	-0.0545392399110437	45.1088022687505	
194937500	-0.118825813624309	-129.38313484148	-70.5689727112735	-63.36183803898	-63.3979680952912	172.920434862755	-0.0573563544552305	45.9280696471756	
198000000	-0.107163272169165	-128.570684215024	-69.7467600452019	-118.015735576249	-87.7044897702458	165.821114425392	-0.0718973059681352	46.6902805564857	
201062500	-0.0881331097483136	-127.872638068384	-66.3124746569056	45.384118905598	-68.7175039897877	107.939856475253	-0.075860720086075	47.4595996525564	
204125000	-0.0844169323950721	-127.062640263201	-73.2445022592924	-74.4583524211099	-72.6917169437172	176.056867040306	-0.0975859420545143	48.2752416198495	
207187500	-0.0655017568675164	-126.313640778625	-76.5004559553537	132.283565968997	-64.2683514893378	41.2394931657748	-0.10890425368739	48.9351281143546	
210250000	-0.063034970427837	-125.530193046905	-68.3448034857514	-34.0515302764865	-81.0163387205832	80.8294363654389	-0.12528092817191	49.6675467423129	
213312500	-0.0450773529693748	-124.79813226216	-67.8586185967011	-152.459666542369	-74.5916756510518	19.7581186551295	-0.141557558256612	50.4380158863555	
216375000	-0.027792081104667	-123.924794165846	-68.8017396020936	52.5007477839289	-68.5291595126225	46.95953522581	-0.15673516806562	51.1638059399505	
219437500	-0.016954168891925	-123.08538457079	-64.4702796426147	-149.036808080148	-67.768210725626	-38.7956090940343	-0.170817359847172	51.8523219184626	
222500000	0.000405454432862747	-122.391972435867	-68.6539786839999	138.485401370949	-78.8963381258696	101.893328315701	-0.188633386750752	52.6068835040865	
225562500	0.018027487645078	-121.503441829937	-70.208399738956	117.60000334918	-69.953371125517	-10.1822046447555	-0.222601334576262	53.2119727577609	
228625000	0.0360989758350104	-120.616625282036	-61.4627322327704	-175.360961468477	-67.0696076970544	179.974644342768	-0.216419965564743	53.9563682549088	
231687500	0.0345975184977339	-119.818992248525	-63.8375362503257	-2.31857048101475	-67.688184623919	-123.616169419384	-0.216256935642183	54.6329437405111	
234750000	0.0397415576299775	-118.996338026065	-71.0694320408352	68.0295569054538	-65.4075470229604	6.29532035003622	-0.231471627676046	55.3038476979277	
237812500	0.052255525501511	-118.052636273242	-66.551651155938	-162.660788295511	-67.6561088517443	-97.1230744541949	-0.237429868280683	55.9429274925425	
240875000	0.04409267366664	-117.270962946258	-85.7029520354696	-10.2840328699614	-65.9651803892502	69.5568351389335	-0.233685562292537	56.5821072162869	
243937500	0.0407396973186266	-116.439095644082	-66.8259534090288	-125.765360985848	-81.8342018330033	138.323470419728	-0.235729867923874	57.2605534602155	
247000000	0.0381403789234012	-115.544734989793	-79.9416733459361	45.1781305916046	-66.9006528558426	173.248383759743	-0.228733252684223	58.0117171635015	
250062500	0.0301993510141728	-114.740689597071	-72.9985752241488	79.7049947700383	-70.7036350751452	-0.788339317741251	-0.224542298583481	58.6892089070628	
253125000	0.0160061943303387	-113.850599353146	-74.647202791897	-37.3280669348435	-77.7591950013453	62.735883730983	-0.214270319465306	59.4436373250982	
256187500	0.00582421245958396	-113.121358747963	-79.51195981255	122.933953096408	-90.5699983758928	79.1108914535248	-0.188827629044468	60.1646247727448	
259250000	0.00329698637308857	-112.312547795153	-75.2251349095072	144.918931738444	-82.7642461122375	-91.1485395881322	-0.170889982630007	60.8357821477992	
262312500	-0.0241030036602539	-111.424299586663	-63.2445853460845	-163.394435176886	-76.6520287668829	-43.5576162743244	-0.174328791326602	61.6676532048242	
265375000	-0.0506755778541542	-110.718393111813	-68.5926878357021	174.607590934879	-66.3013689384141	67.2159028546756	-0.159060925880494	62.2750009980315	
268437500	-0.0539096109584702	-109.902583565178	-68.1237945931943	159.315226132051	-65.6330744582224	54.8683944521916	-0.135982871403659	62.9573098959052	
271500000	-0.0684794310555822	-109.103825043804	-74.0187743497234	34.2525594027731	-71.0647357655052	163.586984298574	-0.124778735143648	63.8374382346242	
274562500	-0.0739024920854331	-108.388799511735	-66.6443936886604	-176.976531034285	-69.2342149677404	124.137006601795	-0.128059472797078	64.5646389513526	
277625000	-0.080529873969416	-107.646496336439	-74.2820778310881	105.528863592571	-70.4600721643435	25.4998364784723	-0.106476402818913	65.2978784948152	
280687500	-0.092188020325002	-106.896490973218	-74.4085702643984	76.9258099171426	-62.8882163711765	-111.638749990126	-0.119245929968877	66.107162149001	
283750000	-0.0914026405455295	-106.185736490377	-80.3581647418121	-84.6816343582534	-70.9922084328653	172.6137164327	-0.100935961922621	66.8401026554867	
286812500	-0.097478496423023	-105.390138130611	-73.3248610998711	96.3467516473061	-68.6695866301155	6.38293204547645	-0.102588261229491	67.693343999294	
289875000	-0.087531811053211	-104.633862491132	-68.9679357151582	51.0144396324904	-69.8260887331576	40.5630172327562	-0.109173275665263	68.4997514106744	
292937500	-0.0793436461300864	-103.865687320012	-68.1380469251049	-173.148759673655	-73.3426991723111	-39.9501947896237	-0.106944507701497	69.2476866179456	
296000000	-0.0784165845301454	-103.147888376166	-70.8967545383608	-89.1669307563742	-69.7380831619817	-116.789380517345	-0.118669941907755	70.0570174281944	
299062500	-0.0693107229759506	-102.357464333387	-70.2806824687433	150.96659767511	-72.4827947933842	90.4794224891421	-0.138181299774541	70.8207178307666	
302125000	-0.0567502235921473	-101.652015775803	-66.0549259109294	-21.1719242890357	-69.1588511228833	-41.9323706366423	-0.147355299083095	71.5501548749014	
305187500	-0.0376355843637847	-100.767218034481	-72.2219576265287	132.713375758385	-61.2675607907075	-30.7779937124097	-0.166009277383493	72.2305220321519	
308250000	-0.0234797116418225	-100.0084979184	-66.2924263833674	50.827051356782	-80.3250572901565	-120.450178473269	-0.198052387998495	73.0837257126491	
311312500	-0.00855527850116309	-99.2311476357634	-65.8682621891758	-10.8977790436182	-66.5088429704432	89.6940256670646	-0.205140742945618	73.7387001423038	
314375000	0.00630977927450384	-98.3445936908534	-72.9100026352792	-4.67512091585594	-84.2359126928792	125.723419393881	-0.225746820476558	74.3974066348201	
317437500	0.0258538871614198	-97.5907092689163	-68.7546500092048	133.052816069676	-74.5099050892255	-98.6689717237481	-0.243419805387903	75.1145781852408	
320500000	0.029714196868645	-96.7540191473945	-65.2369380609262	-25.4947133272002	-72.5488667005788	62.3467447205014	-0.258600327241961	75.8397941292973	
323562500	0.0372653318290117	-95.8846755580367	-67.0690735374765	-147.671960715629	-63.4770007880446	-1.21232905815354	-0.270269672282367	76.5827419259773	
326625000	0.0526961861165839	-95.0395701336861	-70.0275059261813	-15.2074913048569	-65.4088568610851	164.901045437179	-0.276224953712106	77.1864648812832	
329687500	0.0582486425941678	-94.2294634626377	-68.7993763984849	64.0663246685752	-72.6788897671622	-149.291349902109	-0.284060243418864	77.949894722571	
332750000	0.0575884291166287	-93.3835178781108	-77.5112360314924	-109.836755319358	-64.381239401916	-135.386032638329	-0.27523324388482	78.5726139015735	
335812500	0.0644278361118228	-92.568704370807	-66.7620575823515	-37.7137764127767	-72.5191227291935	26.9602316915915	-0.283701124148311	79.2989408304373	
338875000	0.0605750806097445	-91.7407485466246	-62.6239243531196	55.2137478831074	-75.5415416375733	-87.3227465929294	-0.269866089048382	79.9404207963767	
341937500	0.0462560359521007	-90.7673072807472	-73.4563891290098	-98.4512839570792	-65.8138186270262	176.911912635102	-0.269929085707864	80.6128517581566	
345000000	0.0391199363399931	-89.9601384379172	-74.1538511152327	-98.3814438375632	-62.8262349823978	-162.804145435216	-0.260093311959291	81.2333129484941	
348062500	0.0247937201437017	-89.1468680492505	-87.2460592596851	48.1290026314069	-64.0851572190724	-47.1300963098663	-0.252263052510821	81.9943333514618	
351125000	0.0169356457176448	-88.313242972983	-76.2381808353578	16.303351690036	-64.6335716664449	-60.9233265480639	-0.244459567718392	82.7033602269675	
354187500	-0.0189078948718798	-87.4854019358866	-74.8974164793645	96.4455217012758	-73.5730509767704	109.307250152639	-0.219800522674519	83.3720161074973	
357250000	-0.0287206205236332	-86.7295198196341	-69.7604181378302	-50.6293648085593	-69.9720846375852	69.1917484492581	-0.214022095727576	84.1210149979894	
360312500	-0.0264458982935532	-85.9294924738342	-67.9855004048916	-173.804966606443	-82.8903109855565	60.1119682889846	-0.198625632831108	84.8138416232603	
363375000	-0.0281944363604495	-85.1106825944291	-68.1983338244302	143.484639841474	-70.8597765158628	56.2102601531865	-0.176597995877378	85.6447285700389	
366437500	-0.06462166225509	-84.346725873695	-73.390025614769	-68.9056161685147	-64.4287258490715	137.912336357567	-0.178252968277536	86.3521889996372	
369500000	-0.0760201199938376	-83.5656861150765	-75.3019673725519	-68.234624564194	-71.8123589332094	76.9381432846664	-0.161663861983366	87.1159100559374	
372562500	-0.0603174545877318	-82.8570672097724	-71.145901429471	-63.2986004607908	-64.0230265316995	148.77247945609	-0.146916666076055	87.9289210537073	
375625000	-0.0811799264131225	-82.1785241634961	-68.2803314677509	136.113195531093	-65.6930201581845	-23.6141839710395	-0.154391314340627	88.7383736681214	
378687500	-0.087014460051652	-81.3716815940948	-66.1425166812013	-71.4086092520745	-77.8000070718284	14.2833402861134	-0.145702351176699	89.5381983110312	
381750000	-0.0907411033541932	-80.6385704530066	-70.5015192724758	120.68881855173	-64.2993650640172	132.040806187428	-0.146310568284795	90.3182112716779	
384812500	-0.0827819898717656	-79.8644928254908	-79.039785689831	55.8997731860339	-63.325817233059	-74.5510441777176	-0.150373574899755	91.0866847461614	
387875000	-0.0883727846045013	-79.0591765511936	-74.7818294467292	-94.5169719991575	-65.8254241736415	-139.124698366297	-0.159077034674653	91.865309992168	
390937500	-0.0622951280353014	-78.4342922013582	-75.3935136862071	174.302914379852	-68.1691581345765	-108.860508629966	-0.167546617033513	92.6851778770611	
394000000	-0.0655104755689982	-77.6978287507586	-70.0790103767088	-47.6090255524796	-62.1271682460577	71.7881578189271	-0.180538065442992	93.3773434562181	
397062500	-0.0374671584250898	-76.8985518206342	-72.8044779151495	-92.4489563311343	-68.943069141532	-6.68507398779957	-0.199386870094079	94.1881871844369	
400125000	-0.0265459600069658	-76.0072590827941	-67.9408451522877	173.538879708071	-67.9895291951431	35.0111571932408	-0.215461789779059	94.9199564679258	
403187500	-0.0140010902396723	-75.2127384674072	-73.8438369297148	-177.908158224906	-66.6357408791927	45.3179879043555	-0.248664395946447	95.6884753785798	
406250000	0.00451264101914895	-74.4352096361941	-67.6231008737594	18.6183959379275	-70.5102908927246	-144.350645365102	-0.240650178239496	96.4334962778107	
409312500	0.0158384511697946	-73.6338915124848	-67.1771793284625	-25.3774222864654	-76.1346154572628	-49.1428602756357	-0.273043267623741	97.1199397238805	
412375000	0.0224969994642379	-72.8784418187515	-77.9646595064768	11.3676196539009	-76.3774679489979	114.411352161636	-0.302590127454184	97.8218491109189	
415437500	0.045223258645107	-71.969216825889	-71.8607677644386	-139.918744388577	-65.3518491981774	25.5947783895529	-0.305214699630188	98.4257956689368	
418500000	0.0478872505244725	-71.1533087826057	-73.2707192929606	47.7370527048063	-68.355328388705	2.55678741153558	-0.314343776263986	99.1407060511632	
421562500	0.0726200042042058	-70.3268512400094	-65.86358107414	-39.216014071098	-67.243043460513	139.543957286957	-0.316434778045475	99.8465774319895	
424625000	0.0868442788635905	-69.4932996828265	-66.7960859244959	59.5464566974005	-63.4572133397487	-81.4924806546149	-0.341557248934988	100.452588779068	
427687500	0.0755326840429842	-68.6201413635576	-75.7436721226842	173.029186876486	-80.109928752802	179.811617031316	-0.324452194396111	101.219953866909	
430750000	0.0810075115401621	-67.6838192753609	-73.4906944852867	124.831886029049	-67.2076253984492	-30.4469514326048	-0.335168310357056	101.867087523554	
433812500	0.0812081929847666	-66.8709945103681	-67.7701532161133	-164.28245893931	-60.3202788815096	-154.781407684059	-0.327782859635458	102.503859802626	
436875000	0.069154494357069	-66.0497434354518	-66.1776016389037	-122.604067303593	-68.2390403658637	125.565309835189	-0.32111204443052	103.254742364189	
439937500	0.0400576470797531	-65.1697623094554	-69.7704469073384	-75.2240728529528	-77.1176740247855	-90.2028410945811	-0.298461296533093	103.898841432904	
443000000	0.0440211703950477	-64.4390441078266	-74.8400903256758	48.4641600546284	-74.2413858012569	170.446076294139	-0.302381983620603	104.607626996169	
446062500	0.0211273337399079	-63.4497413794417	-73.8923963731506	131.396990141627	-67.0987373702443	167.16859013272	-0.300226984083755	105.421699774768	
449125000	0.0100563527685038	-62.7227102298065	-70.3256292969726	-117.916546043262	-69.6033292146714	-85.6596609817409	-0.276814067071924	106.027216975377	
452187500	-0.00953412532886313	-61.9094259010263	-68.8714438092828	100.306109525872	-68.0435463307071	-76.4136629922408	-0.26196544046236	106.711050258082	
455250000	-0.0168883280048865	-61.1119174947583	-71.1910427697007	-109.85602079324	-63.6019712583253	105.320280051213	-0.244192509826497	107.522924312103	
458312500	-0.0328603955488027	-60.4482790757944	-73.5741284379998	88.8958495397117	-68.9023612399558	-41.5656116720405	-0.235861217416264	108.254859684136	
461375000	-0.0536394089612569	-59.5066869997276	-68.7057617148369	-140.826996269221	-71.3098686276243	-3.86319657504681	-0.200363370631124	109.032228626675	
464437500	-0.0747122873975241	-58.9397033922311	-66.4261106143294	-41.6464248886376	-72.2714453450169	-44.3422360379454	-0.191971432732244	109.847876131438	
467500000	-0.0624452860198393	-58.1321581834422	-65.8355267772695	-31.2877068224209	-64.2958250588811	121.381974364721	-0.197459818809523	110.565966391766	
470562500	-0.0795621690828022	-57.363821447234	-66.9668549926045	168.38481983548	-67.6185172070238	-46.9788144208596	-0.186860905143676	111.289368462003	
473625000	-0.0794738139300406	-56.6364568862711	-67.3166035536052	-145.422864841137	-72.2331107017547	130.556173096424	-0.195276403497789	112.128941304592	
476687500	-0.0766703692274236	-55.8713774572899	-72.8791894467283	-112.129509969924	-67.2159632661269	-113.763768504467	-0.183176082000795	112.881917548267	
479750000	-0.0822262174416066	-55.068670850469	-61.4655008405505	-117.949543803583	-69.1801708608954	-167.868233439561	-0.200455778025486	113.68689561533	
482812500	-0.0693400597107334	-54.4350153235427	-71.1415022453636	-23.7261710375483	-61.4759389572287	29.1038978608877	-0.20262072099407	114.462129915645	
