!Keysight Technologies N9917A: A.12.46								
"!Date: Thursday, 09 November 2023 20:32:33"								
!Timezone: (UTC-03:00) Buenos Aires								
!Model: N9917A								
!Serial: MY56072049								
!GPS Latitude: 								
!GPS Longitude: 								
!GPS TimeStamp: 0001-01-01 00:00:00Z								
!GPS Seconds Since Last Read: 0								
!CHECKSUM:0847198808								
!Correction: S11(ON U)S21(ON U)S12(ON U)S22(ON U)								
"!S2P File: Measurements:S11,S21,S12,S22:"								
# Hz S DB R 50								
1.00000E+08	-1.31795E-01	1.79752E+02	-7.00811E+01	-1.18803E+02	-7.54975E+01	-1.38140E+02	-2.33873E-02	2.34569E+01
1.03063E+08	-1.12840E-01	1.79711E+02	-6.55642E+01	9.51864E+01	-6.68237E+01	1.66796E+02	-3.27038E-02	2.42577E+01
1.06125E+08	-1.05269E-01	1.79697E+02	-6.88966E+01	-3.43762E+01	-6.80693E+01	-1.31668E+02	-3.91010E-02	2.50572E+01
1.09188E+08	-9.17580E-02	1.79676E+02	-7.54518E+01	4.42001E+01	-6.67842E+01	-1.71299E+02	-4.94431E-02	2.57079E+01
1.12250E+08	-7.76508E-02	1.79625E+02	-7.74989E+01	1.08825E+02	-7.26155E+01	8.23590E+01	-6.50231E-02	2.64302E+01
1.15313E+08	-7.24633E-02	1.79574E+02	-7.69395E+01	8.38916E+01	-7.52453E+01	-5.47768E+00	-8.58564E-02	2.72032E+01
1.18375E+08	-5.71327E-02	1.79650E+02	-6.38405E+01	3.76927E+01	-7.36019E+01	-1.79478E+02	-9.59971E-02	2.79725E+01
1.21438E+08	-2.92849E-02	1.79559E+02	-7.19203E+01	1.75348E+02	-6.53845E+01	1.61513E+02	-1.27572E-01	2.86039E+01
1.24500E+08	-2.18542E-02	1.79648E+02	-6.32534E+01	-2.41622E+01	-7.22225E+01	-5.27185E+01	-1.39437E-01	2.93526E+01
1.27563E+08	-1.19555E-02	1.79667E+02	-6.84568E+01	7.63239E+01	-6.57950E+01	3.45907E+01	-1.49854E-01	3.00296E+01
1.30625E+08	1.14249E-02	1.79613E+02	-7.56656E+01	-1.38908E+01	-7.16251E+01	1.49175E+02	-1.64763E-01	3.07588E+01
1.33688E+08	2.10396E-02	1.79662E+02	-7.91831E+01	-1.25740E+02	-7.28405E+01	-2.77549E+00	-1.75895E-01	3.13960E+01
1.36750E+08	2.89151E-02	1.79721E+02	-6.70469E+01	-1.20623E+02	-7.01991E+01	-1.78843E+02	-1.93176E-01	3.21169E+01
1.39813E+08	3.44420E-02	1.79720E+02	-7.81791E+01	-1.20391E+02	-7.73775E+01	1.21969E+02	-1.92935E-01	3.28189E+01
1.42875E+08	3.62009E-02	1.79767E+02	-6.76656E+01	1.01845E+02	-7.43671E+01	6.04970E+01	-1.93459E-01	3.34179E+01
1.45938E+08	3.71519E-02	1.79816E+02	-7.10891E+01	-9.85281E+01	-7.47099E+01	1.20033E+02	-1.96384E-01	3.40707E+01
1.49000E+08	3.77599E-02	1.79845E+02	-6.70342E+01	-3.75776E+01	-7.00401E+01	-1.51484E+02	-1.85997E-01	3.47983E+01
1.52063E+08	1.93413E-02	1.79934E+02	-6.76560E+01	1.06227E+02	-6.67810E+01	3.35797E+01	-1.84170E-01	3.54928E+01
1.55125E+08	2.36862E-02	1.79940E+02	-7.09176E+01	2.58885E+01	-7.04130E+01	3.78606E+01	-1.75467E-01	3.61762E+01
1.58188E+08	1.19271E-02	1.79899E+02	-7.50908E+01	-3.03066E+01	-7.51919E+01	-7.42944E+01	-1.71903E-01	3.69280E+01
1.61250E+08	-1.53344E-02	1.79968E+02	-7.15778E+01	1.34107E+02	-7.21225E+01	6.03664E+01	-1.57332E-01	3.76237E+01
1.64313E+08	-3.08892E-02	1.79977E+02	-6.81027E+01	1.29337E+02	-7.59852E+01	1.11326E+02	-1.44326E-01	3.83476E+01
1.67375E+08	-3.70630E-02	1.80003E+02	-6.48983E+01	-1.46047E+02	-6.65667E+01	-6.84193E-01	-1.21075E-01	3.90245E+01
1.70438E+08	-4.59291E-02	1.79962E+02	-6.60076E+01	-1.62997E+02	-7.00621E+01	-3.84248E+01	-1.10660E-01	3.97846E+01
1.73500E+08	-6.41338E-02	1.79941E+02	-6.88540E+01	1.55175E+02	-7.49864E+01	-1.44128E+02	-1.07509E-01	4.05880E+01
1.76563E+08	-6.80996E-02	1.79830E+02	-8.71588E+01	-1.11295E+01	-6.78085E+01	1.17339E+02	-8.90082E-02	4.12290E+01
1.79625E+08	-9.03313E-02	1.79846E+02	-7.29525E+01	-3.73805E+01	-6.63538E+01	4.74079E+01	-7.95274E-02	4.20227E+01
1.82688E+08	-1.09208E-01	1.79795E+02	-6.90305E+01	-1.54805E+02	-6.39560E+01	-1.31619E+02	-7.20622E-02	4.27949E+01
1.85750E+08	-1.13620E-01	1.79774E+02	-6.43359E+01	-8.06310E+01	-7.78870E+01	-1.66400E+02	-6.29814E-02	4.35923E+01
1.88813E+08	-1.13046E-01	1.79713E+02	-7.02962E+01	-7.24548E+01	-6.51761E+01	-5.85270E+01	-6.01133E-02	4.43433E+01
1.91875E+08	-1.13499E-01	1.79579E+02	-6.85917E+01	-1.71407E+01	-6.83210E+01	-8.11164E+01	-5.45392E-02	4.51088E+01
1.94938E+08	-1.18826E-01	1.79588E+02	-7.05690E+01	-6.33618E+01	-6.33980E+01	1.72920E+02	-5.73564E-02	4.59281E+01
1.98000E+08	-1.07163E-01	1.79597E+02	-6.97468E+01	-1.18016E+02	-8.77045E+01	1.65821E+02	-7.18973E-02	4.66903E+01
2.01063E+08	-8.81331E-02	1.79496E+02	-6.63125E+01	4.53841E+01	-6.87175E+01	1.07940E+02	-7.58607E-02	4.74596E+01
2.04125E+08	-8.44169E-02	1.79503E+02	-7.32445E+01	-7.44584E+01	-7.26917E+01	1.76057E+02	-9.75859E-02	4.82752E+01
2.07188E+08	-6.55018E-02	1.79451E+02	-7.65005E+01	1.32284E+02	-6.42684E+01	4.12395E+01	-1.08904E-01	4.89351E+01
2.10250E+08	-6.30350E-02	1.79430E+02	-6.83448E+01	-3.40515E+01	-8.10163E+01	8.08294E+01	-1.25281E-01	4.96675E+01
2.13313E+08	-4.50774E-02	1.79359E+02	-6.78586E+01	-1.52460E+02	-7.45917E+01	1.97581E+01	-1.41558E-01	5.04380E+01
2.16375E+08	-2.77921E-02	1.79436E+02	-6.88017E+01	5.25007E+01	-6.85292E+01	4.69595E+01	-1.56735E-01	5.11638E+01
2.19438E+08	-1.69542E-02	1.79465E+02	-6.44703E+01	-1.49037E+02	-6.77682E+01	-3.87956E+01	-1.70817E-01	5.18523E+01
2.22500E+08	4.05454E-04	1.79364E+02	-6.86540E+01	1.38485E+02	-7.88963E+01	1.01893E+02	-1.88633E-01	5.26069E+01
2.25563E+08	1.80275E-02	1.79453E+02	-7.02084E+01	1.17600E+02	-6.99534E+01	-1.01822E+01	-2.22601E-01	5.32120E+01
2.28625E+08	3.60990E-02	1.79529E+02	-6.14627E+01	-1.75361E+02	-6.70696E+01	1.79975E+02	-2.16420E-01	5.39564E+01
2.31688E+08	3.45975E-02	1.79528E+02	-6.38375E+01	-2.31857E+00	-6.76882E+01	-1.23616E+02	-2.16257E-01	5.46329E+01
2.34750E+08	3.97416E-02	1.79547E+02	-7.10694E+01	6.80296E+01	-6.54075E+01	6.29532E+00	-2.31472E-01	5.53038E+01
2.37813E+08	5.22555E-02	1.79696E+02	-6.65517E+01	-1.62661E+02	-6.76561E+01	-9.71231E+01	-2.37430E-01	5.59429E+01
2.40875E+08	4.40927E-02	1.79672E+02	-8.57030E+01	-1.02840E+01	-6.59652E+01	6.95568E+01	-2.33686E-01	5.65821E+01
2.43938E+08	4.07397E-02	1.79701E+02	-6.68260E+01	-1.25765E+02	-8.18342E+01	1.38323E+02	-2.35730E-01	5.72606E+01
2.47000E+08	3.81404E-02	1.79800E+02	-7.99417E+01	4.51781E+01	-6.69007E+01	1.73248E+02	-2.28733E-01	5.80117E+01
2.50063E+08	3.01994E-02	1.79799E+02	-7.29986E+01	7.97050E+01	-7.07036E+01	-7.88339E-01	-2.24542E-01	5.86892E+01
2.53125E+08	1.60062E-02	1.79885E+02	-7.46472E+01	-3.73281E+01	-7.77592E+01	6.27359E+01	-2.14270E-01	5.94436E+01
2.56188E+08	5.82421E-03	1.79814E+02	-7.95120E+01	1.22934E+02	-9.05700E+01	7.91109E+01	-1.88828E-01	6.01646E+01
2.59250E+08	3.29699E-03	1.79823E+02	-7.52251E+01	1.44919E+02	-8.27642E+01	-9.11485E+01	-1.70890E-01	6.08358E+01
2.62313E+08	-2.41030E-02	1.79912E+02	-6.32446E+01	-1.63394E+02	-7.66520E+01	-4.35576E+01	-1.74329E-01	6.16677E+01
2.65375E+08	-5.06756E-02	1.79808E+02	-6.85927E+01	1.74608E+02	-6.63014E+01	6.72159E+01	-1.59061E-01	6.22750E+01
2.68438E+08	-5.39096E-02	1.79827E+02	-6.81238E+01	1.59315E+02	-6.56331E+01	5.48684E+01	-1.35983E-01	6.29573E+01
2.71500E+08	-6.84794E-02	1.79826E+02	-7.40188E+01	3.42526E+01	-7.10647E+01	1.63587E+02	-1.24779E-01	6.38374E+01
2.74563E+08	-7.39025E-02	1.79735E+02	-6.66444E+01	-1.76977E+02	-6.92342E+01	1.24137E+02	-1.28059E-01	6.45646E+01
2.77625E+08	-8.05299E-02	1.79672E+02	-7.42821E+01	1.05529E+02	-7.04601E+01	2.54998E+01	-1.06476E-01	6.52979E+01
2.80688E+08	-9.21880E-02	1.79621E+02	-7.44086E+01	7.69258E+01	-6.28882E+01	-1.11639E+02	-1.19246E-01	6.61072E+01
2.83750E+08	-9.14026E-02	1.79529E+02	-8.03582E+01	-8.46816E+01	-7.09922E+01	1.72614E+02	-1.00936E-01	6.68401E+01
2.86813E+08	-9.74785E-02	1.79528E+02	-7.33249E+01	9.63468E+01	-6.86696E+01	6.38293E+00	-1.02588E-01	6.76933E+01
2.89875E+08	-8.75318E-02	1.79485E+02	-6.89679E+01	5.10144E+01	-6.98261E+01	4.05630E+01	-1.09173E-01	6.84998E+01
2.92938E+08	-7.93436E-02	1.79444E+02	-6.81380E+01	-1.73149E+02	-7.33427E+01	-3.99502E+01	-1.06945E-01	6.92477E+01
2.96000E+08	-7.84166E-02	1.79363E+02	-7.08968E+01	-8.91669E+01	-6.97381E+01	-1.16789E+02	-1.18670E-01	7.00570E+01
2.99063E+08	-6.93107E-02	1.79352E+02	-7.02807E+01	1.50967E+02	-7.24828E+01	9.04794E+01	-1.38181E-01	7.08207E+01
3.02125E+08	-5.67502E-02	1.79258E+02	-6.60549E+01	-2.11719E+01	-6.91589E+01	-4.19324E+01	-1.47355E-01	7.15502E+01
3.05188E+08	-3.76356E-02	1.79337E+02	-7.22220E+01	1.32713E+02	-6.12676E+01	-3.07780E+01	-1.66009E-01	7.22305E+01
3.08250E+08	-2.34797E-02	1.79296E+02	-6.62924E+01	5.08271E+01	-8.03251E+01	-1.20450E+02	-1.98052E-01	7.30837E+01
3.11313E+08	-8.55528E-03	1.79275E+02	-6.58683E+01	-1.08978E+01	-6.65088E+01	8.96940E+01	-2.05141E-01	7.37387E+01
3.14375E+08	6.30978E-03	1.79361E+02	-7.29100E+01	-4.67512E+00	-8.42359E+01	1.25723E+02	-2.25747E-01	7.43974E+01
3.17438E+08	2.58539E-02	1.79310E+02	-6.87547E+01	1.33053E+02	-7.45099E+01	-9.86690E+01	-2.43420E-01	7.51146E+01
3.20500E+08	2.97142E-02	1.79349E+02	-6.52369E+01	-2.54947E+01	-7.25489E+01	6.23467E+01	-2.58600E-01	7.58398E+01
3.23563E+08	3.72653E-02	1.79418E+02	-6.70691E+01	-1.47672E+02	-6.34770E+01	-1.21233E+00	-2.70270E-01	7.65827E+01
3.26625E+08	5.26962E-02	1.79454E+02	-7.00275E+01	-1.52075E+01	-6.54089E+01	1.64901E+02	-2.76225E-01	7.71865E+01
3.29688E+08	5.82486E-02	1.79463E+02	-6.87994E+01	6.40663E+01	-7.26789E+01	-1.49291E+02	-2.84060E-01	7.79499E+01
3.32750E+08	5.75884E-02	1.79512E+02	-7.75112E+01	-1.09837E+02	-6.43812E+01	-1.35386E+02	-2.75233E-01	7.85726E+01
3.35813E+08	6.44278E-02	1.79521E+02	-6.67621E+01	-3.77138E+01	-7.25191E+01	2.69602E+01	-2.83701E-01	7.92989E+01
3.38875E+08	6.05751E-02	1.79547E+02	-6.26239E+01	5.52137E+01	-7.55415E+01	-8.73227E+01	-2.69866E-01	7.99404E+01
3.41938E+08	4.62560E-02	1.79716E+02	-7.34564E+01	-9.84513E+01	-6.58138E+01	1.76912E+02	-2.69929E-01	8.06129E+01
3.45000E+08	3.91199E-02	1.79725E+02	-7.41539E+01	-9.83814E+01	-6.28262E+01	-1.62804E+02	-2.60093E-01	8.12333E+01
3.48063E+08	2.47937E-02	1.79734E+02	-8.72461E+01	4.81290E+01	-6.40852E+01	-4.71301E+01	-2.52263E-01	8.19943E+01
3.51125E+08	1.69356E-02	1.79771E+02	-7.62382E+01	1.63034E+01	-6.46336E+01	-6.09233E+01	-2.44460E-01	8.27034E+01
3.54188E+08	-1.89079E-02	1.79790E+02	-7.48974E+01	9.64455E+01	-7.35731E+01	1.09307E+02	-2.19801E-01	8.33720E+01
3.57250E+08	-2.87206E-02	1.79749E+02	-6.97604E+01	-5.06294E+01	-6.99721E+01	6.91917E+01	-2.14022E-01	8.41210E+01
3.60313E+08	-2.64459E-02	1.79748E+02	-6.79855E+01	-1.73805E+02	-8.28903E+01	6.01120E+01	-1.98626E-01	8.48138E+01
3.63375E+08	-2.81944E-02	1.79764E+02	-6.81983E+01	1.43485E+02	-7.08598E+01	5.62103E+01	-1.76598E-01	8.56447E+01
3.66438E+08	-6.46217E-02	1.79723E+02	-7.33900E+01	-6.89056E+01	-6.44287E+01	1.37912E+02	-1.78253E-01	8.63522E+01
3.69500E+08	-7.60201E-02	1.79702E+02	-7.53020E+01	-6.82346E+01	-7.18124E+01	7.69381E+01	-1.61664E-01	8.71159E+01
3.72563E+08	-6.03175E-02	1.79611E+02	-7.11459E+01	-6.32986E+01	-6.40230E+01	1.48772E+02	-1.46917E-01	8.79289E+01
3.75625E+08	-8.11799E-02	1.79487E+02	-6.82803E+01	1.36113E+02	-6.56930E+01	-2.36142E+01	-1.54391E-01	8.87384E+01
3.78688E+08	-8.70145E-02	1.79496E+02	-6.61425E+01	-7.14086E+01	-7.78000E+01	1.42833E+01	-1.45702E-01	8.95382E+01
3.81750E+08	-9.07411E-02	1.79425E+02	-7.05015E+01	1.20689E+02	-6.42994E+01	1.32041E+02	-1.46311E-01	9.03182E+01
3.84813E+08	-8.27820E-02	1.79404E+02	-7.90398E+01	5.58998E+01	-6.33258E+01	-7.45510E+01	-1.50374E-01	9.10867E+01
3.87875E+08	-8.83728E-02	1.79400E+02	-7.47818E+01	-9.45170E+01	-6.58254E+01	-1.39125E+02	-1.59077E-01	9.18653E+01
3.90938E+08	-6.22951E-02	1.79229E+02	-7.53935E+01	1.74303E+02	-6.81692E+01	-1.08861E+02	-1.67547E-01	9.26852E+01
3.94000E+08	-6.55105E-02	1.79158E+02	-7.00790E+01	-4.76090E+01	-6.21272E+01	7.17882E+01	-1.80538E-01	9.33773E+01
3.97063E+08	-3.74672E-02	1.79157E+02	-7.28045E+01	-9.24490E+01	-6.89431E+01	-6.68507E+00	-1.99387E-01	9.41882E+01
4.00125E+08	-2.65460E-02	1.79243E+02	-6.79408E+01	1.73539E+02	-6.79895E+01	3.50112E+01	-2.15462E-01	9.49200E+01
4.03188E+08	-1.40011E-02	1.79242E+02	-7.38438E+01	-1.77908E+02	-6.66357E+01	4.53180E+01	-2.48664E-01	9.56885E+01
4.06250E+08	4.51264E-03	1.79211E+02	-6.76231E+01	1.86184E+01	-7.05103E+01	-1.44351E+02	-2.40650E-01	9.64335E+01
4.09313E+08	1.58385E-02	1.79220E+02	-6.71772E+01	-2.53774E+01	-7.61346E+01	-4.91429E+01	-2.73043E-01	9.71199E+01
4.12375E+08	2.24970E-02	1.79167E+02	-7.79647E+01	1.13676E+01	-7.63775E+01	1.14411E+02	-3.02590E-01	9.78218E+01
4.15438E+08	4.52233E-02	1.79275E+02	-7.18608E+01	-1.39919E+02	-6.53518E+01	2.55948E+01	-3.05215E-01	9.84258E+01
4.18500E+08	4.78873E-02	1.79294E+02	-7.32707E+01	4.77371E+01	-6.83553E+01	2.55679E+00	-3.14344E-01	9.91407E+01
4.21563E+08	7.26200E-02	1.79313E+02	-6.58636E+01	-3.92160E+01	-6.72430E+01	1.39544E+02	-3.16435E-01	9.98466E+01
4.24625E+08	8.68443E-02	1.79350E+02	-6.67961E+01	5.95465E+01	-6.34572E+01	-8.14925E+01	-3.41557E-01	1.00453E+02
4.27688E+08	7.55327E-02	1.79419E+02	-7.57437E+01	1.73029E+02	-8.01099E+01	1.79812E+02	-3.24452E-01	1.01220E+02
4.30750E+08	8.10075E-02	1.79558E+02	-7.34907E+01	1.24832E+02	-6.72076E+01	-3.04470E+01	-3.35168E-01	1.01867E+02
4.33813E+08	8.12082E-02	1.79567E+02	-6.77702E+01	-1.64282E+02	-6.03203E+01	-1.54781E+02	-3.27783E-01	1.02504E+02
4.36875E+08	6.91545E-02	1.79583E+02	-6.61776E+01	-1.22604E+02	-6.82390E+01	1.25565E+02	-3.21112E-01	1.03255E+02
4.39938E+08	4.00576E-02	1.79662E+02	-6.97704E+01	-7.52241E+01	-7.71177E+01	-9.02028E+01	-2.98461E-01	1.03899E+02
4.43000E+08	4.40212E-02	1.79591E+02	-7.48401E+01	4.84642E+01	-7.42414E+01	1.70446E+02	-3.02382E-01	1.04608E+02
4.46063E+08	2.11273E-02	1.79780E+02	-7.38924E+01	1.31397E+02	-6.70987E+01	1.67169E+02	-3.00227E-01	1.05422E+02
4.49125E+08	1.00564E-02	1.79706E+02	-7.03256E+01	-1.17917E+02	-6.96033E+01	-8.56597E+01	-2.76814E-01	1.06027E+02
4.52188E+08	-9.53413E-03	1.79715E+02	-6.88714E+01	1.00306E+02	-6.80435E+01	-7.64137E+01	-2.61965E-01	1.06711E+02
4.55250E+08	-1.68883E-02	1.79714E+02	-7.11910E+01	-1.09856E+02	-6.36020E+01	1.05320E+02	-2.44193E-01	1.07523E+02
4.58313E+08	-3.28604E-02	1.79573E+02	-7.35741E+01	8.88958E+01	-6.89024E+01	-4.15656E+01	-2.35861E-01	1.08255E+02
4.61375E+08	-5.36394E-02	1.79709E+02	-6.87058E+01	-1.40827E+02	-7.13099E+01	-3.86320E+00	-2.00363E-01	1.09032E+02
4.64438E+08	-7.47123E-02	1.79478E+02	-6.64261E+01	-4.16464E+01	-7.22714E+01	-4.43422E+01	-1.91971E-01	1.09848E+02
4.67500E+08	-6.24453E-02	1.79487E+02	-6.58355E+01	-3.12877E+01	-6.42958E+01	1.21382E+02	-1.97460E-01	1.10566E+02
4.70563E+08	-7.95622E-02	1.79456E+02	-6.69669E+01	1.68385E+02	-6.76185E+01	-4.69788E+01	-1.86861E-01	1.11289E+02
4.73625E+08	-7.94738E-02	1.79372E+02	-6.73166E+01	-1.45423E+02	-7.22331E+01	1.30556E+02	-1.95276E-01	1.12129E+02
4.76688E+08	-7.66704E-02	1.79341E+02	-7.28792E+01	-1.12130E+02	-6.72160E+01	-1.13764E+02	-1.83176E-01	1.12882E+02
4.79750E+08	-8.22262E-02	1.79340E+02	-6.14655E+01	-1.17950E+02	-6.91802E+01	-1.67868E+02	-2.00456E-01	1.13687E+02
4.82813E+08	-6.93401E-02	1.79169E+02	-7.11415E+01	-2.37262E+01	-6.14759E+01	2.91039E+01	-2.02621E-01	1.14462E+02
4.85875E+08	-5.06988E-02	1.79196E+02	-6.77980E+01	-3.83612E+01	-6.56695E+01	1.64562E+02	-2.19282E-01	1.15350E+02
4.88938E+08	-5.20366E-02	1.79185E+02	-6.73124E+01	-1.02923E+02	-7.27207E+01	-1.02054E+02	-2.25560E-01	1.16111E+02
4.92000E+08	-3.08618E-02	1.79124E+02	-6.89421E+01	4.71091E+01	-7.53330E+01	-8.85043E+01	-2.38289E-01	1.16852E+02
4.95063E+08	-3.25670E-02	1.79122E+02	-7.26561E+01	-1.24536E+02	-7.79601E+01	-1.55839E+02	-2.71861E-01	1.17610E+02
4.98125E+08	-8.84330E-03	1.79059E+02	-6.70814E+01	-8.26903E+01	-6.73662E+01	-4.69647E+01	-2.81318E-01	1.18357E+02
5.01188E+08	1.78915E-02	1.79098E+02	-7.57014E+01	1.45245E+02	-8.14842E+01	3.03062E+01	-2.94742E-01	1.18998E+02
5.04250E+08	3.14743E-02	1.79127E+02	-6.32844E+01	1.00877E+02	-6.01363E+01	-4.63589E+01	-3.19881E-01	1.19730E+02
5.07313E+08	4.84238E-02	1.79126E+02	-6.67644E+01	9.61563E+01	-7.10783E+01	1.78366E+02	-3.39121E-01	1.20422E+02
5.10375E+08	6.37732E-02	1.79082E+02	-6.84481E+01	8.68177E+01	-7.86693E+01	1.40637E+02	-3.48677E-01	1.21176E+02
5.13438E+08	8.27964E-02	1.79061E+02	-6.33405E+01	1.59348E+02	-7.19860E+01	-2.73464E+01	-3.67503E-01	1.21859E+02
5.16500E+08	8.14924E-02	1.79160E+02	-6.56911E+01	1.03395E+02	-6.42980E+01	1.26764E+02	-3.81985E-01	1.22488E+02
5.19563E+08	9.15952E-02	1.79289E+02	-6.59433E+01	7.76409E+01	-7.14477E+01	-3.30707E+01	-3.84279E-01	1.23153E+02
5.22625E+08	1.12928E-01	1.79255E+02	-7.03081E+01	1.53787E+02	-7.17318E+01	-1.26504E+02	-3.94713E-01	1.23838E+02
5.25688E+08	1.06811E-01	1.79404E+02	-6.27858E+01	1.43503E+02	-8.40942E+01	1.55481E+02	-3.88664E-01	1.24548E+02
5.28750E+08	9.92987E-02	1.79423E+02	-6.79433E+01	8.68021E+01	-6.56199E+01	-1.59316E+02	-3.71960E-01	1.25328E+02
5.31813E+08	7.83893E-02	1.79442E+02	-6.88895E+01	-3.05490E+01	-6.74105E+01	1.72043E+02	-3.80049E-01	1.25933E+02
5.34875E+08	7.87128E-02	1.79578E+02	-6.69693E+01	1.93540E+01	-6.76437E+01	5.97450E+01	-3.57739E-01	1.26573E+02
5.37938E+08	6.03660E-02	1.79567E+02	-7.15640E+01	-4.99050E+01	-7.35420E+01	-9.45051E+01	-3.37643E-01	1.27215E+02
5.41000E+08	4.48852E-02	1.79566E+02	-6.38000E+01	1.66274E+02	-8.23260E+01	1.17316E+02	-3.46245E-01	1.28063E+02
5.44063E+08	3.40960E-02	1.79555E+02	-7.03107E+01	5.63128E+01	-6.21504E+01	-2.16502E+01	-3.10970E-01	1.28604E+02
5.47125E+08	1.93029E-02	1.79521E+02	-7.17442E+01	3.99133E+01	-6.95105E+01	-1.47172E+01	-3.06801E-01	1.29345E+02
5.50188E+08	-5.08068E-03	1.79640E+02	-7.05113E+01	9.61190E+01	-6.91363E+01	-6.47656E+01	-2.88984E-01	1.30173E+02
5.53250E+08	-2.22381E-02	1.79529E+02	-6.15512E+01	1.05082E+02	-7.45262E+01	-7.24296E+00	-2.67281E-01	1.30904E+02
5.56313E+08	-3.05043E-02	1.79578E+02	-7.33519E+01	-7.29128E+01	-6.40277E+01	1.32679E+02	-2.50552E-01	1.31636E+02
5.59375E+08	-4.90605E-02	1.79545E+02	-6.40505E+01	1.00495E+02	-7.43410E+01	-1.70262E+02	-2.38321E-01	1.32409E+02
5.62438E+08	-6.28872E-02	1.79664E+02	-7.18882E+01	-1.37400E+02	-6.80760E+01	-2.95756E+01	-2.25839E-01	1.33257E+02
5.65500E+08	-6.37530E-02	1.79493E+02	-6.69838E+01	-1.45487E+01	-6.82256E+01	-1.70118E+02	-2.21012E-01	1.34022E+02
5.68563E+08	-6.92469E-02	1.79352E+02	-6.43653E+01	-3.31490E+01	-7.21982E+01	-4.87497E+01	-2.27543E-01	1.34727E+02
5.71625E+08	-7.32334E-02	1.79398E+02	-6.98543E+01	1.61711E+02	-6.92043E+01	2.11420E+01	-2.29300E-01	1.35582E+02
5.74688E+08	-6.72965E-02	1.79207E+02	-6.32919E+01	-3.26728E+01	-7.14841E+01	1.39583E+02	-2.26960E-01	1.36371E+02
5.77750E+08	-6.47534E-02	1.79176E+02	-7.34406E+01	3.26537E+01	-7.38454E+01	-8.57472E+01	-2.32082E-01	1.37090E+02
5.80813E+08	-4.89576E-02	1.79205E+02	-6.63414E+01	1.69641E+02	-8.40509E+01	-8.57746E+01	-2.52275E-01	1.38015E+02
5.83875E+08	-3.98733E-02	1.78981E+02	-7.58904E+01	1.72352E+02	-6.69481E+01	1.15092E+02	-2.62597E-01	1.38749E+02
5.86938E+08	-3.33360E-02	1.79090E+02	-6.81073E+01	1.06694E+02	-6.63142E+01	-1.05953E+02	-2.75371E-01	1.39565E+02
5.90000E+08	-3.10908E-02	1.79099E+02	-7.54229E+01	-1.34301E+02	-7.11940E+01	1.29827E+02	-3.11016E-01	1.40287E+02
5.93063E+08	1.20690E-02	1.78988E+02	-7.26131E+01	2.10079E+00	-6.53795E+01	-1.51696E+02	-3.04015E-01	1.41066E+02
5.96125E+08	2.78367E-02	1.79064E+02	-8.18580E+01	1.10256E+02	-6.35778E+01	2.87042E+00	-3.42131E-01	1.41776E+02
5.99188E+08	5.36824E-02	1.78963E+02	-6.86725E+01	-1.64479E+02	-8.02098E+01	-8.90011E+01	-3.65460E-01	1.42342E+02
6.02250E+08	5.78566E-02	1.78992E+02	-6.61265E+01	-1.61488E+02	-6.53044E+01	-7.17605E+01	-3.79525E-01	1.43179E+02
6.05313E+08	6.43834E-02	1.79041E+02	-6.72873E+01	1.47718E+02	-6.66283E+01	-1.16258E+02	-4.00730E-01	1.43886E+02
6.08375E+08	8.10877E-02	1.79067E+02	-6.73983E+01	-6.84374E+01	-7.46243E+01	-6.51349E+01	-4.10390E-01	1.44471E+02
6.11438E+08	9.41347E-02	1.79136E+02	-7.19061E+01	1.56746E+02	-7.50878E+01	-1.32070E+02	-4.16658E-01	1.45236E+02
6.14500E+08	1.09129E-01	1.79145E+02	-7.06794E+01	-9.27175E+01	-7.16155E+01	-8.27141E+01	-4.25772E-01	1.45815E+02
6.17563E+08	1.20459E-01	1.79094E+02	-6.52330E+01	-2.86534E+01	-8.29803E+01	-1.74496E+02	-4.16576E-01	1.46537E+02
6.20625E+08	1.23676E-01	1.79351E+02	-7.04094E+01	1.25495E+02	-7.13387E+01	-1.19537E+02	-4.24923E-01	1.47196E+02
6.23688E+08	1.16226E-01	1.79409E+02	-7.08724E+01	-1.31587E+02	-6.92131E+01	-1.73294E+02	-4.14758E-01	1.47949E+02
6.26750E+08	1.16187E-01	1.79398E+02	-7.10838E+01	-5.69217E+01	-6.74697E+01	-1.67746E+02	-4.16513E-01	1.48540E+02
