!Keysight Technologies N9917A: A.12.46								
"!Date: Thursday, 09 November 2023 20:35:02"								
!Timezone: (UTC-03:00) Buenos Aires								
!Model: N9917A								
!Serial: MY56072049								
!GPS Latitude: 								
!GPS Longitude: 								
!GPS TimeStamp: 0001-01-01 00:00:00Z								
!GPS Seconds Since Last Read: 0								
!CHECKSUM:0747911887								
!Correction: S11(ON U)S21(ON U)S12(ON U)S22(ON U)								
"!S2P File: Measurements:S11,S21,S12,S22:"								
# Hz S DB R 50								
100000000	-4.116717919	166.6400	-66.16446749	-84.41926617	-67.68640681	45.24929923	-0.02422127	23.43467647
103062500	-4.105514044	166.2000	-63.83588014	173.426023	-70.54361355	63.72035536	-0.027713646	24.2133941
106125000	-4.111924097	165.7400	-67.74261692	10.03065685	-68.76914763	34.94801675	-0.037904417	25.00502323
109187500	-4.082659446	165.3700	-68.67305866	-81.18500735	-64.92135067	-44.60755395	-0.059335651	25.67117919
112250000	-4.066962347	164.9100	-68.39684843	-0.955533903	-96.21124588	-128.4952827	-0.067649637	26.42103277
115312500	-4.047484092	164.5600	-69.92936384	110.8014626	-65.78824277	108.9673054	-0.091225341	27.24229158
118375000	-4.025956874	164.1900	-71.06343127	-8.496405416	-65.95943477	-50.16035551	-0.101443663	27.95944264
121437500	-4.007982388	163.9500	-68.7805207	-13.5020752	-63.51536817	166.0688518	-0.128990823	28.65181861
124500000	-3.990589443	163.4900	-79.04157988	105.9034866	-64.83295724	-136.6400946	-0.135744607	29.3724151
127562500	-3.974583208	163.1000	-69.06628805	58.97976649	-82.68541198	-24.6466331	-0.14990086	30.05595113
130625000	-3.946312401	162.8300	-69.72336428	121.1250196	-63.57039702	2.823301097	-0.15944403	30.7452356
133687500	-3.946698413	162.5500	-72.66550242	28.14871982	-61.28957482	5.631599236	-0.175715998	31.36027833
136750000	-3.945542546	162.1200	-69.23558055	-11.53137888	-70.13776285	-22.64758864	-0.183049967	32.06984594
139812500	-3.952004773	161.7900	-65.82396756	-168.5242339	-70.23975023	-69.49965195	-0.195226179	32.81749853
142875000	-3.960343647	161.4600	-65.66808868	35.68082666	-73.70059766	-123.9173315	-0.194635149	33.4196378
145937500	-3.971289101	161.1500	-66.87071515	36.02235944	-73.93560134	26.31738017	-0.200868813	34.08424914
149000000	-3.971759695	160.7200	-65.0963873	110.6640721	-76.70862321	-159.9802229	-0.190626083	34.75131286
152062500	-4.002522003	160.3400	-63.60681896	39.56523356	-58.64673639	-121.2918553	-0.185362753	35.52909971
155125000	-4.004862689	159.9400	-75.38421399	-92.04438054	-82.5965132	74.39439961	-0.176728732	36.14791295
158187500	-4.034928937	159.6600	-72.34935528	117.9932596	-64.65722109	-117.0542141	-0.16941487	36.86124977
161250000	-4.059909959	159.1700	-75.64113114	21.0557573	-79.05275101	156.1002851	-0.150123522	37.59109174
164312500	-4.06855983	158.7800	-70.86649117	-14.28288747	-63.93023552	-178.9293133	-0.145792594	38.3504214
167375000	-4.085953758	158.3700	-65.96320811	139.7793043	-71.09084521	-20.40721126	-0.118760158	39.04552298
170437500	-4.105306378	157.9500	-72.22926756	4.022204401	-76.55045555	-24.73123728	-0.106539796	39.75725859
173500000	-4.132262144	157.4800	-70.16125293	28.7458114	-84.10171428	-120.2999515	-0.104546529	40.53879203
176562500	-4.14341829	157.0800	-68.11214353	-89.1812674	-75.38924232	-137.4332339	-0.083949788	41.20400293
179625000	-4.15409845	156.5300	-73.26856444	-45.17389264	-85.15075366	-32.01866203	-0.075136618	41.9628486
182687500	-4.153143912	156.0300	-66.93112213	69.13602381	-64.24618013	-121.5096356	-0.068115343	42.80658427
185750000	-4.153581377	155.6200	-72.40858253	31.36103634	-72.85186587	-124.614945	-0.05698147	43.55815058
188812500	-4.155648003	155.1400	-69.69798042	-155.7092453	-69.92979731	96.97890164	-0.058529532	44.33871268
191875000	-4.154453666	154.7600	-70.7791802	-37.66110047	-64.90253555	49.38174066	-0.05425181	45.13140148
194937500	-4.14554852	154.2900	-75.79689957	51.08243383	-74.17738832	-50.79801317	-0.057095745	45.93492338
198000000	-4.128225965	153.7800	-65.5674543	-38.6250649	-62.51692747	179.2783343	-0.073225362	46.69190736
201062500	-4.105562984	153.5800	-78.91430939	-38.32513393	-72.15707577	-83.79704866	-0.074860018	47.4365412
204125000	-4.091101412	153.0500	-69.3247932	-142.6217457	-69.41916992	-125.3634702	-0.095169437	48.26853373
207187500	-4.057636592	152.7000	-72.35675351	-162.5156044	-79.26274759	-60.22516076	-0.108839303	48.87862042
210250000	-4.051580091	152.3300	-75.47533437	116.9854931	-64.72101192	133.9442808	-0.125288698	49.71307038
213312500	-4.028988699	152.0200	-77.60325467	-131.9894562	-71.59365569	82.42089302	-0.149972158	50.42971582
216375000	-4.008932617	151.5700	-69.8032271	-47.45272656	-69.48804433	-154.026273	-0.159803348	51.21670933
219437500	-4.000326659	151.1800	-75.24237707	166.8944385	-68.72824739	72.55073032	-0.178147787	51.8229365
222500000	-3.982910233	151.0300	-75.09836533	84.4857011	-73.06066911	-125.2988255	-0.191541835	52.66608808
225562500	-3.969361328	150.6400	-67.621395	-133.6686691	-66.87775535	-49.15688729	-0.215715136	53.19339418
228625000	-3.977334715	150.2700	-72.10598318	45.21767193	-69.5635262	118.1398768	-0.207671994	53.89069562
231687500	-3.965656447	149.9200	-74.5866239	-157.3040842	-66.15343865	77.95653449	-0.217816956	54.58373495
234750000	-3.985143188	149.6600	-76.18816085	24.65658943	-73.71173773	-158.2168941	-0.233470733	55.30352752
237812500	-3.994478547	149.3000	-80.59959426	72.34908908	-67.09515167	27.87238837	-0.236482703	55.95142771
240875000	-4.003499997	148.9000	-76.89491106	136.5052187	-67.73474115	-140.6682842	-0.233916256	56.556715
243937500	-4.026044122	148.5600	-70.176027	-23.07518439	-70.38346947	-147.2558391	-0.234039231	57.23204762
247000000	-4.028939351	148.1200	-68.51741817	178.2498102	-62.77965758	-84.77821414	-0.234212056	58.05362797
250062500	-4.053251392	147.7200	-66.85015601	-31.19467408	-76.55578119	-9.949634512	-0.216136856	58.65996271
253125000	-4.085543485	147.4000	-66.74152403	-113.4630896	-65.94640463	145.7055828	-0.209819694	59.39195575
256187500	-4.08906975	146.9300	-86.22887933	16.88825117	-77.75229156	-19.81465608	-0.198881505	60.08304145
259250000	-4.114109158	146.4700	-66.66501452	46.49279272	-62.61392356	-168.7552012	-0.177327559	60.84142015
262312500	-4.140048295	146.0400	-67.41009295	-153.5871327	-64.78696383	162.7974162	-0.17139097	61.58009622
265375000	-4.15913021	145.6200	-66.38429156	61.581777	-73.49103672	47.95128014	-0.159137669	62.26004306
268437500	-4.169296053	145.0800	-81.23345179	143.7943458	-78.50842281	121.0181165	-0.136175277	62.97546838
271500000	-4.184604545	144.6500	-73.71577613	41.2532437	-72.94984197	15.33624422	-0.124050464	63.8003676
274562500	-4.187991694	144.2500	-68.93701202	-116.5388662	-71.16428618	-47.75971211	-0.121711397	64.55021068
277625000	-4.18813296	143.7800	-71.71445903	144.6715201	-66.92850109	-84.65687547	-0.11491537	65.24173538
280687500	-4.177904111	143.3500	-80.46765363	82.88008837	-80.11852168	-149.6801991	-0.117891411	66.07445654
283750000	-4.183561728	142.9000	-87.04588156	99.06245653	-67.6288636	102.5175381	-0.105746289	66.78185345
286812500	-4.166785629	142.4300	-71.02311541	-56.53431928	-73.33433578	152.9350438	-0.105502389	67.67159872
289875000	-4.144145921	141.9800	-72.97234717	27.73309292	-71.50484921	-21.58208091	-0.107747965	68.43186257
292937500	-4.123832617	141.6100	-71.87785206	-66.40409486	-80.59875488	-103.9634299	-0.111534645	69.20514634
296000000	-4.114258871	141.2200	-67.52565008	-155.7367949	-62.55480299	-45.56165712	-0.118939803	70.02219035
299062500	-4.096469615	140.8700	-69.07115528	34.32419803	-71.0160957	-59.29981867	-0.140788263	70.79060262
302125000	-4.070672311	140.6000	-68.10054154	-2.885299656	-66.59450488	110.5672109	-0.15577359	71.57875593
305187500	-4.047259661	140.0600	-72.77714556	-114.2554421	-67.68419089	0.867333488	-0.165827353	72.22018229
308250000	-4.037287293	139.8000	-64.25879832	42.16923309	-78.4069093	-96.50579362	-0.195872455	73.03740852
311312500	-4.023298827	139.6000	-75.32110051	-8.833339422	-71.82019565	163.3404085	-0.208517476	73.70962548
314375000	-4.017224864	139.0500	-83.6278446	161.6671795	-68.37322375	101.5079612	-0.228166265	74.38388481
317437500	-3.997230221	138.9500	-62.8546504	26.13574578	-62.65267691	28.82159525	-0.24698086	75.15325944
320500000	-3.999612428	138.4900	-64.92816117	131.8284574	-70.28039423	51.86223409	-0.247787316	75.82297975
323562500	-4.003251845	138.1100	-70.34866924	57.2876172	-73.75759883	-161.5578711	-0.274599005	76.51600446
326625000	-4.002959695	137.8700	-66.8507547	-78.93357236	-72.98225282	-115.7115739	-0.275988808	77.18124157
329687500	-4.017499797	137.5300	-65.38501363	168.34489	-73.66039059	69.94168512	-0.284648163	77.90726612
332750000	-4.029969342	137.1800	-77.96815221	146.5854934	-68.03958544	173.1143172	-0.282877248	78.49543009
335812500	-4.044091613	136.8100	-68.17719223	-81.1859294	-71.70125812	-110.0882014	-0.282425042	79.16418438
338875000	-4.05599632	136.4000	-76.80655168	84.21800435	-68.502318	5.824889858	-0.274575984	79.87534946
341937500	-4.078198029	135.9700	-66.05644659	128.1853439	-63.96893063	-134.5657412	-0.271562832	80.58224146
345000000	-4.097279831	135.5600	-72.62608637	-60.24228341	-68.0171983	152.7892821	-0.260799657	81.20870057
348062500	-4.124117634	135.1200	-67.89566976	13.98607604	-68.43774694	-44.52743914	-0.248066712	81.93651833
351125000	-4.1583189	134.6700	-82.70787943	-3.424753214	-61.74992603	-61.05313662	-0.244123803	82.71905158
354187500	-4.168166246	134.2100	-60.47901937	179.71108	-68.73855866	-168.1655623	-0.225356059	83.36078666
357250000	-4.188771777	133.7700	-69.14862546	-37.27396949	-59.65373502	-93.14668962	-0.213138166	84.07125011
360312500	-4.202756683	133.3800	-64.11792588	-146.2927626	-70.39107962	126.5390086	-0.201782156	84.82477978
363375000	-4.217219779	132.8300	-68.81113982	170.1444677	-69.70499198	-148.9839023	-0.180637875	85.5649537
366437500	-4.220787496	132.3700	-65.4952745	-107.1818264	-65.20443531	-76.13971811	-0.176723086	86.30643971
369500000	-4.228034911	131.7800	-73.33961463	117.3355672	-82.74405387	-90.37646867	-0.165932687	87.11076954
372562500	-4.203550602	131.3500	-69.04492429	-81.18296879	-72.95580445	-31.08886218	-0.146290437	87.87957322
375625000	-4.211426296	130.9700	-73.34702224	-110.6130126	-65.3983351	24.55887488	-0.157505137	88.73011932
378687500	-4.198034788	130.4500	-69.86147171	-104.066888	-63.66427624	-5.128019087	-0.142909807	89.4804926
381750000	-4.173242588	130.0400	-71.99071664	-99.35914348	-70.13832205	-63.965027	-0.151151156	90.25402585
384812500	-4.155298316	129.6400	-73.89092025	153.7520741	-69.34316803	98.45096204	-0.15407526	91.031582
387875000	-4.138061511	129.2500	-63.10095924	-32.86313384	-68.94292552	-126.6525908	-0.162417837	91.82134687
390937500	-4.121491918	129.0600	-73.82343441	160.6364155	-98.59670428	-15.50945643	-0.171314629	92.62225534
394000000	-4.088815028	128.6400	-65.28437589	71.36811693	-70.89455582	103.7705991	-0.18776196	93.33728245
397062500	-4.072880865	128.3100	-68.49261829	113.8724284	-73.07395957	-19.31885262	-0.21475694	94.18097598
400125000	-4.066856892	127.8900	-71.71017511	-151.999745	-73.31032081	152.6345081	-0.22312213	94.87927624
403187500	-4.039186784	127.6600	-69.58717066	-165.2237456	-67.69541275	-143.2079757	-0.249835662	95.62467353
406250000	-4.033599176	127.3700	-72.83963528	-23.94818715	-64.27882168	54.41980016	-0.257287618	96.39597886
409312500	-4.025485846	127.0100	-80.07597882	119.5297315	-69.23660682	-160.4692237	-0.278145467	97.08193495
412375000	-4.014777641	126.7100	-69.09727071	56.95178023	-73.64839574	-76.98199185	-0.313705565	97.79037275
415437500	-4.018167612	126.3800	-68.11261223	-159.6510921	-66.9596088	103.6300117	-0.307934745	98.41866772
418500000	-4.03129043	126.0300	-71.159278	162.9065193	-61.89911195	138.650166	-0.318539146	99.0968489
421562500	-4.042804761	125.8400	-65.81824221	11.24596598	-63.92748586	-56.97267845	-0.312352018	99.84328312
424625000	-4.047940057	125.4600	-74.13927317	117.2104907	-74.74096499	-108.593262	-0.34120853	100.4080573
427687500	-4.0552957	125.0900	-74.36208878	-90.30657352	-69.34648344	-100.2383219	-0.334762011	101.177113
430750000	-4.084572884	124.6600	-71.34606953	-59.25392111	-70.24857946	-70.52421281	-0.344800201	101.8418111
433812500	-4.102527878	124.2100	-65.73941075	105.3578417	-73.86326018	98.32441991	-0.324410103	102.4693872
436875000	-4.129069189	123.9300	-64.87360629	32.17831929	-63.52223244	49.28590983	-0.320656879	103.2318134
439937500	-4.158133173	123.4000	-72.64041759	-153.4562891	-64.74716843	-82.58415917	-0.304165296	103.9133377
443000000	-4.166999756	123.0500	-61.93239743	13.19611684	-69.42109398	146.5618576	-0.309951067	104.5854296
446062500	-4.212758052	122.3400	-70.56600966	-100.3277864	-65.61455479	-29.46826522	-0.295563895	105.3573979
449125000	-4.229430043	122.0700	-66.9859671	73.86945438	-74.71631217	-1.663475381	-0.283352545	106.0260201
452187500	-4.23662054	121.4400	-66.27059536	-30.74820045	-75.02499756	137.2808576	-0.267412381	106.7078732
455250000	-4.235199121	120.9800	-70.52665114	37.12989225	-71.1694501	97.50004647	-0.242276108	107.4799086
458312500	-4.238323189	120.6000	-67.97325786	4.773111782	-68.80629742	-30.96797332	-0.240986359	108.2317413
461375000	-4.253357302	119.9300	-67.51808976	-144.6836118	-78.32789447	-170.6398383	-0.208207599	108.9759542
464437500	-4.247147653	119.6400	-68.26443943	175.8120592	-69.1187932	-140.6773775	-0.201242255	109.7818235
467500000	-4.239671424	119.2100	-72.59134073	-51.80975089	-74.41499526	-128.4947985	-0.197296141	110.5363828
470562500	-4.229317625	118.7000	-68.4215098	118.6680318	-64.81079485	0.12341734	-0.186566938	111.2743395
473625000	-4.210866894	118.3000	-72.39482977	140.6287877	-86.35577166	53.33888227	-0.188665885	112.0905536
476687500	-4.180439389	117.8400	-72.90642655	-105.8928327	-65.87639524	-109.7288661	-0.184739076	112.8598782
479750000	-4.177966947	117.3200	-73.3347561	176.7915032	-65.93510839	-179.4884632	-0.195047502	113.6050183
482812500	-4.140433151	117.1100	-68.72881748	-54.92428383	-67.6081233	107.4098749	-0.204317037	114.4391003
485875000	-4.117497291	116.7500	-68.80782006	-116.7613679	-68.08310996	67.45498153	-0.227171632	115.3378624
488937500	-4.104180443	116.4100	-75.905061	115.5267232	-65.3097883	-165.2438098	-0.224393561	116.0617707
492000000	-4.083094175	116.1300	-68.7118594	104.3365159	-67.95431475	-156.3699429	-0.248658331	116.7925538
495062500	-4.06632884	115.8300	-71.47617926	86.86200193	-64.55689859	-23.48185546	-0.272923624	117.5202728
498125000	-4.051958336	115.5300	-72.44413569	101.9859873	-69.04962244	160.3654126	-0.287383714	118.3131613
501187500	-4.043119005	115.2700	-83.080501	-76.35553445	-87.86939915	-46.13363299	-0.29828603	118.9342793
504250000	-4.038396776	114.9300	-71.53224994	-130.457091	-73.69307395	-53.48758879	-0.317189764	119.6718861
507312500	-4.044954647	114.6700	-73.67160203	131.9778091	-70.72452865	144.8805707	-0.342007026	120.371128
510375000	-4.044139251	114.4300	-70.68793337	93.48105824	-63.66970271	103.7347183	-0.363775214	121.1185759
513437500	-4.04450246	114.1600	-68.56303001	-42.1435772	-78.05433749	112.2994968	-0.365422771	121.8190246
516500000	-4.053784525	113.7500	-73.28044975	-24.41750861	-73.62879963	54.16249946	-0.375974033	122.4623576
519562500	-4.072798322	113.3700	-74.90208215	-147.891798	-71.25158609	-162.1766816	-0.387809138	123.1625975
522625000	-4.082577214	113.0800	-67.81648237	-21.53445215	-80.37251155	-151.3098768	-0.387413802	123.7451675
525687500	-4.12390987	112.6000	-65.91149187	-177.5467869	-67.72780267	-46.35735098	-0.387642872	124.5227294
528750000	-4.138227632	112.3200	-75.13045354	-114.0444091	-68.75298397	-33.17983982	-0.376229773	125.2434048
531812500	-4.166956208	111.7900	-60.45344778	109.94899	-68.60030528	72.19873614	-0.385550714	125.8426006
534875000	-4.204212853	111.3000	-85.04332386	-157.4841212	-61.45058551	156.4304094	-0.364232026	126.5743871
537937500	-4.222231728	110.8100	-71.62595297	-36.73606356	-66.62716103	-72.30268703	-0.348166565	127.1941074
541000000	-4.243440289	110.4000	-70.31463319	-17.17910784	-72.06798939	-121.982066	-0.349763026	127.9668094
544062500	-4.260950921	109.9400	-72.40898137	-66.62053534	-58.23318176	-128.9031112	-0.314068315	128.5369768
547125000	-4.270187578	109.4600	-67.65892373	-92.21942237	-67.72117719	116.5670272	-0.308171828	129.3270774
550187500	-4.279274546	108.8100	-64.05756682	83.76617269	-65.82014166	171.9703381	-0.287544729	130.1199679
553250000	-4.283764944	108.3200	-64.32174584	-92.9530624	-72.56010481	-79.11676276	-0.264132358	130.8412022
556312500	-4.286834515	107.7400	-66.67063428	-137.2427924	-66.77050658	-89.08759902	-0.251315324	131.5629651
559375000	-4.285277205	107.2900	-63.55891476	64.96395717	-66.45075957	156.3405027	-0.241759912	132.3777295
562437500	-4.271985773	106.6500	-69.93247442	78.32009751	-73.25031429	161.8767386	-0.230537854	133.1955469
565500000	-4.255675851	106.3200	-72.58117312	8.252830129	-65.29580999	137.2504894	-0.22651549	133.9969444
568562500	-4.232169188	105.9800	-69.66437636	66.32989622	-87.31884573	96.39579525	-0.230716368	134.6876733
571625000	-4.216686347	105.4600	-67.4460586	-146.063839	-74.37929875	100.5826425	-0.230341095	135.5771394
574687500	-4.18919234	105.3000	-71.10580956	25.8480749	-71.4822615	64.8171798	-0.229043902	136.3221405
577750000	-4.165349192	104.8300	-69.96873996	101.338818	-72.20781793	-130.8084358	-0.234788768	137.0706259
580812500	-4.141971497	104.5300	-69.0981104	177.062879	-67.89383307	150.6702119	-0.262927586	137.9680837
583875000	-4.106555255	104.3400	-72.59874387	-138.4857445	-69.17982962	-52.65222223	-0.276000526	138.7389549
586937500	-4.077183956	103.9000	-76.57887809	-161.7827691	-64.36340254	-63.17496228	-0.283958486	139.498209
590000000	-4.072734535	103.5200	-68.82001055	40.99694942	-67.61583287	177.5939004	-0.303847351	140.2323813
593062500	-4.073096069	103.4800	-69.51706616	124.6207828	-71.90525687	106.2365424	-0.313281256	141.0370681
596125000	-4.058954052	103.1500	-75.6521386	-135.871206	-73.46389623	128.8077439	-0.33938195	141.6437942
599187500	-4.050070772	102.9300	-73.24094827	-132.1896595	-74.75392907	105.622189	-0.364144796	142.2626478
602250000	-4.063170472	102.6300	-69.85016086	27.13915659	-74.89193128	83.24282353	-0.381490421	143.1271331
605312500	-4.053001269	102.2400	-69.11430052	42.72339067	-73.21295811	174.096756	-0.397815651	143.8061664
608375000	-4.06636237	101.9800	-65.6594658	61.05167742	-66.99287049	-60.05630105	-0.415059074	144.4311993
611437500	-4.091587426	101.5900	-66.16613473	156.5835654	-68.51683434	-160.22251	-0.416968788	145.1432373
614500000	-4.106004772	101.3000	-64.10692218	-54.9721579	-81.60547738	78.23745847	-0.439832033	145.8177634
617562500	-4.125016165	101.0400	-69.91650467	-76.77669961	-66.77689943	-110.6312576	-0.423331531	146.4980622
620625000	-4.161063647	100.4100	-76.08848066	-66.72427331	-68.00564204	-147.7298373	-0.434005486	147.1408989
623687500	-4.182347125	100.0800	-66.10430284	-163.5766924	-68.96236447	91.0487454	-0.41774631	147.8701293
626750000	-4.199945812	99.5700	-63.27288828	-145.3538507	-82.3473694	157.5987737	-0.414625162	148.514217
629812500	-4.238520452	99.1300	-65.74572308	70.03280267	-64.11888741	-33.29206928	-0.409398869	149.1460568
632875000	-4.260688169	98.6100	-63.44035338	-9.333196776	-68.69764378	-90.15638505	-0.40146	149.8193881
635937500	-4.275790376	98.2700	-67.94957762	159.6932553	-67.97837905	176.3819846	-0.378128894	150.5703604
639000000	-4.291854531	97.6700	-63.08636889	13.35301532	-68.67230747	75.81803443	-0.373475443	151.3059014
642062500	-4.313254922	97.1200	-68.04398343	-177.6293391	-63.83546073	-40.75022904	-0.344285591	151.9795915
645125000	-4.309247948	96.5300	-60.57094764	98.30548354	-70.02300501	-86.22619562	-0.3258379	152.7671271
648187500	-4.292095851	95.9800	-69.03160138	-14.19136134	-65.8041663	134.1923967	-0.321797623	153.4935291
651250000	-4.304613754	95.5400	-81.61286215	171.483393	-61.83823159	-99.47776097	-0.313639606	154.2451256
654312500	-4.316457842	95.0700	-66.17660303	-85.06305183	-78.30495902	-32.60597613	-0.285964037	155.0638363
