!Keysight Technologies N9917A: A.12.46								
"!Date: Thursday, 09 November 2023 20:36:02"								
!Timezone: (UTC-03:00) Buenos Aires								
!Model: N9917A								
!Serial: MY56072049								
!GPS Latitude: 								
!GPS Longitude: 								
!GPS TimeStamp: 0001-01-01 00:00:00Z								
!GPS Seconds Since Last Read: 0								
!CHECKSUM:0698862074								
!Correction: S11(ON U)S21(ON U)S12(ON U)S22(ON U)								
"!S2P File: Measurements:S11,S21,S12,S22:"								
# Hz S DB R 50								
1.00000E+08	-4.60774E+01	4.43075E+01	-1.01009E+01	-6.09815E+00	-1.00752E+01	2.00746E+01	-4.18084E+01	-7.94287E+00
1.03063E+08	-4.67595E+01	4.94444E+01	-1.01148E+01	-6.32920E+00	-1.00960E+01	2.06220E+01	-4.28035E+01	-6.76679E+00
1.06125E+08	-4.69106E+01	6.38808E+01	-1.01073E+01	-6.36287E+00	-1.00943E+01	2.13374E+01	-4.34046E+01	-3.63387E+00
1.09188E+08	-4.71559E+01	8.55534E+01	-1.00998E+01	-6.74392E+00	-1.00963E+01	2.18356E+01	-4.51726E+01	-2.97033E+00
1.12250E+08	-4.66550E+01	9.68996E+01	-1.01017E+01	-6.84497E+00	-1.00813E+01	2.25858E+01	-4.75475E+01	1.38984E+00
1.15313E+08	-4.65905E+01	1.19020E+02	-1.01021E+01	-7.03602E+00	-1.00925E+01	2.31756E+01	-5.50431E+01	-1.91106E+01
1.18375E+08	-4.65923E+01	1.38460E+02	-1.00957E+01	-7.09969E+00	-1.00772E+01	2.37519E+01	-5.62278E+01	-4.18286E+01
1.21438E+08	-4.43550E+01	1.58329E+02	-1.00999E+01	-7.49075E+00	-1.00818E+01	2.43357E+01	-5.34912E+01	-7.97332E+01
1.24500E+08	-4.59571E+01	1.72318E+02	-1.01009E+01	-7.64180E+00	-1.00802E+01	2.49305E+01	-5.07878E+01	-1.04813E+02
1.27563E+08	-4.30490E+01	1.73357E+02	-1.00906E+01	-7.70285E+00	-1.00831E+01	2.57351E+01	-4.75876E+01	-1.05229E+02
1.30625E+08	-4.29560E+01	-1.75637E+02	-1.00938E+01	-8.01652E+00	-1.00714E+01	2.62285E+01	-4.48185E+01	-1.05339E+02
1.33688E+08	-4.22611E+01	-1.63430E+02	-1.00902E+01	-8.15757E+00	-1.00729E+01	2.68164E+01	-4.29089E+01	-9.96978E+01
1.36750E+08	-4.17753E+01	-1.50669E+02	-1.01082E+01	-8.39862E+00	-1.00894E+01	2.74225E+01	-4.17783E+01	-1.00629E+02
1.39813E+08	-4.19895E+01	-1.42651E+02	-1.00967E+01	-8.52967E+00	-1.00945E+01	2.80345E+01	-4.01798E+01	-9.92795E+01
1.42875E+08	-4.09365E+01	-1.40527E+02	-1.00832E+01	-8.66334E+00	-1.00990E+01	2.87305E+01	-3.98251E+01	-8.99863E+01
1.45938E+08	-4.02001E+01	-1.29087E+02	-1.00987E+01	-8.95439E+00	-1.00891E+01	2.93150E+01	-3.84899E+01	-8.39375E+01
1.49000E+08	-4.07289E+01	-1.18524E+02	-1.00969E+01	-9.07544E+00	-1.00949E+01	2.98962E+01	-3.81071E+01	-8.22755E+01
1.52063E+08	-4.12266E+01	-1.09106E+02	-1.00999E+01	-9.33650E+00	-1.00876E+01	3.05672E+01	-3.77339E+01	-7.48492E+01
1.55125E+08	-4.09712E+01	-1.00539E+02	-1.00894E+01	-9.52016E+00	-1.00947E+01	3.11317E+01	-3.69876E+01	-6.57123E+01
1.58188E+08	-4.05265E+01	-9.16719E+01	-1.00920E+01	-9.69122E+00	-1.00779E+01	3.18575E+01	-3.70247E+01	-5.96067E+01
1.61250E+08	-4.17070E+01	-7.94324E+01	-1.00982E+01	-9.94227E+00	-1.00948E+01	3.22641E+01	-3.64381E+01	-5.60395E+01
1.64313E+08	-4.15773E+01	-7.55714E+01	-1.00905E+01	-1.00133E+01	-1.00798E+01	3.30491E+01	-3.58007E+01	-5.56617E+01
1.67375E+08	-4.13688E+01	-6.61399E+01	-1.00986E+01	-1.02070E+01	-1.00830E+01	3.35999E+01	-3.60942E+01	-4.38414E+01
1.70438E+08	-4.25030E+01	-4.75118E+01	-1.01155E+01	-1.04580E+01	-1.01028E+01	3.41208E+01	-3.58862E+01	-4.08065E+01
1.73500E+08	-4.27834E+01	-3.48604E+01	-1.01073E+01	-1.05391E+01	-1.01018E+01	3.46790E+01	-3.63330E+01	-3.52499E+01
1.76563E+08	-4.38289E+01	-2.53896E+01	-1.01080E+01	-1.07901E+01	-1.00874E+01	3.53780E+01	-3.61352E+01	-2.75170E+01
1.79625E+08	-4.35805E+01	-1.57870E+01	-1.01134E+01	-1.08738E+01	-1.00905E+01	3.60036E+01	-3.59655E+01	-2.30915E+01
1.82688E+08	-4.53923E+01	4.19557E+00	-1.01189E+01	-1.10649E+01	-1.01017E+01	3.66333E+01	-3.63480E+01	-2.03058E+01
1.85750E+08	-4.55743E+01	1.25836E+01	-1.01203E+01	-1.14959E+01	-1.01129E+01	3.71797E+01	-3.64701E+01	-1.28832E+01
1.88813E+08	-4.54416E+01	3.46818E+01	-1.01159E+01	-1.15470E+01	-1.01039E+01	3.79034E+01	-3.72538E+01	-1.08149E+01
1.91875E+08	-4.68111E+01	3.41012E+01	-1.01268E+01	-1.16306E+01	-1.01155E+01	3.86172E+01	-3.78890E+01	-1.13789E+01
1.94938E+08	-4.73693E+01	4.78257E+01	-1.01099E+01	-1.17317E+01	-1.00987E+01	3.92879E+01	-3.89847E+01	-9.75284E+00
1.98000E+08	-4.71672E+01	6.01809E+01	-1.01169E+01	-1.20427E+01	-1.01147E+01	3.97892E+01	-3.91472E+01	-7.54858E+00
2.01063E+08	-5.14481E+01	7.92546E+01	-1.01292E+01	-1.22138E+01	-1.01013E+01	4.04825E+01	-4.09286E+01	9.98357E-01
2.04125E+08	-4.83005E+01	1.09065E+02	-1.01286E+01	-1.23675E+01	-1.01137E+01	4.11117E+01	-4.16273E+01	-7.79058E+00
2.07188E+08	-4.95110E+01	1.35858E+02	-1.01261E+01	-1.25785E+01	-1.01131E+01	4.17056E+01	-4.19260E+01	-1.28235E+01
2.10250E+08	-4.60090E+01	1.44877E+02	-1.01024E+01	-1.28196E+01	-1.01036E+01	4.23948E+01	-4.26092E+01	-1.90991E+01
2.13313E+08	-4.61640E+01	1.72871E+02	-1.01068E+01	-1.29806E+01	-1.01105E+01	4.28612E+01	-4.39913E+01	-3.34842E+01
2.16375E+08	-4.46749E+01	-1.74840E+02	-1.01092E+01	-1.31043E+01	-1.01040E+01	4.35789E+01	-4.54358E+01	-4.56396E+01
2.19438E+08	-4.55689E+01	-1.74898E+02	-1.01075E+01	-1.33253E+01	-1.01076E+01	4.41202E+01	-4.36506E+01	-5.25534E+01
2.22500E+08	-4.21677E+01	-1.51717E+02	-1.01221E+01	-1.33364E+01	-1.00985E+01	4.48490E+01	-4.13007E+01	-6.75885E+01
2.25563E+08	-4.16285E+01	-1.49049E+02	-1.01097E+01	-1.36474E+01	-1.01095E+01	4.54137E+01	-3.98885E+01	-5.72558E+01
2.28625E+08	-4.25887E+01	-1.32443E+02	-1.01117E+01	-1.38011E+01	-1.01141E+01	4.59336E+01	-3.89172E+01	-6.31974E+01
2.31688E+08	-4.13231E+01	-1.27403E+02	-1.01158E+01	-1.40522E+01	-1.00894E+01	4.67090E+01	-3.83723E+01	-6.07040E+01
2.34750E+08	-4.03309E+01	-1.17525E+02	-1.01237E+01	-1.42632E+01	-1.00897E+01	4.72396E+01	-3.69678E+01	-6.40738E+01
2.37813E+08	-3.98889E+01	-1.05162E+02	-1.00984E+01	-1.45143E+01	-1.01053E+01	4.77305E+01	-3.67315E+01	-5.67995E+01
2.40875E+08	-3.99780E+01	-1.03964E+02	-1.01192E+01	-1.46979E+01	-1.01166E+01	4.84370E+01	-3.55743E+01	-5.24277E+01
2.43938E+08	-4.02767E+01	-9.20594E+01	-1.01031E+01	-1.48290E+01	-1.00869E+01	4.90179E+01	-3.51631E+01	-4.91831E+01
2.47000E+08	-3.98175E+01	-8.71139E+01	-1.01156E+01	-1.48900E+01	-1.01073E+01	4.96285E+01	-3.46856E+01	-4.61051E+01
2.50063E+08	-4.03117E+01	-7.73117E+01	-1.01264E+01	-1.51611E+01	-1.01054E+01	5.02982E+01	-3.44780E+01	-3.81730E+01
2.53125E+08	-3.98348E+01	-6.46035E+01	-1.01112E+01	-1.54248E+01	-1.01019E+01	5.09743E+01	-3.43073E+01	-3.84278E+01
2.56188E+08	-4.00218E+01	-6.00495E+01	-1.01086E+01	-1.56058E+01	-1.01130E+01	5.14936E+01	-3.37457E+01	-3.36262E+01
2.59250E+08	-4.11063E+01	-5.03098E+01	-1.01203E+01	-1.57069E+01	-1.01158E+01	5.19944E+01	-3.39538E+01	-2.83600E+01
2.62313E+08	-4.15059E+01	-3.73388E+01	-1.01230E+01	-1.58879E+01	-1.00974E+01	5.26864E+01	-3.40590E+01	-2.37762E+01
2.65375E+08	-4.20324E+01	-3.54156E+01	-1.01196E+01	-1.61316E+01	-1.01214E+01	5.32910E+01	-3.36877E+01	-2.01619E+01
2.68438E+08	-4.29676E+01	-2.27657E+01	-1.01329E+01	-1.62326E+01	-1.01186E+01	5.39738E+01	-3.35032E+01	-1.54042E+01
2.71500E+08	-4.19390E+01	-9.32550E+00	-1.01129E+01	-1.65237E+01	-1.01115E+01	5.45987E+01	-3.42172E+01	-1.23727E+01
2.74563E+08	-4.35111E+01	4.05343E+00	-1.00994E+01	-1.67047E+01	-1.01159E+01	5.50790E+01	-3.41616E+01	-7.80230E+00
2.77625E+08	-4.51367E+01	4.11327E+00	-1.01311E+01	-1.67584E+01	-1.01170E+01	5.58276E+01	-3.39135E+01	-1.84136E+00
2.80688E+08	-4.52532E+01	1.80505E+01	-1.01345E+01	-1.70694E+01	-1.01248E+01	5.64586E+01	-3.45399E+01	7.63572E-01
2.83750E+08	-4.69355E+01	2.98873E+01	-1.01438E+01	-1.71205E+01	-1.01295E+01	5.71710E+01	-3.45058E+01	6.76096E+00
2.86813E+08	-4.79435E+01	3.88388E+01	-1.01518E+01	-1.74316E+01	-1.01154E+01	5.76931E+01	-3.49715E+01	7.63209E+00
2.89875E+08	-4.76737E+01	5.94701E+01	-1.01443E+01	-1.76052E+01	-1.01133E+01	5.82728E+01	-3.59908E+01	7.18755E+00
2.92938E+08	-5.01940E+01	9.96279E+01	-1.01237E+01	-1.77563E+01	-1.01251E+01	5.89549E+01	-3.61013E+01	8.02566E+00
2.96000E+08	-5.27089E+01	1.15966E+02	-1.01321E+01	-1.78473E+01	-1.01217E+01	5.97078E+01	-3.76558E+01	5.88510E+00
2.99063E+08	-5.19602E+01	1.44278E+02	-1.01425E+01	-1.80384E+01	-1.01092E+01	6.02705E+01	-3.77719E+01	4.98237E+00
3.02125E+08	-5.04439E+01	-1.74865E+02	-1.01437E+01	-1.81820E+01	-1.01169E+01	6.07864E+01	-3.87246E+01	5.02845E-01
3.05188E+08	-4.73177E+01	-1.70687E+02	-1.01388E+01	-1.83231E+01	-1.01144E+01	6.14725E+01	-3.87752E+01	-3.06015E+00
3.08250E+08	-4.72085E+01	-1.51481E+02	-1.01201E+01	-1.86741E+01	-1.01301E+01	6.21255E+01	-3.92638E+01	-1.27124E+01
3.11313E+08	-4.45607E+01	-1.32268E+02	-1.01429E+01	-1.87652E+01	-1.01225E+01	6.27948E+01	-3.85474E+01	-1.66841E+01
3.14375E+08	-4.44209E+01	-1.31858E+02	-1.01342E+01	-1.89189E+01	-1.01202E+01	6.33060E+01	-3.82622E+01	-2.35134E+01
3.17438E+08	-4.22382E+01	-1.17973E+02	-1.01252E+01	-1.91799E+01	-1.01142E+01	6.37704E+01	-3.78992E+01	-2.73001E+01
3.20500E+08	-4.09087E+01	-1.15446E+02	-1.01272E+01	-1.92910E+01	-1.01268E+01	6.45069E+01	-3.73218E+01	-3.08515E+01
3.23563E+08	-3.99969E+01	-1.05125E+02	-1.01426E+01	-1.94220E+01	-1.01255E+01	6.52128E+01	-3.66679E+01	-3.11477E+01
3.26625E+08	-3.98320E+01	-9.57248E+01	-1.01101E+01	-1.97057E+01	-1.01196E+01	6.58010E+01	-3.54957E+01	-3.17511E+01
3.29688E+08	-4.00436E+01	-9.33999E+01	-1.01372E+01	-1.98967E+01	-1.01124E+01	6.64342E+01	-3.49041E+01	-3.36434E+01
3.32750E+08	-3.99431E+01	-8.42745E+01	-1.01311E+01	-2.00878E+01	-1.01160E+01	6.70574E+01	-3.48208E+01	-2.66702E+01
3.35813E+08	-3.88715E+01	-7.73490E+01	-1.01339E+01	-2.02088E+01	-1.01179E+01	6.77579E+01	-3.37480E+01	-2.30789E+01
3.38875E+08	-3.89911E+01	-6.97820E+01	-1.01200E+01	-2.03825E+01	-1.01196E+01	6.82085E+01	-3.33035E+01	-2.36254E+01
3.41938E+08	-3.92962E+01	-6.16513E+01	-1.01312E+01	-2.06036E+01	-1.01253E+01	6.88808E+01	-3.28748E+01	-1.98573E+01
3.45000E+08	-3.94477E+01	-5.44398E+01	-1.01340E+01	-2.07046E+01	-1.01233E+01	6.94219E+01	-3.25590E+01	-1.58219E+01
3.48063E+08	-3.95509E+01	-4.43719E+01	-1.01504E+01	-2.10557E+01	-1.01248E+01	7.00439E+01	-3.22388E+01	-1.29632E+01
3.51125E+08	-3.97157E+01	-3.61879E+01	-1.01302E+01	-2.12693E+01	-1.01273E+01	7.06096E+01	-3.19037E+01	-9.61932E+00
3.54188E+08	-4.04738E+01	-2.97091E+01	-1.01276E+01	-2.14004E+01	-1.01333E+01	7.13281E+01	-3.22617E+01	-3.70502E+00
3.57250E+08	-4.01819E+01	-1.53691E+01	-1.01422E+01	-2.15614E+01	-1.01410E+01	7.19732E+01	-3.17340E+01	7.52372E-01
3.60313E+08	-4.08699E+01	-1.26876E+01	-1.01223E+01	-2.17725E+01	-1.01475E+01	7.25247E+01	-3.17274E+01	3.78722E+00
3.63375E+08	-4.07219E+01	-1.03653E+00	-1.01468E+01	-2.19962E+01	-1.01238E+01	7.32220E+01	-3.16367E+01	7.50485E+00
3.66438E+08	-4.25006E+01	8.60273E+00	-1.01529E+01	-2.21572E+01	-1.01409E+01	7.37902E+01	-3.17227E+01	1.18184E+01
3.69500E+08	-4.35828E+01	1.97069E+01	-1.01629E+01	-2.23983E+01	-1.01313E+01	7.43941E+01	-3.17085E+01	1.58242E+01
3.72563E+08	-4.40980E+01	2.64248E+01	-1.01513E+01	-2.25093E+01	-1.01488E+01	7.50189E+01	-3.24889E+01	1.91270E+01
3.75625E+08	-4.55502E+01	3.59511E+01	-1.01473E+01	-2.25930E+01	-1.01481E+01	7.56175E+01	-3.25665E+01	1.87603E+01
3.78688E+08	-4.71682E+01	4.85908E+01	-1.01428E+01	-2.28540E+01	-1.01350E+01	7.62881E+01	-3.31441E+01	2.33009E+01
3.81750E+08	-4.84849E+01	6.42408E+01	-1.01547E+01	-2.29251E+01	-1.01353E+01	7.70110E+01	-3.31308E+01	2.34586E+01
3.84813E+08	-5.09123E+01	8.48842E+01	-1.01625E+01	-2.31061E+01	-1.01470E+01	7.75237E+01	-3.36568E+01	2.70985E+01
3.87875E+08	-5.45946E+01	1.21605E+02	-1.01438E+01	-2.33898E+01	-1.01520E+01	7.82148E+01	-3.42969E+01	2.41657E+01
3.90938E+08	-5.52935E+01	-1.68397E+02	-1.01484E+01	-2.34809E+01	-1.01331E+01	7.88661E+01	-3.45325E+01	2.63278E+01
3.94000E+08	-5.11477E+01	-1.71701E+02	-1.01441E+01	-2.37019E+01	-1.01407E+01	7.94762E+01	-3.50384E+01	2.36540E+01
3.97063E+08	-4.62951E+01	-1.43980E+02	-1.01438E+01	-2.38430E+01	-1.01464E+01	8.01871E+01	-3.56161E+01	1.95401E+01
4.00125E+08	-4.82657E+01	-1.28274E+02	-1.01531E+01	-2.39366E+01	-1.01260E+01	8.07863E+01	-3.61816E+01	1.63073E+01
4.03188E+08	-4.59204E+01	-1.13698E+02	-1.01309E+01	-2.42177E+01	-1.01350E+01	8.15185E+01	-3.62335E+01	1.07424E+01
4.06250E+08	-4.35843E+01	-1.12831E+02	-1.01478E+01	-2.42187E+01	-1.01475E+01	8.19646E+01	-3.62423E+01	8.49080E+00
4.09313E+08	-4.19578E+01	-1.06680E+02	-1.01530E+01	-2.46098E+01	-1.01263E+01	8.26215E+01	-3.56015E+01	2.68771E+00
4.12375E+08	-4.10099E+01	-1.01544E+02	-1.01519E+01	-2.46535E+01	-1.01166E+01	8.32041E+01	-3.52139E+01	6.55864E-01
4.15438E+08	-4.03103E+01	-8.65960E+01	-1.01398E+01	-2.48645E+01	-1.01343E+01	8.38790E+01	-3.45064E+01	-1.77437E+00
4.18500E+08	-4.06694E+01	-8.12651E+01	-1.01528E+01	-2.52156E+01	-1.01382E+01	8.44845E+01	-3.41708E+01	-1.65275E+00
4.21563E+08	-3.90530E+01	-7.15448E+01	-1.01559E+01	-2.53366E+01	-1.01297E+01	8.50322E+01	-3.37861E+01	-1.61704E+00
4.24625E+08	-3.85978E+01	-6.76276E+01	-1.01338E+01	-2.55003E+01	-1.01347E+01	8.58275E+01	-3.26394E+01	-1.93400E+00
4.27688E+08	-3.83476E+01	-6.06860E+01	-1.01336E+01	-2.58113E+01	-1.01207E+01	8.62036E+01	-3.25408E+01	-2.81637E+00
4.30750E+08	-3.83001E+01	-5.36979E+01	-1.01457E+01	-2.59324E+01	-1.01244E+01	8.68493E+01	-3.16381E+01	7.84501E-01
4.33813E+08	-3.80244E+01	-4.36709E+01	-1.01653E+01	-2.60834E+01	-1.01255E+01	8.75530E+01	-3.16566E+01	3.15632E+00
4.36875E+08	-3.78863E+01	-3.77870E+01	-1.01375E+01	-2.62571E+01	-1.01483E+01	8.81463E+01	-3.12503E+01	6.94065E+00
4.39938E+08	-3.82145E+01	-2.86737E+01	-1.01486E+01	-2.65082E+01	-1.01388E+01	8.86618E+01	-3.11080E+01	8.21625E+00
4.43000E+08	-3.81473E+01	-2.86416E+01	-1.01538E+01	-2.67092E+01	-1.01300E+01	8.93092E+01	-3.03918E+01	1.21042E+01
4.46063E+08	-3.91281E+01	-1.25736E+01	-1.01453E+01	-2.68203E+01	-1.01411E+01	8.97905E+01	-3.03871E+01	1.39082E+01
4.49125E+08	-3.87038E+01	-4.64070E+00	-1.01492E+01	-2.71039E+01	-1.01493E+01	9.05557E+01	-3.04437E+01	1.97373E+01
4.52188E+08	-3.92035E+01	7.85641E-01	-1.01691E+01	-2.71550E+01	-1.01330E+01	9.11632E+01	-2.99434E+01	2.34920E+01
4.55250E+08	-3.98292E+01	6.69043E+00	-1.01565E+01	-2.73660E+01	-1.01346E+01	9.17855E+01	-3.02582E+01	2.68936E+01
4.58313E+08	-4.16588E+01	1.59934E+01	-1.01626E+01	-2.76071E+01	-1.01401E+01	9.24997E+01	-3.00547E+01	3.03141E+01
4.61375E+08	-4.17194E+01	2.87191E+01	-1.01680E+01	-2.77707E+01	-1.01609E+01	9.30115E+01	-3.04236E+01	3.31674E+01
4.64438E+08	-4.24592E+01	3.11666E+01	-1.01614E+01	-2.79718E+01	-1.01630E+01	9.36196E+01	-3.03684E+01	3.53025E+01
4.67500E+08	-4.38851E+01	3.41043E+01	-1.01808E+01	-2.80329E+01	-1.01712E+01	9.41726E+01	-3.04476E+01	4.06183E+01
4.70563E+08	-4.53731E+01	5.11603E+01	-1.01676E+01	-2.83339E+01	-1.01558E+01	9.48554E+01	-3.07459E+01	4.24264E+01
4.73625E+08	-4.71664E+01	4.98657E+01	-1.01822E+01	-2.84076E+01	-1.01614E+01	9.54900E+01	-3.10876E+01	4.25718E+01
4.76688E+08	-4.89803E+01	6.59909E+01	-1.01830E+01	-2.85286E+01	-1.01678E+01	9.61372E+01	-3.14052E+01	4.60293E+01
4.79750E+08	-5.07563E+01	9.49458E+01	-1.01791E+01	-2.89497E+01	-1.01817E+01	9.68341E+01	-3.17228E+01	4.59505E+01
4.82813E+08	-5.55376E+01	-1.77655E+02	-1.01585E+01	-2.89707E+01	-1.01528E+01	9.73812E+01	-3.23674E+01	4.61101E+01
4.85875E+08	-5.28272E+01	-1.54928E+02	-1.01750E+01	-2.90344E+01	-1.01542E+01	9.81204E+01	-3.26722E+01	4.23760E+01
4.88938E+08	-5.20150E+01	-1.39034E+02	-1.01801E+01	-2.92454E+01	-1.01592E+01	9.87837E+01	-3.32048E+01	4.45412E+01
4.92000E+08	-4.73362E+01	-1.18644E+02	-1.01557E+01	-2.94665E+01	-1.01376E+01	9.93457E+01	-3.30807E+01	4.27613E+01
4.95063E+08	-4.56855E+01	-1.17242E+02	-1.01611E+01	-2.95876E+01	-1.01586E+01	1.00001E+02	-3.40036E+01	3.74966E+01
4.98125E+08	-4.38112E+01	-1.00942E+02	-1.01683E+01	-2.99512E+01	-1.01413E+01	1.00674E+02	-3.40090E+01	3.41877E+01
5.01188E+08	-4.19344E+01	-8.10156E+01	-1.01621E+01	-2.99923E+01	-1.01536E+01	1.01206E+02	-3.38561E+01	3.40961E+01
5.04250E+08	-4.11370E+01	-7.85139E+01	-1.01604E+01	-3.01933E+01	-1.01379E+01	1.01805E+02	-3.33538E+01	2.97407E+01
5.07313E+08	-3.98877E+01	-7.20659E+01	-1.01413E+01	-3.03844E+01	-1.01331E+01	1.02439E+02	-3.33045E+01	2.75061E+01
5.10375E+08	-3.90523E+01	-6.84604E+01	-1.01616E+01	-3.04580E+01	-1.01348E+01	1.02988E+02	-3.28606E+01	2.33305E+01
5.13438E+08	-3.79212E+01	-5.94776E+01	-1.01390E+01	-3.08091E+01	-1.01501E+01	1.03646E+02	-3.25548E+01	2.29666E+01
5.16500E+08	-3.80600E+01	-5.58386E+01	-1.01567E+01	-3.09701E+01	-1.01427E+01	1.04237E+02	-3.16750E+01	2.24176E+01
5.19563E+08	-3.75018E+01	-4.16377E+01	-1.01681E+01	-3.11512E+01	-1.01508E+01	1.04835E+02	-3.14116E+01	2.26820E+01
5.22625E+08	-3.69330E+01	-3.83706E+01	-1.01266E+01	-3.13249E+01	-1.01538E+01	1.05528E+02	-3.09372E+01	2.53241E+01
5.25688E+08	-3.67234E+01	-3.05577E+01	-1.01516E+01	-3.15759E+01	-1.01445E+01	1.06106E+02	-3.04163E+01	2.42153E+01
5.28750E+08	-3.66592E+01	-2.75023E+01	-1.01606E+01	-3.18170E+01	-1.01490E+01	1.06652E+02	-3.01820E+01	2.75988E+01
5.31813E+08	-3.71816E+01	-1.82377E+01	-1.01783E+01	-3.19580E+01	-1.01308E+01	1.07286E+02	-2.97823E+01	2.92817E+01
5.34875E+08	-3.67770E+01	-1.26514E+01	-1.01701E+01	-3.21417E+01	-1.01440E+01	1.07864E+02	-2.98515E+01	3.20671E+01
5.37938E+08	-3.74658E+01	-6.44659E+00	-1.01594E+01	-3.23927E+01	-1.01613E+01	1.08477E+02	-2.91999E+01	3.70529E+01
5.41000E+08	-3.78550E+01	5.20135E+00	-1.01868E+01	-3.24938E+01	-1.01535E+01	1.09202E+02	-2.91756E+01	3.96447E+01
5.44063E+08	-3.80285E+01	5.14949E+00	-1.01640E+01	-3.26548E+01	-1.01620E+01	1.09699E+02	-2.87793E+01	4.42592E+01
5.47125E+08	-3.90484E+01	1.52111E+01	-1.01799E+01	-3.29385E+01	-1.01758E+01	1.10296E+02	-2.88403E+01	4.70662E+01
5.50188E+08	-3.98762E+01	2.77143E+01	-1.01797E+01	-3.30396E+01	-1.01487E+01	1.10968E+02	-2.89332E+01	5.00700E+01
5.53250E+08	-4.04753E+01	3.27766E+01	-1.01745E+01	-3.32606E+01	-1.01763E+01	1.11565E+02	-2.89013E+01	5.32638E+01
5.56313E+08	-4.02419E+01	3.87642E+01	-1.01783E+01	-3.33517E+01	-1.01624E+01	1.12154E+02	-2.89834E+01	5.60745E+01
5.59375E+08	-4.12230E+01	4.70133E+01	-1.01978E+01	-3.36153E+01	-1.01796E+01	1.12814E+02	-2.88931E+01	5.75865E+01
5.62438E+08	-4.22944E+01	5.68972E+01	-1.01778E+01	-3.38464E+01	-1.01774E+01	1.13543E+02	-2.93102E+01	6.22914E+01
5.65500E+08	-4.34179E+01	6.12281E+01	-1.01945E+01	-3.38074E+01	-1.01937E+01	1.14134E+02	-2.93517E+01	6.41286E+01
5.68563E+08	-4.59377E+01	7.48203E+01	-1.01806E+01	-3.40385E+01	-1.01761E+01	1.14662E+02	-2.96262E+01	6.46358E+01
5.71625E+08	-4.92308E+01	7.24255E+01	-1.01961E+01	-3.42822E+01	-1.01859E+01	1.15422E+02	-2.99486E+01	6.64663E+01
5.74688E+08	-5.38123E+01	1.08022E+02	-1.01816E+01	-3.44132E+01	-1.01809E+01	1.16002E+02	-3.02872E+01	6.77258E+01
5.77750E+08	-6.96332E+01	-1.34304E+02	-1.01979E+01	-3.45343E+01	-1.01829E+01	1.16679E+02	-3.06578E+01	6.83103E+01
5.80813E+08	-6.80392E+01	-3.81145E+01	-1.01885E+01	-3.48253E+01	-1.01818E+01	1.17303E+02	-3.10478E+01	6.70529E+01
5.83875E+08	-4.94904E+01	-9.88694E+01	-1.01826E+01	-3.48190E+01	-1.01781E+01	1.17965E+02	-3.12948E+01	6.60683E+01
5.86938E+08	-4.63673E+01	-9.44953E+01	-1.01723E+01	-3.51000E+01	-1.01794E+01	1.18535E+02	-3.16955E+01	6.42623E+01
5.90000E+08	-4.61266E+01	-9.06145E+01	-1.01775E+01	-3.51311E+01	-1.01705E+01	1.19291E+02	-3.19638E+01	6.23305E+01
5.93063E+08	-4.29133E+01	-6.92481E+01	-1.01764E+01	-3.54021E+01	-1.01677E+01	1.19682E+02	-3.21679E+01	6.21036E+01
5.96125E+08	-4.10796E+01	-6.10733E+01	-1.01885E+01	-3.54858E+01	-1.01580E+01	1.20427E+02	-3.21992E+01	5.71544E+01
5.99188E+08	-3.95453E+01	-5.13341E+01	-1.01563E+01	-3.57669E+01	-1.01534E+01	1.20954E+02	-3.17836E+01	5.54500E+01
6.02250E+08	-3.85283E+01	-4.72051E+01	-1.01794E+01	-3.58779E+01	-1.01726E+01	1.21713E+02	-3.18128E+01	5.28327E+01
6.05313E+08	-3.85538E+01	-4.46987E+01	-1.01538E+01	-3.61590E+01	-1.01501E+01	1.22278E+02	-3.15628E+01	5.00184E+01
6.08375E+08	-3.79539E+01	-3.94273E+01	-1.01653E+01	-3.63226E+01	-1.01576E+01	1.22878E+02	-3.11445E+01	4.86689E+01
6.11438E+08	-3.71567E+01	-3.04499E+01	-1.01765E+01	-3.65637E+01	-1.01419E+01	1.23514E+02	-3.05254E+01	4.89381E+01
6.14500E+08	-3.71318E+01	-2.46084E+01	-1.01511E+01	-3.66747E+01	-1.01600E+01	1.24142E+02	-3.01732E+01	4.85020E+01
6.17563E+08	-3.59936E+01	-2.17997E+01	-1.01605E+01	-3.69658E+01	-1.01481E+01	1.24753E+02	-2.98196E+01	5.03068E+01
