# Hz S DB R 50.000000
+3.000000e+07	-2.402581e+01	+1.231672e+01
+3.658863e+07	-2.364258e+01	+1.214076e+01
+4.317726e+07	-2.351484e+01	+1.178886e+01
+4.976589e+07	-2.345097e+01	+1.390029e+01
+5.635452e+07	-2.345097e+01	+1.108504e+01
+6.294314e+07	-2.338710e+01	-1.073314e+01
+6.953177e+07	-2.338710e+01	-1.055718e+01
+7.612040e+07	-2.332323e+01	-1.090909e+01
+8.270903e+07	-2.332323e+01	+1.196481e+01
+8.929766e+07	-2.332323e+01	-1.161290e+01
+9.588629e+07	-2.332323e+01	-1.108504e+01
+1.024749e+08	-2.332323e+01	-1.143695e+01
+1.090635e+08	-2.332323e+01	+1.337243e+01
+1.156522e+08	-2.325935e+01	+1.390029e+01
+1.222408e+08	-2.325935e+01	-1.302053e+01
+1.288294e+08	-2.319548e+01	-1.249267e+01
+1.354181e+08	-2.325935e+01	-1.302053e+01
+1.420067e+08	-2.325935e+01	-1.478006e+01
+1.485953e+08	-2.325935e+01	-1.460411e+01
+1.551839e+08	-2.306774e+01	-1.390029e+01
+1.617726e+08	-2.300387e+01	+1.847507e+01
+1.683612e+08	-2.274839e+01	-1.777126e+01
+1.749498e+08	-2.198194e+01	-1.618768e+01
+1.815385e+08	-2.102387e+01	-1.601173e+01
+1.881271e+08	-2.134323e+01	-2.217009e+01
+1.947157e+08	-2.172645e+01	-2.410557e+01
+2.013043e+08	-2.204581e+01	-2.533724e+01
+2.078930e+08	-2.230129e+01	-2.692082e+01
+2.144816e+08	-2.255677e+01	-2.445748e+01
+2.210702e+08	-2.268452e+01	-2.551320e+01
+2.276589e+08	-2.268452e+01	-2.920821e+01
+2.342475e+08	-2.281226e+01	+3.167155e+01
+2.408361e+08	-2.306774e+01	-3.202346e+01
+2.474247e+08	-2.313161e+01	+3.607038e+01
+2.540134e+08	-2.471085e+01	-3.043988e+01
+2.606020e+08	-2.457818e+01	-2.727273e+01
+2.671906e+08	-2.424651e+01	+4.064516e+01
+2.737793e+08	-2.437918e+01	-3.343109e+01
+2.803679e+08	-2.444551e+01	-3.026393e+01
+2.869565e+08	-2.437918e+01	-3.607038e+01
+2.935452e+08	-2.424651e+01	-3.835777e+01
+3.001338e+08	-2.444551e+01	-3.695015e+01
+3.067224e+08	-2.471085e+01	-4.117302e+01
+3.133110e+08	-2.497619e+01	-4.222874e+01
+3.198997e+08	-2.510886e+01	-4.398827e+01
+3.264883e+08	-2.517519e+01	+4.504399e+01
+3.330769e+08	-2.557320e+01	+4.434018e+01
+3.396656e+08	-2.563953e+01	+4.398827e+01
+3.462542e+08	-2.577220e+01	+4.363636e+01
+3.528428e+08	-2.597120e+01	+4.398827e+01
+3.594314e+08	-2.610387e+01	+4.310850e+01
+3.660201e+08	-2.583853e+01	-4.170088e+01
+3.726087e+08	-2.544053e+01	-4.011730e+01
+3.791973e+08	-2.510886e+01	-4.099707e+01
+3.857860e+08	-2.510886e+01	-4.240469e+01
+3.923746e+08	-2.490985e+01	-4.557185e+01
+3.989632e+08	-2.517519e+01	-4.768328e+01
+4.055518e+08	-2.544053e+01	-4.997067e+01
+4.121405e+08	-2.577220e+01	+5.190616e+01
+4.187291e+08	-2.623654e+01	+5.173021e+01
+4.253177e+08	-2.650188e+01	+5.102639e+01
+4.319064e+08	-2.650188e+01	+4.891496e+01
+4.384950e+08	-2.617021e+01	-4.750733e+01
+4.450836e+08	-2.617021e+01	+4.838710e+01
+4.516722e+08	-2.630287e+01	+4.944282e+01
+4.582609e+08	-2.636921e+01	+4.785924e+01
+4.648495e+08	-2.623654e+01	+4.680352e+01
+4.714381e+08	-2.603754e+01	+4.680352e+01
+4.780268e+08	-2.603754e+01	-4.645161e+01
+4.846154e+08	-2.577220e+01	-4.627566e+01
+4.912040e+08	-2.544053e+01	-4.645161e+01
+4.977926e+08	-2.537419e+01	-4.785924e+01
+5.043813e+08	-2.466657e+01	-4.891496e+01
+5.109699e+08	-2.453460e+01	-4.926686e+01
+5.175585e+08	-2.433666e+01	-5.120235e+01
+5.241472e+08	-2.407273e+01	-5.472141e+01
+5.307358e+08	-2.380880e+01	-5.507331e+01
+5.373244e+08	-2.354487e+01	-6.404692e+01
+5.439130e+08	-2.334692e+01	-6.422287e+01
+5.505017e+08	-2.328094e+01	-7.231672e+01
+5.570903e+08	-2.394076e+01	-8.357771e+01
+5.636789e+08	-2.552434e+01	+9.114370e+01
+5.702676e+08	-2.710792e+01	+8.797654e+01
+5.768562e+08	-2.750381e+01	+8.058651e+01
+5.834448e+08	-2.743783e+01	-7.530792e+01
+5.900334e+08	-2.783372e+01	-7.390029e+01
+5.966221e+08	-2.671202e+01	-7.671554e+01
+6.032107e+08	-2.717390e+01	+8.058651e+01
+6.097993e+08	-2.763578e+01	+8.234604e+01
+6.163880e+08	-2.796569e+01	+8.093842e+01
+6.229766e+08	-2.809765e+01	+7.847507e+01
+6.295652e+08	-2.829560e+01	+7.653959e+01
+6.361538e+08	-2.829560e+01	+7.618768e+01
+6.427425e+08	-2.829560e+01	-7.372434e+01
+6.493311e+08	-2.968123e+01	-7.390029e+01
+6.559197e+08	-2.822962e+01	-7.460411e+01
+6.625084e+08	-2.816364e+01	+7.478006e+01
+6.690970e+08	-2.842757e+01	+7.495601e+01
+6.756856e+08	-2.822962e+01	+7.478006e+01
+6.822742e+08	-2.948328e+01	-7.442815e+01
+6.888629e+08	-2.961525e+01	-7.266862e+01
+6.954515e+08	-2.875748e+01	+7.583578e+01
+7.020401e+08	-2.869150e+01	+7.583578e+01
+7.086288e+08	-2.888944e+01	+7.548387e+01
+7.152174e+08	-2.888944e+01	+7.530792e+01
+7.218060e+08	-2.829560e+01	+6.739003e+01
+7.283946e+08	-3.053900e+01	-6.615836e+01
+7.349833e+08	-2.855953e+01	+6.791789e+01
+7.415719e+08	-2.869150e+01	-6.475073e+01
+7.481605e+08	-2.842757e+01	-6.615836e+01
+7.547492e+08	-2.849355e+01	-6.914956e+01
+7.613378e+08	-2.677801e+01	-7.143695e+01
+7.679264e+08	-2.704194e+01	-7.161290e+01
+7.745151e+08	-2.750381e+01	+7.583578e+01
+7.811037e+08	-2.882346e+01	+7.548387e+01
+7.876923e+08	-2.869150e+01	+7.425220e+01
+7.942809e+08	-2.862551e+01	+7.407625e+01
+8.008696e+08	-2.791935e+01	+7.143695e+01
+8.074582e+08	-2.819032e+01	+6.739003e+01
+8.140468e+08	-2.913871e+01	+6.439883e+01
+8.206355e+08	-2.880000e+01	+6.070381e+01
+8.272241e+08	-2.886774e+01	+5.947214e+01
+8.338127e+08	-3.008710e+01	+5.736070e+01
+8.404013e+08	-2.785161e+01	+5.683284e+01
+8.469900e+08	-2.852903e+01	+5.278592e+01
+8.535786e+08	-2.819032e+01	+5.190616e+01
+8.601672e+08	-2.791935e+01	+4.979472e+01
+8.667559e+08	-2.690323e+01	+4.838710e+01
+8.733445e+08	-2.758065e+01	+4.715543e+01
+8.799331e+08	-2.751290e+01	+4.768328e+01
+8.865217e+08	-2.663226e+01	+4.768328e+01
+8.931104e+08	-2.724194e+01	+4.856305e+01
+8.996990e+08	-2.710645e+01	-3.888563e+01
+9.062876e+08	-2.778387e+01	-4.046921e+01
+9.128763e+08	-2.791935e+01	+4.328446e+01
+9.194649e+08	-2.744516e+01	-3.994135e+01
+9.260535e+08	-2.758065e+01	+4.398827e+01
+9.326421e+08	-2.758065e+01	+4.557185e+01
+9.392308e+08	-2.737742e+01	-4.099707e+01
+9.458194e+08	-2.724194e+01	-4.152493e+01
+9.524080e+08	-2.744516e+01	-4.029326e+01
+9.589967e+08	-2.724194e+01	+4.627566e+01
+9.655853e+08	-2.724194e+01	-4.099707e+01
+9.721739e+08	-2.717419e+01	-4.046921e+01
+9.787625e+08	-2.676774e+01	-4.170088e+01
+9.853512e+08	-2.690323e+01	+4.310850e+01
+9.919398e+08	-2.670000e+01	+4.328446e+01
+9.985284e+08	-2.683548e+01	+4.222874e+01
+1.005117e+09	-2.670000e+01	+4.258065e+01
+1.011706e+09	-2.642903e+01	-3.958944e+01
+1.018294e+09	-2.615806e+01	-3.923754e+01
+1.024883e+09	-2.602258e+01	-4.011730e+01
+1.031472e+09	-2.541290e+01	+4.539589e+01
+1.038060e+09	-2.534516e+01	+4.592375e+01
+1.044649e+09	-2.554839e+01	-4.293255e+01
+1.051237e+09	-2.541290e+01	-4.293255e+01
+1.057826e+09	-2.534516e+01	-4.451613e+01
+1.064415e+09	-2.514194e+01	-4.486804e+01
+1.071003e+09	-2.500645e+01	-4.557185e+01
+1.077592e+09	-2.493871e+01	-4.539589e+01
+1.084181e+09	-2.473548e+01	-4.609971e+01
+1.090769e+09	-2.460000e+01	-4.768328e+01
+1.097358e+09	-2.439677e+01	-4.944282e+01
+1.103946e+09	-2.398106e+01	-5.085044e+01
+1.110535e+09	-2.411689e+01	-5.260997e+01
+1.117124e+09	-2.411689e+01	-5.419355e+01
+1.123712e+09	-2.425273e+01	-5.542522e+01
+1.130301e+09	-2.425273e+01	-5.648094e+01
+1.136890e+09	-2.432065e+01	-5.736070e+01
+1.143478e+09	-2.391314e+01	-5.753666e+01
+1.150067e+09	-2.452440e+01	-5.771261e+01
+1.156656e+09	-2.445648e+01	+5.912023e+01
+1.163244e+09	-2.452440e+01	+5.859238e+01
+1.169833e+09	-2.472815e+01	-5.824047e+01
+1.176421e+09	-2.479607e+01	+6.052786e+01
+1.183010e+09	-2.404897e+01	-5.771261e+01
+1.189599e+09	-2.472815e+01	-5.700880e+01
+1.196187e+09	-2.466023e+01	+6.070381e+01
+1.202776e+09	-2.445648e+01	-5.788856e+01
+1.209365e+09	-2.466023e+01	-5.964809e+01
+1.215953e+09	-2.438856e+01	-6.000000e+01
+1.222542e+09	-2.438856e+01	-6.105572e+01
+1.229130e+09	-2.391314e+01	-6.123167e+01
+1.235719e+09	-2.418481e+01	-6.105572e+01
+1.242308e+09	-2.404897e+01	+6.175953e+01
+1.248896e+09	-2.391314e+01	+6.211144e+01
+1.255485e+09	-2.398106e+01	+6.193548e+01
+1.262074e+09	-2.425273e+01	+6.105572e+01
+1.268662e+09	-2.425273e+01	+5.964809e+01
+1.275251e+09	-2.438856e+01	+5.841642e+01
+1.281839e+09	-2.438856e+01	+5.612903e+01
+1.288428e+09	-2.391314e+01	+5.595308e+01
+1.295017e+09	-2.411689e+01	+4.926686e+01
+1.301605e+09	-2.438856e+01	+4.451613e+01
+1.308194e+09	-2.438856e+01	+4.082111e+01
+1.314783e+09	-2.404897e+01	+3.782991e+01
+1.321371e+09	-2.336979e+01	+4.205279e+01
+1.327960e+09	-2.364147e+01	+3.501466e+01
+1.334548e+09	-2.303021e+01	-3.325513e+01
+1.341137e+09	-2.275853e+01	+3.853372e+01
+1.347726e+09	-2.289437e+01	-3.202346e+01
+1.354314e+09	-2.289437e+01	-3.149560e+01
+1.360903e+09	-2.269062e+01	+3.747801e+01
+1.367492e+09	-2.255478e+01	-3.167155e+01
+1.374080e+09	-2.241894e+01	+3.360704e+01
+1.380669e+09	-2.194352e+01	+3.307918e+01
+1.387258e+09	-2.201144e+01	+3.343109e+01
+1.393846e+09	-2.180768e+01	+3.167155e+01
+1.400435e+09	-2.142258e+01	+2.885630e+01
+1.407023e+09	-2.101613e+01	+2.903226e+01
+1.413612e+09	-2.060968e+01	+2.744868e+01
+1.420201e+09	-2.027097e+01	+2.639296e+01
+1.426789e+09	-2.006774e+01	+2.639296e+01
+1.433378e+09	-1.979677e+01	+2.586510e+01
+1.439967e+09	-1.945806e+01	-2.498534e+01
+1.446555e+09	-1.925484e+01	+2.551320e+01
+1.453144e+09	-1.905161e+01	+2.551320e+01
+1.459732e+09	-1.878065e+01	+2.516129e+01
+1.466321e+09	-1.864516e+01	+2.428152e+01
+1.472910e+09	-1.844194e+01	+2.410557e+01
+1.479498e+09	-1.823871e+01	+2.375367e+01
+1.486087e+09	-1.803548e+01	+2.304985e+01
+1.492676e+09	-1.790000e+01	+2.093842e+01
+1.499264e+09	-1.776452e+01	+2.199413e+01
+1.505853e+09	-1.749355e+01	+2.076246e+01
+1.512441e+09	-1.715484e+01	-1.917889e+01
+1.519030e+09	-1.681613e+01	-1.882698e+01
+1.525619e+09	-1.647742e+01	-1.900293e+01
+1.532207e+09	-1.600323e+01	-1.917889e+01
+1.538796e+09	-1.552903e+01	-2.058651e+01
+1.545385e+09	-1.512258e+01	-2.058651e+01
+1.551973e+09	-1.478387e+01	-2.076246e+01
+1.558562e+09	-1.444516e+01	-2.111437e+01
+1.565151e+09	-1.410645e+01	-2.164223e+01
+1.571739e+09	-1.376774e+01	-2.234604e+01
+1.578328e+09	-1.342903e+01	-2.375367e+01
+1.584916e+09	-1.302258e+01	-2.551320e+01
+1.591505e+09	-1.268387e+01	-2.568915e+01
+1.598094e+09	-1.241290e+01	-2.780059e+01
+1.604682e+09	-1.207419e+01	-2.938416e+01
+1.611271e+09	-1.180323e+01	-3.079179e+01
+1.617860e+09	-1.153226e+01	-3.237537e+01
+1.624448e+09	-1.126129e+01	-3.378299e+01
+1.631037e+09	-1.078710e+01	-3.519062e+01
+1.637625e+09	-1.058387e+01	-3.659824e+01
+1.644214e+09	-1.031290e+01	-3.818182e+01
+1.650803e+09	-1.010968e+01	-3.976540e+01
+1.657391e+09	-9.906452e+00	-4.134897e+01
+1.663980e+09	-9.703226e+00	-4.275660e+01
+1.670569e+09	-9.500000e+00	-4.416422e+01
+1.677157e+09	-9.296774e+00	-4.574780e+01
+1.683746e+09	-9.093548e+00	-4.715543e+01
+1.690334e+09	-8.890323e+00	-4.856305e+01
+1.696923e+09	-8.687097e+00	-5.014663e+01
+1.703512e+09	-8.483871e+00	-5.155425e+01
+1.710100e+09	-8.280645e+00	-5.313783e+01
+1.716689e+09	-8.145161e+00	-5.454545e+01
+1.723278e+09	-7.941935e+00	-5.595308e+01
+1.729866e+09	-7.738710e+00	-5.736070e+01
+1.736455e+09	-7.535484e+00	-5.876833e+01
+1.743043e+09	-7.332258e+00	-6.017595e+01
+1.749632e+09	-7.129032e+00	-6.175953e+01
+1.756221e+09	-6.925806e+00	-6.334311e+01
+1.762809e+09	-6.722581e+00	-6.492669e+01
+1.769398e+09	-6.519355e+00	-6.668622e+01
+1.775987e+09	-6.316129e+00	-6.844575e+01
+1.782575e+09	-6.112903e+00	-7.020528e+01
+1.789164e+09	-5.909677e+00	-7.214076e+01
+1.795753e+09	-5.774194e+00	-7.390029e+01
+1.802341e+09	-5.570968e+00	-7.601173e+01
+1.808930e+09	-5.435484e+00	-7.794721e+01
+1.815518e+09	-5.300000e+00	-8.005865e+01
+1.822107e+09	-5.164516e+00	-8.392962e+01
+1.828696e+09	-5.029032e+00	-8.586510e+01
+1.835284e+09	-4.961290e+00	-8.604106e+01
+1.841873e+09	-4.825806e+00	-8.797654e+01
+1.848462e+09	-4.758065e+00	-9.114370e+01
+1.855050e+09	-4.690323e+00	-9.378299e+01
+1.861639e+09	-4.690323e+00	-9.571848e+01
+1.868227e+09	-4.622581e+00	-9.571848e+01
+1.874816e+09	-4.622581e+00	-9.888563e+01
+1.881405e+09	-4.554839e+00	-1.006452e+02
+1.887993e+09	-4.554839e+00	-1.022287e+02
+1.894582e+09	-4.487097e+00	-1.038123e+02
+1.901171e+09	-4.487097e+00	-1.052199e+02
+1.907759e+09	-4.487097e+00	-1.052199e+02
+1.914348e+09	-4.487097e+00	-1.075073e+02
+1.920936e+09	-4.487097e+00	-1.078592e+02
+1.927525e+09	-4.419355e+00	-1.090909e+02
+1.934114e+09	-4.419355e+00	-1.103226e+02
+1.940702e+09	-4.419355e+00	-1.126100e+02
+1.947291e+09	-4.419355e+00	-1.140176e+02
+1.953880e+09	-4.419355e+00	+1.185924e+02
+1.960468e+09	-4.351613e+00	-1.145455e+02
+1.967057e+09	-4.351613e+00	-1.152493e+02
+1.973645e+09	-4.283871e+00	-1.161290e+02
+1.980234e+09	-4.216129e+00	-1.166569e+02
+1.986823e+09	-4.148387e+00	-1.175367e+02
+1.993411e+09	-4.080645e+00	-1.182405e+02
+2.000000e+09	-4.012903e+00	-1.189443e+02
