# Hz S DB R 50.000000
+3.000000e+07	+1.020903e+01	+1.615249e+02
+3.658863e+07	+9.825806e+00	+1.585337e+02
+4.317726e+07	+9.442581e+00	+1.560704e+02
+4.976589e+07	+9.123226e+00	+1.541349e+02
+5.635452e+07	+8.803871e+00	+1.525513e+02
+6.294314e+07	+8.548387e+00	+1.511437e+02
+6.953177e+07	+8.356774e+00	+1.500880e+02
+7.612040e+07	+8.165161e+00	+1.492082e+02
+8.270903e+07	+8.037419e+00	+1.485044e+02
+8.929766e+07	+7.973548e+00	+1.478006e+02
+9.588629e+07	+7.973548e+00	+1.472727e+02
+1.024749e+08	+8.037419e+00	+1.467449e+02
+1.090635e+08	+8.037419e+00	+1.460411e+02
+1.156522e+08	+8.165161e+00	+1.453372e+02
+1.222408e+08	+8.292903e+00	+1.444575e+02
+1.288294e+08	+8.548387e+00	+1.434018e+02
+1.354181e+08	+8.803871e+00	+1.418182e+02
+1.420067e+08	+9.123226e+00	+1.400587e+02
+1.485953e+08	+9.506452e+00	+1.377713e+02
+1.551839e+08	+9.889677e+00	+1.377713e+02
+1.617726e+08	+1.040065e+01	+1.349560e+02
+1.683612e+08	+1.084774e+01	+1.312610e+02
+1.749498e+08	+1.135871e+01	+1.261584e+02
+1.815385e+08	+1.155032e+01	+1.200000e+02
+1.881271e+08	+1.155032e+01	+1.148974e+02
+1.947157e+08	+1.161419e+01	+1.099707e+02
+2.013043e+08	+1.161419e+01	+1.043402e+02
+2.078930e+08	+1.155032e+01	+9.870968e+01
+2.144816e+08	+1.129484e+01	+9.307918e+01
+2.210702e+08	+1.091161e+01	+8.797654e+01
+2.276589e+08	+1.046452e+01	+8.357771e+01
+2.342475e+08	+1.001742e+01	+7.988270e+01
+2.408361e+08	+9.570323e+00	+7.689150e+01
+2.474247e+08	+9.059355e+00	+7.442815e+01
+2.540134e+08	+8.190968e+00	+7.266862e+01
+2.606020e+08	+7.726628e+00	+7.126100e+01
+2.671906e+08	+7.394956e+00	+7.038123e+01
+2.737793e+08	+7.063284e+00	+6.967742e+01
+2.803679e+08	+6.797947e+00	+6.914956e+01
+2.869565e+08	+6.598944e+00	+6.897361e+01
+2.935452e+08	+6.399941e+00	+6.879765e+01
+3.001338e+08	+6.333607e+00	+6.879765e+01
+3.067224e+08	+6.333607e+00	+6.879765e+01
+3.133110e+08	+6.333607e+00	+6.879765e+01
+3.198997e+08	+6.466276e+00	+6.862170e+01
+3.264883e+08	+6.532610e+00	+6.862170e+01
+3.330769e+08	+6.996950e+00	+6.826979e+01
+3.396656e+08	+6.797947e+00	+6.774194e+01
+3.462542e+08	+1.104334e+01	+6.703812e+01
+3.528428e+08	+7.461290e+00	+6.598240e+01
+3.594314e+08	+7.792962e+00	+6.439883e+01
+3.660201e+08	+8.257302e+00	+6.246334e+01
+3.726087e+08	+8.721642e+00	+6.000000e+01
+3.791973e+08	+9.252317e+00	+5.683284e+01
+3.857860e+08	+9.782991e+00	+5.366569e+01
+3.923746e+08	+1.038000e+01	+5.278592e+01
+3.989632e+08	+1.084434e+01	+4.785924e+01
+4.055518e+08	+1.130868e+01	+4.187683e+01
+4.121405e+08	+1.157402e+01	+3.501466e+01
+4.187291e+08	+1.157402e+01	+2.076246e+01
+4.253177e+08	+1.144135e+01	+1.407625e+01
+4.319064e+08	+1.104334e+01	+8.269795e+00
+4.384950e+08	+9.981994e+00	+3.695015e+00
+4.450836e+08	+9.384985e+00	-1.407625e+00
+4.516722e+08	+9.318651e+00	-1.055718e+00
+4.582609e+08	+8.721642e+00	-1.759531e+00
+4.648495e+08	+8.124633e+00	-2.639296e+00
+4.714381e+08	+7.527625e+00	-3.519062e+00
+4.780268e+08	+7.063284e+00	-4.222874e+00
+4.846154e+08	+6.598944e+00	-4.574780e+00
+4.912040e+08	+6.200938e+00	+4.750733e+00
+4.977926e+08	+5.869267e+00	+4.750733e+00
+5.043813e+08	+5.949267e+00	+4.574780e+00
+5.109699e+08	+5.751320e+00	+4.398827e+00
+5.175585e+08	+5.553372e+00	+4.222874e+00
+5.241472e+08	+5.487390e+00	+3.870968e+00
+5.307358e+08	+5.421408e+00	+3.519062e+00
+5.373244e+08	+5.421408e+00	+3.343109e+00
+5.439130e+08	+5.487390e+00	-2.991202e+00
+5.505017e+08	+5.553372e+00	-2.991202e+00
+5.570903e+08	+5.751320e+00	-2.991202e+00
+5.636789e+08	+6.015249e+00	-3.343109e+00
+5.702676e+08	+6.345161e+00	-4.046921e+00
+5.768562e+08	+6.675073e+00	-4.750733e+00
+5.834448e+08	+7.004985e+00	-4.750733e+00
+5.900334e+08	+7.334897e+00	-5.630499e+00
+5.966221e+08	+7.730792e+00	-6.862170e+00
+6.032107e+08	+8.192669e+00	-8.445748e+00
+6.097993e+08	+8.654545e+00	-1.090909e+01
+6.163880e+08	+9.116422e+00	-1.425220e+01
+6.229766e+08	+9.578299e+00	-1.812317e+01
+6.295652e+08	+9.974194e+00	-2.234604e+01
+6.361538e+08	+1.030411e+01	-2.709677e+01
+6.427425e+08	+1.050205e+01	-3.219941e+01
+6.493311e+08	+1.063402e+01	-3.765396e+01
+6.559197e+08	+1.056804e+01	-4.310850e+01
+6.625084e+08	+1.050205e+01	-4.821114e+01
+6.690970e+08	+1.023812e+01	-5.313783e+01
+6.756856e+08	+9.974194e+00	-5.753666e+01
+6.822742e+08	+9.644282e+00	-6.140762e+01
+6.888629e+08	+9.314370e+00	-6.475073e+01
+6.954515e+08	+8.984457e+00	-6.739003e+01
+7.020401e+08	+8.654545e+00	-6.985337e+01
+7.086288e+08	+8.324633e+00	-7.178886e+01
+7.152174e+08	+7.994721e+00	-7.460411e+01
+7.218060e+08	+7.796774e+00	-7.565982e+01
+7.283946e+08	+7.598827e+00	-7.671554e+01
+7.349833e+08	+7.466862e+00	-7.759531e+01
+7.415719e+08	+7.334897e+00	-7.829912e+01
+7.481605e+08	+7.268915e+00	-7.900293e+01
+7.547492e+08	+7.268915e+00	-7.900293e+01
+7.613378e+08	+7.268915e+00	-7.988270e+01
+7.679264e+08	+7.400880e+00	-8.146628e+01
+7.745151e+08	+7.466862e+00	-8.199413e+01
+7.811037e+08	+7.598827e+00	-8.322581e+01
+7.876923e+08	+7.796774e+00	-8.656891e+01
+7.942809e+08	+7.994721e+00	-8.868035e+01
+8.008696e+08	+8.593548e+00	-9.131965e+01
+8.074582e+08	+8.796774e+00	-9.131965e+01
+8.140468e+08	+9.000000e+00	-1.106745e+02
+8.206355e+08	+9.135484e+00	-1.002933e+02
+8.272241e+08	+9.270968e+00	-1.004692e+02
+8.338127e+08	+9.270968e+00	-1.038123e+02
+8.404013e+08	+9.406452e+00	-1.075073e+02
+8.469900e+08	+9.338710e+00	-1.110264e+02
+8.535786e+08	+9.270968e+00	-1.143695e+02
+8.601672e+08	+9.135484e+00	-1.177126e+02
+8.667559e+08	+9.000000e+00	-1.208798e+02
+8.733445e+08	+8.796774e+00	-1.236950e+02
+8.799331e+08	+8.593548e+00	-1.261584e+02
+8.865217e+08	+8.458065e+00	-1.284457e+02
+8.931104e+08	+8.254839e+00	-1.302053e+02
+8.996990e+08	+8.051613e+00	-1.319648e+02
+9.062876e+08	+7.916129e+00	-1.331965e+02
+9.128763e+08	+7.848387e+00	-1.344282e+02
+9.194649e+08	+7.712903e+00	-1.354839e+02
+9.260535e+08	+7.712903e+00	-1.365396e+02
+9.326421e+08	+7.712903e+00	-1.372434e+02
+9.392308e+08	+7.780645e+00	-1.381232e+02
+9.458194e+08	+7.848387e+00	-1.388270e+02
+9.524080e+08	+7.983871e+00	-1.397067e+02
+9.589967e+08	+8.187097e+00	-1.407625e+02
+9.655853e+08	+8.390323e+00	-1.418182e+02
+9.721739e+08	+8.729032e+00	-1.430499e+02
+9.787625e+08	+9.067742e+00	-1.446334e+02
+9.853512e+08	+9.406452e+00	-1.465689e+02
+9.919398e+08	+9.880645e+00	-1.488563e+02
+9.985284e+08	+1.028710e+01	-1.518475e+02
+1.005117e+09	+1.076129e+01	-1.555425e+02
+1.011706e+09	+1.116774e+01	-1.599413e+02
+1.018294e+09	+1.157419e+01	-1.650440e+02
+1.024883e+09	+1.184516e+01	-1.699707e+02
+1.031472e+09	+1.204839e+01	+1.736657e+02
+1.038060e+09	+1.211613e+01	+1.750733e+02
+1.044649e+09	+1.198065e+01	+1.740176e+02
+1.051237e+09	+1.170968e+01	+1.706745e+02
+1.057826e+09	+1.170968e+01	+1.659238e+02
+1.064415e+09	+1.137097e+01	+1.611730e+02
+1.071003e+09	+1.089677e+01	+1.567742e+02
+1.077592e+09	+1.001613e+01	+1.530792e+02
+1.084181e+09	+9.406452e+00	+1.502639e+02
+1.090769e+09	+8.864516e+00	+1.479765e+02
+1.097358e+09	+8.458065e+00	+1.462170e+02
+1.103946e+09	+8.483695e+00	+1.449853e+02
+1.110535e+09	+8.076188e+00	+1.441056e+02
+1.117124e+09	+7.804516e+00	+1.434018e+02
+1.123712e+09	+7.804516e+00	+1.428739e+02
+1.130301e+09	+7.600762e+00	+1.423460e+02
+1.136890e+09	+7.397009e+00	+1.419941e+02
+1.143478e+09	+7.261173e+00	+1.418182e+02
+1.150067e+09	+7.193255e+00	+1.418182e+02
+1.156656e+09	+7.193255e+00	+1.416422e+02
+1.163244e+09	+7.193255e+00	+1.411144e+02
+1.169833e+09	+7.261173e+00	+1.409384e+02
+1.176421e+09	+7.397009e+00	+1.404106e+02
+1.183010e+09	+7.600762e+00	+1.404106e+02
+1.189599e+09	+7.872434e+00	+1.397067e+02
+1.196187e+09	+8.144106e+00	+1.388270e+02
+1.202776e+09	+8.483695e+00	+1.375953e+02
+1.209365e+09	+8.891202e+00	+1.361877e+02
+1.215953e+09	+9.298710e+00	+1.342522e+02
+1.222542e+09	+9.774135e+00	+1.317889e+02
+1.229130e+09	+1.024956e+01	+1.287977e+02
+1.235719e+09	+1.072499e+01	+1.251026e+02
+1.242308e+09	+1.113249e+01	+1.156012e+02
+1.248896e+09	+1.147208e+01	+1.096188e+02
+1.255485e+09	+1.194751e+01	+1.032845e+02
+1.262074e+09	+1.194751e+01	+9.677419e+01
+1.268662e+09	+1.181167e+01	+9.026393e+01
+1.275251e+09	+1.181167e+01	+8.445748e+01
+1.281839e+09	+1.147208e+01	+7.917889e+01
+1.288428e+09	+1.113249e+01	+7.442815e+01
+1.295017e+09	+1.065707e+01	+7.090909e+01
+1.301605e+09	+1.018164e+01	+7.055718e+01
+1.308194e+09	+9.638299e+00	+6.739003e+01
+1.314783e+09	+9.162874e+00	+6.475073e+01
+1.321371e+09	+8.755367e+00	+6.263930e+01
+1.327960e+09	+8.347859e+00	+6.105572e+01
+1.334548e+09	+8.008270e+00	+5.964809e+01
+1.341137e+09	+7.668680e+00	+5.859238e+01
+1.347726e+09	+7.464927e+00	+5.788856e+01
+1.354314e+09	+7.261173e+00	+5.648094e+01
+1.360903e+09	+6.989501e+00	+5.595308e+01
+1.367492e+09	+6.921584e+00	+5.560117e+01
+1.374080e+09	+6.853666e+00	+5.507331e+01
+1.380669e+09	+6.921584e+00	+5.454545e+01
+1.387258e+09	+6.989501e+00	+5.401760e+01
+1.393846e+09	+9.094956e+00	+5.260997e+01
+1.400435e+09	+7.367742e+00	+5.155425e+01
+1.407023e+09	+7.570968e+00	+5.049853e+01
+1.413612e+09	+7.909677e+00	+4.733138e+01
+1.420201e+09	+8.316129e+00	+4.521994e+01
+1.426789e+09	+8.451613e+00	+4.293255e+01
+1.433378e+09	+8.722581e+00	+4.046921e+01
+1.439967e+09	+8.925806e+00	+3.782991e+01
+1.446555e+09	+9.129032e+00	+3.466276e+01
+1.453144e+09	+9.264516e+00	+3.149560e+01
+1.459732e+09	+9.400000e+00	+2.815249e+01
+1.466321e+09	+9.535484e+00	+2.498534e+01
+1.472910e+09	+9.535484e+00	+2.181818e+01
+1.479498e+09	+9.603226e+00	+1.882698e+01
+1.486087e+09	+9.603226e+00	+1.601173e+01
+1.492676e+09	+9.535484e+00	+1.372434e+01
+1.499264e+09	+9.535484e+00	+1.178886e+01
+1.505853e+09	+9.467742e+00	+1.020528e+01
+1.512441e+09	+9.400000e+00	+9.149560e+00
+1.519030e+09	+9.332258e+00	+8.269795e+00
+1.525619e+09	+9.332258e+00	+7.741935e+00
+1.532207e+09	+9.332258e+00	-7.390029e+00
+1.538796e+09	+9.332258e+00	-7.214076e+00
+1.545385e+09	+9.332258e+00	-7.390029e+00
+1.551973e+09	+9.400000e+00	-7.390029e+00
+1.558562e+09	+9.467742e+00	-7.741935e+00
+1.565151e+09	+9.603226e+00	-8.269795e+00
+1.571739e+09	+9.670968e+00	-8.797654e+00
+1.578328e+09	+9.874194e+00	-9.677419e+00
+1.584916e+09	+1.000968e+01	-1.073314e+01
+1.591505e+09	+1.021290e+01	-1.214076e+01
+1.598094e+09	+1.034839e+01	-1.372434e+01
+1.604682e+09	+1.055161e+01	-1.583578e+01
+1.611271e+09	+1.068710e+01	-1.812317e+01
+1.617860e+09	+1.082258e+01	-2.111437e+01
+1.624448e+09	+1.089032e+01	-2.428152e+01
+1.631037e+09	+1.095806e+01	-2.762463e+01
+1.637625e+09	+1.102581e+01	-3.131965e+01
+1.644214e+09	+1.102581e+01	-3.501466e+01
+1.650803e+09	+1.095806e+01	-3.870968e+01
+1.657391e+09	+1.082258e+01	-4.222874e+01
+1.663980e+09	+1.075484e+01	-4.557185e+01
+1.670569e+09	+1.055161e+01	-4.856305e+01
+1.677157e+09	+1.041613e+01	-5.137830e+01
+1.683746e+09	+1.021290e+01	-5.401760e+01
+1.690334e+09	+1.000968e+01	-5.612903e+01
+1.696923e+09	+9.874194e+00	-5.806452e+01
+1.703512e+09	+9.738710e+00	-5.982405e+01
+1.710100e+09	+9.603226e+00	-6.123167e+01
+1.716689e+09	+9.467742e+00	-6.246334e+01
+1.723278e+09	+9.400000e+00	-6.351906e+01
+1.729866e+09	+9.400000e+00	-6.439883e+01
+1.736455e+09	+9.332258e+00	-6.527859e+01
+1.743043e+09	+9.400000e+00	-6.615836e+01
+1.749632e+09	+9.467742e+00	-6.686217e+01
+1.756221e+09	+9.603226e+00	-6.756598e+01
+1.762809e+09	+9.738710e+00	-6.844575e+01
+1.769398e+09	+9.941935e+00	-6.932551e+01
+1.775987e+09	+1.021290e+01	-7.020528e+01
+1.782575e+09	+1.048387e+01	-7.143695e+01
+1.789164e+09	+1.082258e+01	-7.284457e+01
+1.795753e+09	+1.116129e+01	-7.460411e+01
+1.802341e+09	+1.156774e+01	-7.671554e+01
+1.808930e+09	+1.197419e+01	-7.935484e+01
+1.815518e+09	+1.244839e+01	-8.234604e+01
+1.822107e+09	+1.244839e+01	-8.252199e+01
+1.828696e+09	+1.319355e+01	-9.061584e+01
+1.835284e+09	+1.353226e+01	-9.571848e+01
+1.841873e+09	+1.373548e+01	-1.013490e+02
+1.848462e+09	+1.380323e+01	-1.076833e+02
+1.855050e+09	+1.380323e+01	-1.075073e+02
+1.861639e+09	+1.353226e+01	-1.203519e+02
+1.868227e+09	+1.319355e+01	-1.263343e+02
+1.874816e+09	+1.278710e+01	-1.317889e+02
+1.881405e+09	+1.224516e+01	-1.365396e+02
+1.887993e+09	+1.170323e+01	-1.405865e+02
+1.894582e+09	+1.122903e+01	-1.439296e+02
+1.901171e+09	+1.068710e+01	-1.463930e+02
+1.907759e+09	+1.014516e+01	-1.486804e+02
+1.914348e+09	+9.738710e+00	-1.500880e+02
+1.920936e+09	+9.264516e+00	-1.513196e+02
+1.927525e+09	+8.858065e+00	-1.521994e+02
+1.934114e+09	+8.519355e+00	-1.527273e+02
+1.940702e+09	+8.248387e+00	-1.529032e+02
+1.947291e+09	+7.977419e+00	-1.530792e+02
+1.953880e+09	+7.774194e+00	-1.529032e+02
+1.960468e+09	+7.570968e+00	-1.527273e+02
+1.967057e+09	+7.435484e+00	-1.525513e+02
+1.973645e+09	+7.367742e+00	-1.521994e+02
+1.980234e+09	+7.367742e+00	-1.518475e+02
+1.986823e+09	+7.367742e+00	-1.513196e+02
+1.993411e+09	+7.435484e+00	-1.509677e+02
+2.000000e+09	+7.503226e+00	-1.506158e+02
