# Hz S DB R 50.000000
+3.000000e+07	+9.506452e+00	+1.548387e+01
+3.658863e+07	+9.059355e+00	-2.815249e+00
+4.317726e+07	+9.314839e+00	-4.222874e+00
+4.976589e+07	+9.634194e+00	-6.158358e+00
+5.635452e+07	+9.953548e+00	-8.621701e+00
+6.294314e+07	+1.027290e+01	-1.126100e+01
+6.953177e+07	+1.052839e+01	-1.442815e+01
+7.612040e+07	+1.078387e+01	-1.812317e+01
+8.270903e+07	+1.103935e+01	-2.234604e+01
+8.929766e+07	+1.116710e+01	-2.674487e+01
+9.588629e+07	+1.123097e+01	-3.131965e+01
+1.024749e+08	+1.116710e+01	-3.607038e+01
+1.090635e+08	+1.097548e+01	-4.064516e+01
+1.156522e+08	+1.078387e+01	-4.486804e+01
+1.222408e+08	+1.046452e+01	-4.873900e+01
+1.288294e+08	+1.014516e+01	-5.208211e+01
+1.354181e+08	+9.825806e+00	-5.507331e+01
+1.420067e+08	+9.442581e+00	-5.771261e+01
+1.485953e+08	+9.123226e+00	-5.982405e+01
+1.551839e+08	+8.740000e+00	-6.158358e+01
+1.617726e+08	+8.356774e+00	+6.263930e+01
+1.683612e+08	+7.973548e+00	-6.263930e+01
+1.749498e+08	+7.909677e+00	-6.158358e+01
+1.815385e+08	+8.037419e+00	-6.211144e+01
+1.881271e+08	+8.037419e+00	-6.334311e+01
+1.947157e+08	+8.037419e+00	-6.439883e+01
+2.013043e+08	+8.037419e+00	-6.492669e+01
+2.078930e+08	+8.037419e+00	-6.563050e+01
+2.144816e+08	+8.165161e+00	-6.615836e+01
+2.210702e+08	+8.356774e+00	-6.668622e+01
+2.276589e+08	+8.548387e+00	-6.739003e+01
+2.342475e+08	+8.867742e+00	-6.844575e+01
+2.408361e+08	+9.187097e+00	-6.967742e+01
+2.474247e+08	+1.212516e+01	-7.126100e+01
+2.540134e+08	+9.517654e+00	-7.319648e+01
+2.606020e+08	+8.124633e+00	-7.548387e+01
+2.671906e+08	+1.051267e+01	-7.847507e+01
+2.737793e+08	+1.097701e+01	-8.217009e+01
+2.803679e+08	+8.655308e+00	-8.674487e+01
+2.869565e+08	+1.183935e+01	-9.184751e+01
+2.935452e+08	+1.190569e+01	-9.782991e+01
+3.001338e+08	+1.223736e+01	-1.045161e+02
+3.067224e+08	+1.237003e+01	-1.113783e+02
+3.133110e+08	+1.230370e+01	-1.178886e+02
+3.198997e+08	+1.210469e+01	+1.449853e+02
+3.264883e+08	+1.170669e+01	-1.293255e+02
+3.330769e+08	+1.124235e+01	-1.331965e+02
+3.396656e+08	+1.064534e+01	-1.335484e+02
+3.462542e+08	+1.011466e+01	-1.370674e+02
+3.528428e+08	+9.517654e+00	-1.398827e+02
+3.594314e+08	+8.986979e+00	-1.419941e+02
+3.660201e+08	+8.456305e+00	-1.435777e+02
+3.726087e+08	+8.058299e+00	-1.446334e+02
+3.791973e+08	+7.660293e+00	-1.451613e+02
+3.857860e+08	+7.394956e+00	-1.456891e+02
+3.923746e+08	+7.129619e+00	-1.460411e+02
+3.989632e+08	+6.930616e+00	-1.462170e+02
+4.055518e+08	+6.864282e+00	-1.462170e+02
+4.121405e+08	+6.797947e+00	-1.462170e+02
+4.187291e+08	+6.731613e+00	-1.462170e+02
+4.253177e+08	+6.797947e+00	-1.462170e+02
+4.319064e+08	+6.930616e+00	-1.462170e+02
+4.384950e+08	+7.063284e+00	-1.462170e+02
+4.450836e+08	+7.328622e+00	-1.462170e+02
+4.516722e+08	+7.660293e+00	-1.469208e+02
+4.582609e+08	+8.058299e+00	-1.478006e+02
+4.648495e+08	+8.456305e+00	-1.490323e+02
+4.714381e+08	+8.920645e+00	-1.506158e+02
+4.780268e+08	+9.451320e+00	-1.527273e+02
+4.846154e+08	+9.981994e+00	-1.553666e+02
+4.912040e+08	+1.051267e+01	-1.590616e+02
+4.977926e+08	+1.110968e+01	-1.634604e+02
+5.043813e+08	+1.195367e+01	+1.745455e+02
+5.109699e+08	+1.241554e+01	+1.771848e+02
+5.175585e+08	+1.267947e+01	+1.752493e+02
+5.241472e+08	+1.267947e+01	+1.690909e+02
+5.307358e+08	+1.248152e+01	+1.624047e+02
+5.373244e+08	+1.215161e+01	+1.565982e+02
+5.439130e+08	+1.175572e+01	+1.516716e+02
+5.505017e+08	+1.129384e+01	+1.467449e+02
+5.570903e+08	+1.083196e+01	+1.421701e+02
+5.636789e+08	+1.023812e+01	+1.388270e+02
+5.702676e+08	+9.512317e+00	+1.368915e+02
+5.768562e+08	+8.918475e+00	+1.353079e+02
+5.834448e+08	+7.928739e+00	+1.344282e+02
+5.900334e+08	+7.928739e+00	+1.335484e+02
+5.966221e+08	+7.598827e+00	+1.328446e+02
+6.032107e+08	+7.268915e+00	+1.321408e+02
+6.097993e+08	+7.004985e+00	+1.321408e+02
+6.163880e+08	+6.807038e+00	+1.317889e+02
+6.229766e+08	+6.609091e+00	+1.312610e+02
+6.295652e+08	+6.477126e+00	+1.310850e+02
+6.361538e+08	+6.477126e+00	+1.310850e+02
+6.427425e+08	+6.477126e+00	+1.307331e+02
+6.493311e+08	+6.477126e+00	+1.302053e+02
+6.559197e+08	+6.543109e+00	+1.296774e+02
+6.625084e+08	+6.675073e+00	+1.289736e+02
+6.690970e+08	+6.873021e+00	+1.280938e+02
+6.756856e+08	+7.070968e+00	+1.270381e+02
+6.822742e+08	+7.268915e+00	+1.256305e+02
+6.888629e+08	+7.532845e+00	+1.238710e+02
+6.954515e+08	+7.796774e+00	+1.217595e+02
+7.020401e+08	+8.060704e+00	+1.192962e+02
+7.086288e+08	+8.324633e+00	+1.164809e+02
+7.152174e+08	+8.522581e+00	+1.133138e+02
+7.218060e+08	+8.720528e+00	+1.069795e+02
+7.283946e+08	+8.852493e+00	+1.060997e+02
+7.349833e+08	+8.918475e+00	+1.022287e+02
+7.415719e+08	+8.918475e+00	+9.853372e+01
+7.481605e+08	+8.852493e+00	+9.501466e+01
+7.547492e+08	+8.786510e+00	+9.149560e+01
+7.613378e+08	+8.654545e+00	+8.815249e+01
+7.679264e+08	+8.456598e+00	+8.533724e+01
+7.745151e+08	+8.324633e+00	+8.269795e+01
+7.811037e+08	+8.258651e+00	+8.005865e+01
+7.876923e+08	+8.060704e+00	+7.759531e+01
+7.942809e+08	+7.928739e+00	+7.548387e+01
+8.008696e+08	+8.119355e+00	+7.337243e+01
+8.074582e+08	+8.051613e+00	+7.178886e+01
+8.140468e+08	+7.983871e+00	+7.020528e+01
+8.206355e+08	+7.916129e+00	+6.862170e+01
+8.272241e+08	+7.916129e+00	+6.739003e+01
+8.338127e+08	+7.916129e+00	+6.598240e+01
+8.404013e+08	+7.983871e+00	+6.457478e+01
+8.469900e+08	+8.119355e+00	+6.299120e+01
+8.535786e+08	+9.203226e+00	+6.140762e+01
+8.601672e+08	+8.254839e+00	+5.964809e+01
+8.667559e+08	+8.390323e+00	+5.753666e+01
+8.733445e+08	+8.593548e+00	-5.014663e+01
+8.799331e+08	+8.796774e+00	+5.524927e+01
+8.865217e+08	+9.000000e+00	+5.155425e+01
+8.931104e+08	+9.203226e+00	+4.961877e+01
+8.996990e+08	+9.406452e+00	+4.627566e+01
+9.062876e+08	+9.541935e+00	+4.275660e+01
+9.128763e+08	+9.677419e+00	+3.888563e+01
+9.194649e+08	+9.745161e+00	+3.483871e+01
+9.260535e+08	+9.745161e+00	+3.061584e+01
+9.326421e+08	+9.677419e+00	+1.812317e+01
+9.392308e+08	+9.474194e+00	+2.199413e+01
+9.458194e+08	+9.270968e+00	+1.812317e+01
+9.524080e+08	+9.000000e+00	+1.460411e+01
+9.589967e+08	+8.729032e+00	+1.161290e+01
+9.655853e+08	+8.390323e+00	+9.149560e+00
+9.721739e+08	+8.051613e+00	+7.390029e+00
+9.787625e+08	+7.780645e+00	+6.510264e+00
+9.853512e+08	+7.509677e+00	+5.454545e+00
+9.919398e+08	+7.238710e+00	+4.926686e+00
+9.985284e+08	+7.035484e+00	+4.574780e+00
+1.005117e+09	+6.832258e+00	+4.750733e+00
+1.011706e+09	+6.696774e+00	+4.222874e+00
+1.018294e+09	+6.561290e+00	+4.222874e+00
+1.024883e+09	+6.493548e+00	-4.222874e+00
+1.031472e+09	+6.493548e+00	-4.046921e+00
+1.038060e+09	+6.493548e+00	-4.222874e+00
+1.044649e+09	+6.561290e+00	-4.222874e+00
+1.051237e+09	+6.696774e+00	-4.398827e+00
+1.057826e+09	+6.900000e+00	-4.574780e+00
+1.064415e+09	+7.103226e+00	-4.398827e+00
+1.071003e+09	+7.374194e+00	-4.574780e+00
+1.077592e+09	+7.712903e+00	-4.926686e+00
+1.084181e+09	+8.119355e+00	-5.806452e+00
+1.090769e+09	+8.525806e+00	-6.686217e+00
+1.097358e+09	+9.000000e+00	-7.917889e+00
+1.103946e+09	+9.842053e+00	-1.073314e+01
+1.110535e+09	+1.038540e+01	-1.073314e+01
+1.117124e+09	+1.079290e+01	-1.442815e+01
+1.123712e+09	+1.113249e+01	-2.480938e+01
+1.130301e+09	+1.147208e+01	-3.114370e+01
+1.136890e+09	+1.160792e+01	-3.747801e+01
+1.143478e+09	+1.160792e+01	-4.381232e+01
+1.150067e+09	+1.147208e+01	-4.961877e+01
+1.156656e+09	+1.092874e+01	-5.489736e+01
+1.163244e+09	+1.079290e+01	-5.947214e+01
+1.169833e+09	+1.031748e+01	-6.316716e+01
+1.176421e+09	+9.774135e+00	-6.633431e+01
+1.183010e+09	+9.298710e+00	-6.879765e+01
+1.189599e+09	+8.755367e+00	-7.073314e+01
+1.196187e+09	+8.279941e+00	-7.214076e+01
+1.202776e+09	+7.804516e+00	-7.214076e+01
+1.209365e+09	+7.397009e+00	-7.319648e+01
+1.215953e+09	+6.989501e+00	-7.407625e+01
+1.222542e+09	+6.717830e+00	-7.460411e+01
+1.229130e+09	+6.446158e+00	+7.478006e+01
+1.235719e+09	+6.174487e+00	+7.478006e+01
+1.242308e+09	+6.038651e+00	+7.478006e+01
+1.248896e+09	+5.902815e+00	+7.460411e+01
+1.255485e+09	+5.834897e+00	+7.442815e+01
+1.262074e+09	+5.766979e+00	+7.425220e+01
+1.268662e+09	+5.766979e+00	+7.390029e+01
+1.275251e+09	+5.834897e+00	+7.372434e+01
+1.281839e+09	+5.970733e+00	-7.354839e+01
+1.288428e+09	+6.106569e+00	-7.337243e+01
+1.295017e+09	+6.310323e+00	-7.337243e+01
+1.301605e+09	+6.581994e+00	-7.372434e+01
+1.308194e+09	+6.921584e+00	-7.442815e+01
+1.314783e+09	+7.261173e+00	-7.530792e+01
+1.321371e+09	+7.668680e+00	-7.653959e+01
+1.327960e+09	+8.619531e+00	-7.829912e+01
+1.334548e+09	+9.094956e+00	-8.041056e+01
+1.341137e+09	+9.570381e+00	-8.322581e+01
+1.347726e+09	+1.004581e+01	-8.656891e+01
+1.354314e+09	+1.052123e+01	-9.079179e+01
+1.360903e+09	+1.086082e+01	-9.571848e+01
+1.367492e+09	+1.058915e+01	-1.008211e+02
+1.374080e+09	+1.106457e+01	-1.064516e+02
+1.380669e+09	+1.120041e+01	-1.119062e+02
+1.387258e+09	+1.126833e+01	-1.238710e+02
+1.393846e+09	+1.113249e+01	-1.173607e+02
+1.400435e+09	+1.082258e+01	-1.222874e+02
+1.407023e+09	+1.055161e+01	-1.266862e+02
+1.413612e+09	+1.028065e+01	-1.305572e+02
+1.420201e+09	+9.941935e+00	-1.339003e+02
+1.426789e+09	+9.603226e+00	-1.367155e+02
+1.433378e+09	+9.332258e+00	-1.391789e+02
+1.439967e+09	+9.061290e+00	-1.414663e+02
+1.446555e+09	+8.858065e+00	-1.432258e+02
+1.453144e+09	+8.654839e+00	-1.448094e+02
+1.459732e+09	+8.519355e+00	-1.462170e+02
+1.466321e+09	+8.383871e+00	-1.476246e+02
+1.472910e+09	+8.316129e+00	-1.488563e+02
+1.479498e+09	+8.248387e+00	-1.499120e+02
+1.486087e+09	+8.248387e+00	-1.513196e+02
+1.492676e+09	+9.264516e+00	-1.527273e+02
+1.499264e+09	+8.316129e+00	-1.541349e+02
+1.505853e+09	+8.316129e+00	-1.557185e+02
+1.512441e+09	+8.383871e+00	-1.573021e+02
+1.519030e+09	+9.603226e+00	-1.588856e+02
+1.525619e+09	+8.654839e+00	-1.604692e+02
+1.532207e+09	+8.654839e+00	-1.622287e+02
+1.538796e+09	+8.790323e+00	-1.639883e+02
+1.545385e+09	+8.925806e+00	-1.657478e+02
+1.551973e+09	+9.129032e+00	-1.675073e+02
+1.558562e+09	+9.264516e+00	-1.690909e+02
+1.565151e+09	+9.400000e+00	-1.703226e+02
+1.571739e+09	+9.535484e+00	-1.712023e+02
+1.578328e+09	+9.603226e+00	+1.713783e+02
+1.584916e+09	+9.670968e+00	+1.719062e+02
+1.591505e+09	+9.670968e+00	+1.715543e+02
+1.598094e+09	+9.670968e+00	+1.708504e+02
+1.604682e+09	+9.670968e+00	+1.696188e+02
+1.611271e+09	+9.603226e+00	+1.678592e+02
+1.617860e+09	+9.535484e+00	+1.664516e+02
+1.624448e+09	+9.400000e+00	+1.646921e+02
+1.631037e+09	+9.332258e+00	+1.627566e+02
+1.637625e+09	+9.264516e+00	+1.611730e+02
+1.644214e+09	+9.196774e+00	+1.597654e+02
+1.650803e+09	+9.196774e+00	+1.594135e+02
+1.657391e+09	+9.196774e+00	+1.578299e+02
+1.663980e+09	+9.196774e+00	+1.562463e+02
+1.670569e+09	+9.332258e+00	+1.546628e+02
+1.677157e+09	+9.400000e+00	+1.529032e+02
+1.683746e+09	+9.603226e+00	+1.511437e+02
+1.690334e+09	+9.738710e+00	+1.478006e+02
+1.696923e+09	+1.000968e+01	+1.449853e+02
+1.703512e+09	+1.021290e+01	+1.423460e+02
+1.710100e+09	+1.055161e+01	+1.402346e+02
+1.716689e+09	+1.082258e+01	+1.393548e+02
+1.723278e+09	+1.116129e+01	+1.360117e+02
+1.729866e+09	+1.156774e+01	+1.319648e+02
+1.736455e+09	+1.183871e+01	+1.228152e+02
+1.743043e+09	+1.217742e+01	+1.170088e+02
+1.749632e+09	+1.238065e+01	+1.110264e+02
+1.756221e+09	+1.244839e+01	+1.053959e+02
+1.762809e+09	+1.251613e+01	+1.048680e+02
+1.769398e+09	+1.244839e+01	+9.853372e+01
+1.775987e+09	+1.224516e+01	+9.255132e+01
+1.782575e+09	+1.197419e+01	+8.129032e+01
+1.789164e+09	+1.156774e+01	+7.636364e+01
+1.795753e+09	+1.068710e+01	+7.214076e+01
+1.802341e+09	+1.021290e+01	+6.826979e+01
+1.808930e+09	+9.806452e+00	+6.492669e+01
+1.815518e+09	+9.400000e+00	+6.228739e+01
+1.822107e+09	+8.993548e+00	+5.982405e+01
+1.828696e+09	+8.587097e+00	+5.788856e+01
+1.835284e+09	+8.316129e+00	+5.612903e+01
+1.841873e+09	+8.045161e+00	+5.454545e+01
+1.848462e+09	+7.774194e+00	+5.313783e+01
+1.855050e+09	+7.570968e+00	+5.208211e+01
+1.861639e+09	+7.435484e+00	+5.102639e+01
+1.868227e+09	+7.367742e+00	+5.014663e+01
+1.874816e+09	+7.367742e+00	+4.926686e+01
+1.881405e+09	+7.367742e+00	+4.821114e+01
+1.887993e+09	+7.367742e+00	+4.733138e+01
+1.894582e+09	+7.503226e+00	+4.645161e+01
+1.901171e+09	+7.638710e+00	+4.539589e+01
+1.907759e+09	+7.841935e+00	+4.416422e+01
+1.914348e+09	+8.112903e+00	+4.275660e+01
+1.920936e+09	+8.383871e+00	+4.099707e+01
+1.927525e+09	+8.722581e+00	+3.888563e+01
+1.934114e+09	+9.061290e+00	+3.642229e+01
+1.940702e+09	+9.941935e+00	+3.360704e+01
+1.947291e+09	+9.467742e+00	+3.026393e+01
+1.953880e+09	+7.706452e+00	+2.656891e+01
+1.960468e+09	+1.061935e+01	+2.269795e+01
+1.967057e+09	+1.061935e+01	+1.865103e+01
+1.973645e+09	+1.089032e+01	+1.495601e+01
+1.980234e+09	+1.122903e+01	-1.196481e+01
+1.986823e+09	+1.122903e+01	-1.038123e+01
+1.993411e+09	+9.738710e+00	-1.002933e+01
+2.000000e+09	+1.082258e+01	-1.108504e+01
