# Hz S DB R 50.000000
+3.000000e+07	-1.846903e+01	-6.263930e+01
+3.658863e+07	-2.108774e+01	-8.340176e+01
+4.317726e+07	-2.498387e+01	+1.126100e+02
+4.976589e+07	-2.856065e+01	+1.492082e+02
+5.635452e+07	-2.677226e+01	+1.254545e+02
+6.294314e+07	-2.249290e+01	+9.061584e+01
+6.953177e+07	-1.929935e+01	+6.809384e+01
+7.612040e+07	-1.712774e+01	+4.997067e+01
+8.270903e+07	-1.546710e+01	+3.343109e+01
+8.929766e+07	-1.438129e+01	-1.794721e+01
+9.588629e+07	-1.374258e+01	-3.870968e+00
+1.024749e+08	-1.342323e+01	-8.093842e+00
+1.090635e+08	-1.348710e+01	-2.287390e+01
+1.156522e+08	-1.406194e+01	-3.888563e+01
+1.222408e+08	-1.495613e+01	-5.612903e+01
+1.288294e+08	-1.629742e+01	-7.460411e+01
+1.354181e+08	-1.821355e+01	-9.536657e+01
+1.420067e+08	-2.076839e+01	+1.221114e+02
+1.485953e+08	-2.351484e+01	+1.604692e+02
+1.551839e+08	-2.319548e+01	+1.455132e+02
+1.617726e+08	-1.981032e+01	+1.048680e+02
+1.683612e+08	-1.693613e+01	+7.513196e+01
+1.749498e+08	-1.476452e+01	+5.102639e+01
+1.815385e+08	-1.316774e+01	+3.307918e+01
+1.881271e+08	-1.189032e+01	-1.689150e+01
+1.947157e+08	-1.086839e+01	-2.991202e+00
+2.013043e+08	-1.016581e+01	-9.149560e+00
+2.078930e+08	-9.718710e+00	-2.410557e+01
+2.144816e+08	-9.527097e+00	-3.923754e+01
+2.210702e+08	-9.463226e+00	-5.419355e+01
+2.276589e+08	-9.654839e+00	-7.002933e+01
+2.342475e+08	-1.003806e+01	-8.744868e+01
+2.408361e+08	-1.054903e+01	-1.064516e+02
+2.474247e+08	-1.131548e+01	-1.273900e+02
+2.540134e+08	-1.350035e+01	+1.500880e+02
+2.606020e+08	-1.462804e+01	+1.724340e+02
+2.671906e+08	-1.568938e+01	+1.627566e+02
+2.737793e+08	-1.628639e+01	+1.326686e+02
+2.803679e+08	-1.615372e+01	+1.022287e+02
+2.869565e+08	-1.542405e+01	+7.565982e+01
+2.935452e+08	-1.436270e+01	+5.243402e+01
+3.001338e+08	-1.330135e+01	+3.149560e+01
+3.067224e+08	-1.237267e+01	-1.214076e+01
+3.133110e+08	-1.151032e+01	-2.815249e+00
+3.198997e+08	-1.091331e+01	-1.882698e+01
+3.264883e+08	-1.051531e+01	-3.642229e+01
+3.330769e+08	-1.044897e+01	-5.384164e+01
+3.396656e+08	-1.051531e+01	-7.126100e+01
+3.462542e+08	-1.091331e+01	-8.832845e+01
+3.528428e+08	-1.164299e+01	-1.055718e+02
+3.594314e+08	-1.257167e+01	-1.224633e+02
+3.660201e+08	-1.369935e+01	-1.400587e+02
+3.726087e+08	-1.502604e+01	+1.590616e+02
+3.791973e+08	-1.628639e+01	+1.747214e+02
+3.857860e+08	-1.787842e+01	+1.634604e+02
+3.923746e+08	-1.893977e+01	+1.381232e+02
+3.989632e+08	-1.966944e+01	+1.064516e+02
+4.055518e+08	-1.993478e+01	+7.196481e+01
+4.121405e+08	-1.993478e+01	+7.196481e+01
+4.187291e+08	-1.887343e+01	-1.354839e+01
+4.253177e+08	-1.821009e+01	-7.917889e+00
+4.319064e+08	-1.774575e+01	-2.780059e+01
+4.384950e+08	-1.774575e+01	-4.909091e+01
+4.450836e+08	-1.814375e+01	-6.756598e+01
+4.516722e+08	-1.847543e+01	-8.428152e+01
+4.582609e+08	-1.900610e+01	-1.013490e+02
+4.648495e+08	-1.986845e+01	-1.189443e+02
+4.714381e+08	-2.126147e+01	+1.384751e+02
+4.780268e+08	-2.358317e+01	+1.567742e+02
+4.846154e+08	-2.689988e+01	+1.604692e+02
+4.912040e+08	-3.094628e+01	+1.289736e+02
+4.977926e+08	-3.214029e+01	+6.914956e+01
+5.043813e+08	-2.875748e+01	-2.709677e+01
+5.109699e+08	-2.545836e+01	-2.428152e+01
+5.175585e+08	-2.281906e+01	-4.240469e+01
+5.241472e+08	-2.090557e+01	-6.299120e+01
+5.307358e+08	-1.932199e+01	-8.322581e+01
+5.373244e+08	-1.806833e+01	-1.034604e+02
+5.439130e+08	-1.688065e+01	-1.247507e+02
+5.505017e+08	-1.608886e+01	-1.469208e+02
+5.570903e+08	-1.549501e+01	+1.699707e+02
+5.636789e+08	-1.549501e+01	+1.699707e+02
+5.702676e+08	-1.516510e+01	+1.513196e+02
+5.768562e+08	-1.450528e+01	+1.307331e+02
+5.834448e+08	-1.417537e+01	+1.110264e+02
+5.900334e+08	-1.391144e+01	+9.237537e+01
+5.966221e+08	-1.351554e+01	+7.407625e+01
+6.032107e+08	-1.318563e+01	+5.577713e+01
+6.097993e+08	-1.278974e+01	+3.695015e+01
+6.163880e+08	-1.245982e+01	-1.741935e+01
+6.229766e+08	-1.219589e+01	-3.167155e+00
+6.295652e+08	-1.206393e+01	-1.689150e+01
+6.361538e+08	-1.212991e+01	-3.765396e+01
+6.427425e+08	-1.239384e+01	-5.929619e+01
+6.493311e+08	-1.278974e+01	-8.181818e+01
+6.559197e+08	-1.318563e+01	-1.053959e+02
+6.625084e+08	-1.351554e+01	-1.293255e+02
+6.690970e+08	-1.371349e+01	+1.534311e+02
+6.756856e+08	-1.377947e+01	+1.745455e+02
+6.822742e+08	-1.344956e+01	+1.638123e+02
+6.888629e+08	-1.292170e+01	+1.395308e+02
+6.954515e+08	-1.226188e+01	+1.166569e+02
+7.020401e+08	-1.147009e+01	+9.519062e+01
+7.086288e+08	-1.081026e+01	+7.495601e+01
+7.152174e+08	-1.034839e+01	+5.560117e+01
+7.218060e+08	-1.001848e+01	+3.677419e+01
+7.283946e+08	-9.820528e+00	-1.812317e+01
+7.349833e+08	-9.754545e+00	-4.222874e+00
+7.415719e+08	-9.820528e+00	-1.161290e+01
+7.481605e+08	-1.008446e+01	-2.903226e+01
+7.547492e+08	-1.054633e+01	-4.627566e+01
+7.613378e+08	-1.120616e+01	-6.404692e+01
+7.679264e+08	-1.212991e+01	-8.304985e+01
+7.745151e+08	-1.325161e+01	-1.041642e+02
+7.811037e+08	-1.457126e+01	-1.280938e+02
+7.876923e+08	-1.575894e+01	+1.553666e+02
+7.942809e+08	-1.668270e+01	+1.734897e+02
+8.008696e+08	-1.728387e+01	+1.504399e+02
+8.074582e+08	-1.687742e+01	+1.187683e+02
+8.140468e+08	-1.572581e+01	+8.956012e+01
+8.206355e+08	-1.437097e+01	+6.510264e+01
+8.272241e+08	-1.315161e+01	+4.434018e+01
+8.338127e+08	-1.227097e+01	+2.551320e+01
+8.404013e+08	-1.166129e+01	-8.269795e+00
+8.469900e+08	-1.125484e+01	-6.158358e+00
+8.535786e+08	-1.118710e+01	-2.146628e+01
+8.601672e+08	-1.132258e+01	-3.906158e+01
+8.667559e+08	-1.172903e+01	-5.612903e+01
+8.733445e+08	-1.247419e+01	-7.302053e+01
+8.799331e+08	-1.355806e+01	-9.008798e+01
+8.865217e+08	-1.504839e+01	-1.075073e+02
+8.931104e+08	-1.701290e+01	-1.265103e+02
+8.996990e+08	-1.965484e+01	+1.490323e+02
+9.062876e+08	-2.263548e+01	+1.653959e+02
+9.128763e+08	-2.466774e+01	+1.340762e+02
+9.194649e+08	-2.338065e+01	+8.357771e+01
+9.260535e+08	-2.019677e+01	+4.609971e+01
+9.326421e+08	-1.762258e+01	-2.023460e+01
+9.392308e+08	-1.572581e+01	-6.510264e+00
+9.458194e+08	-1.443871e+01	-1.407625e+01
+9.524080e+08	-1.355806e+01	-3.079179e+01
+9.589967e+08	-1.301613e+01	-4.768328e+01
+9.655853e+08	-1.274516e+01	-6.439883e+01
+9.721739e+08	-1.267742e+01	-8.129032e+01
+9.787625e+08	-1.281290e+01	-9.888563e+01
+9.853512e+08	-1.308387e+01	-1.171848e+02
+9.919398e+08	-1.355806e+01	-1.367155e+02
+9.985284e+08	-1.437097e+01	+1.587097e+02
+1.005117e+09	-1.525161e+01	+1.727859e+02
+1.011706e+09	-1.599677e+01	+1.525513e+02
+1.018294e+09	-1.620000e+01	+1.224633e+02
+1.024883e+09	-1.606452e+01	+9.360704e+01
+1.031472e+09	-1.559032e+01	+6.563050e+01
+1.038060e+09	-1.484516e+01	+3.976540e+01
+1.044649e+09	-1.389677e+01	-1.689150e+01
+1.051237e+09	-1.308387e+01	-6.334311e+00
+1.057826e+09	-1.233871e+01	-1.847507e+01
+1.064415e+09	-1.179677e+01	-3.800587e+01
+1.071003e+09	-1.145806e+01	-5.683284e+01
+1.077592e+09	-1.139032e+01	-7.565982e+01
+1.084181e+09	-1.159355e+01	-9.554252e+01
+1.090769e+09	-1.206774e+01	-1.168328e+02
+1.097358e+09	-1.267742e+01	-1.400587e+02
+1.103946e+09	-1.284252e+01	+1.634604e+02
+1.110535e+09	-1.338587e+01	+1.712023e+02
+1.117124e+09	-1.386129e+01	+1.511437e+02
+1.123712e+09	-1.399713e+01	+1.238710e+02
+1.130301e+09	-1.379337e+01	+9.800587e+01
+1.136890e+09	-1.345378e+01	+7.319648e+01
+1.143478e+09	-1.297836e+01	+4.821114e+01
+1.150067e+09	-1.236710e+01	-2.410557e+01
+1.156656e+09	-1.182375e+01	-9.325513e+00
+1.163244e+09	-1.155208e+01	-1.390029e+01
+1.169833e+09	-1.155208e+01	-3.219941e+01
+1.176421e+09	-1.175584e+01	-5.348974e+01
+1.183010e+09	-1.216334e+01	-7.530792e+01
+1.189599e+09	-1.250293e+01	-9.712610e+01
+1.196187e+09	-1.284252e+01	-1.178886e+02
+1.202776e+09	-1.325003e+01	-1.393548e+02
+1.209365e+09	-1.372545e+01	+1.639883e+02
+1.215953e+09	-1.352170e+01	+1.680352e+02
+1.222542e+09	-1.277460e+01	+1.441056e+02
+1.229130e+09	-1.202751e+01	+1.185924e+02
+1.235719e+09	-1.121249e+01	+9.307918e+01
+1.242308e+09	-1.026164e+01	+6.897361e+01
+1.248896e+09	-9.446628e+00	+4.856305e+01
+1.255485e+09	-8.903284e+00	+3.008798e+01
+1.262074e+09	-8.563695e+00	-1.425220e+01
+1.268662e+09	-8.292023e+00	-6.334311e+00
+1.275251e+09	-8.292023e+00	-1.126100e+01
+1.281839e+09	-8.495777e+00	-2.480938e+01
+1.288428e+09	-8.903284e+00	-4.099707e+01
+1.295017e+09	-9.514545e+00	-5.736070e+01
+1.301605e+09	-1.032956e+01	-7.513196e+01
+1.308194e+09	-1.148416e+01	-9.483871e+01
+1.314783e+09	-1.304628e+01	-1.187683e+02
+1.321371e+09	-1.481214e+01	+1.516716e+02
+1.327960e+09	-1.555924e+01	+1.683871e+02
+1.334548e+09	-1.528757e+01	+1.416422e+02
+1.341137e+09	-1.406504e+01	+1.045161e+02
+1.347726e+09	-1.229918e+01	+7.724340e+01
+1.354314e+09	-1.066915e+01	+5.612903e+01
+1.360903e+09	-9.378710e+00	+3.765396e+01
+1.367492e+09	-8.292023e+00	+2.164223e+01
+1.374080e+09	-7.544927e+00	-1.055718e+01
+1.380669e+09	-7.001584e+00	-6.862170e+00
+1.387258e+09	-6.661994e+00	-1.319648e+01
+1.393846e+09	-6.661994e+00	-2.551320e+01
+1.400435e+09	-6.858065e+00	-3.941349e+01
+1.407023e+09	-7.400000e+00	-5.331378e+01
+1.413612e+09	-8.348387e+00	-6.651026e+01
+1.420201e+09	-9.770968e+00	-7.970674e+01
+1.426789e+09	-1.166774e+01	-9.255132e+01
+1.433378e+09	-1.444516e+01	+1.055718e+02
+1.439967e+09	-1.871290e+01	+1.184164e+02
+1.446555e+09	-2.663871e+01	+1.221114e+02
+1.453144e+09	-2.921290e+01	+5.524927e+01
+1.459732e+09	-2.108387e+01	+2.304985e+01
+1.466321e+09	-1.640968e+01	-1.354839e+01
+1.472910e+09	-1.356452e+01	-8.973607e+00
+1.479498e+09	-1.180323e+01	-9.853372e+00
+1.486087e+09	-1.065161e+01	-1.653959e+01
+1.492676e+09	-9.974194e+00	-2.621701e+01
+1.499264e+09	-9.838710e+00	-3.712610e+01
+1.505853e+09	-1.004194e+01	-4.750733e+01
+1.512441e+09	-1.065161e+01	-5.700880e+01
+1.519030e+09	-1.180323e+01	+6.563050e+01
+1.525619e+09	-1.363226e+01	+7.178886e+01
+1.532207e+09	-1.634194e+01	+7.319648e+01
+1.538796e+09	-2.006774e+01	+6.140762e+01
+1.545385e+09	-2.047419e+01	+2.621701e+01
+1.551973e+09	-1.634194e+01	+1.407625e+01
+1.558562e+09	-1.281935e+01	-9.853372e+00
+1.565151e+09	-1.010968e+01	-9.853372e+00
+1.571739e+09	-8.145161e+00	-1.337243e+01
+1.578328e+09	-6.654839e+00	-2.093842e+01
+1.584916e+09	-5.570968e+00	-3.149560e+01
+1.591505e+09	-4.825806e+00	-4.346041e+01
+1.598094e+09	-4.351613e+00	-5.577713e+01
+1.604682e+09	-4.148387e+00	-6.862170e+01
+1.611271e+09	-4.351613e+00	-8.199413e+01
+1.617860e+09	-4.825806e+00	-9.589443e+01
+1.624448e+09	-5.638710e+00	-1.106745e+02
+1.631037e+09	-6.925806e+00	-1.273900e+02
+1.637625e+09	-8.687097e+00	+1.472727e+02
+1.644214e+09	-1.092258e+01	+1.676833e+02
+1.650803e+09	-1.342903e+01	+1.580059e+02
+1.657391e+09	-1.390323e+01	+1.085630e+02
+1.663980e+09	-1.132903e+01	+6.651026e+01
+1.670569e+09	-8.280645e+00	+3.730205e+01
+1.677157e+09	-5.774194e+00	-1.689150e+01
+1.683746e+09	-3.877419e+00	-8.445748e+00
+1.690334e+09	-2.522581e+00	-1.214076e+01
+1.696923e+09	-1.574194e+00	-2.410557e+01
+1.703512e+09	-9.645161e-01	-3.818182e+01
+1.710100e+09	-5.580645e-01	-5.190616e+01
+1.716689e+09	-4.225806e-01	-6.475073e+01
+1.723278e+09	-4.225806e-01	-7.706745e+01
+1.729866e+09	-5.580645e-01	-8.920821e+01
+1.736455e+09	-8.967742e-01	-1.017009e+02
+1.743043e+09	-1.506452e+00	-1.152493e+02
+1.749632e+09	-2.387097e+00	-1.305572e+02
+1.756221e+09	-3.674194e+00	+1.481525e+02
+1.762809e+09	-5.706452e+00	+1.652199e+02
+1.769398e+09	-8.551613e+00	+1.683871e+02
+1.775987e+09	-1.220968e+01	+1.342522e+02
+1.782575e+09	-1.370000e+01	+7.337243e+01
+1.789164e+09	-1.071935e+01	+2.498534e+01
+1.795753e+09	-7.603226e+00	-9.677419e+00
+1.802341e+09	-5.300000e+00	-1.407625e+01
+1.808930e+09	-3.538710e+00	-2.568915e+01
+1.815518e+09	-2.251613e+00	-3.835777e+01
+1.822107e+09	-1.303226e+00	-5.085044e+01
+1.828696e+09	-6.258065e-01	-6.263930e+01
+1.835284e+09	-2.193548e-01	-7.425220e+01
+1.841873e+09	-1.516129e-01	-8.568915e+01
+1.848462e+09	-3.548387e-01	-9.677419e+01
+1.855050e+09	-8.967742e-01	-1.071554e+02
+1.861639e+09	-1.709677e+00	-1.164809e+02
+1.868227e+09	-2.861290e+00	-1.242229e+02
+1.874816e+09	-4.216129e+00	+1.296774e+02
+1.881405e+09	-5.706452e+00	+1.317889e+02
+1.887993e+09	-7.129032e+00	+1.296774e+02
+1.894582e+09	-8.145161e+00	+1.231672e+02
+1.901171e+09	-8.416129e+00	+1.143695e+02
+1.907759e+09	-7.941935e+00	+1.068035e+02
+1.914348e+09	-7.129032e+00	-1.029326e+02
+1.920936e+09	-6.248387e+00	-1.025806e+02
+1.927525e+09	-5.638710e+00	-1.043402e+02
+1.934114e+09	-5.232258e+00	-1.075073e+02
+1.940702e+09	-5.096774e+00	-1.112023e+02
+1.947291e+09	-5.232258e+00	-1.143695e+02
+1.953880e+09	-5.570968e+00	+1.170088e+02
+1.960468e+09	-6.045161e+00	+1.178886e+02
+1.967057e+09	-6.587097e+00	+1.164809e+02
+1.973645e+09	-6.993548e+00	+1.124340e+02
+1.980234e+09	-6.925806e+00	-1.060997e+02
+1.986823e+09	-6.316129e+00	-9.941349e+01
+1.993411e+09	-5.232258e+00	-9.483871e+01
+2.000000e+09	-3.945161e+00	-9.307918e+01
