# Hz S DB R 50.000000
+3.000000e+07	+9.570323e+00	-3.695015e+01
+3.658863e+07	+9.506452e+00	-4.574780e+01
+4.317726e+07	+9.506452e+00	-5.436950e+01
+4.976589e+07	+9.442581e+00	-6.299120e+01
+5.635452e+07	+9.314839e+00	-7.161290e+01
+6.294314e+07	+9.250968e+00	-7.988270e+01
+6.953177e+07	+9.250968e+00	-8.797654e+01
+7.612040e+07	+9.250968e+00	-9.607038e+01
+8.270903e+07	+9.250968e+00	-1.043402e+02
+8.929766e+07	+9.314839e+00	-1.127859e+02
+9.588629e+07	+9.314839e+00	-1.214076e+02
+1.024749e+08	+9.314839e+00	-1.302053e+02
+1.090635e+08	+9.314839e+00	-1.388270e+02
+1.156522e+08	+9.250968e+00	-1.474487e+02
+1.222408e+08	+9.250968e+00	-1.558944e+02
+1.288294e+08	+9.187097e+00	-1.641642e+02
+1.354181e+08	+9.123226e+00	+1.719062e+02
+1.420067e+08	+9.187097e+00	+1.771848e+02
+1.485953e+08	+9.250968e+00	+1.763050e+02
+1.551839e+08	+9.378710e+00	+1.696188e+02
+1.617726e+08	+9.570323e+00	+1.611730e+02
+1.683612e+08	+9.761935e+00	+1.518475e+02
+1.749498e+08	+9.825806e+00	+1.412903e+02
+1.815385e+08	+9.634194e+00	+1.317889e+02
+1.881271e+08	+9.570323e+00	+1.231672e+02
+1.947157e+08	+9.442581e+00	+1.141935e+02
+2.013043e+08	+9.378710e+00	+1.055718e+02
+2.078930e+08	+9.250968e+00	+9.730205e+01
+2.144816e+08	+9.187097e+00	+8.903226e+01
+2.210702e+08	+9.187097e+00	+8.093842e+01
+2.276589e+08	+9.187097e+00	+7.302053e+01
+2.342475e+08	+9.250968e+00	+6.510264e+01
+2.408361e+08	+9.378710e+00	+5.648094e+01
+2.474247e+08	+9.506452e+00	+4.750733e+01
+2.540134e+08	+9.185982e+00	+3.818182e+01
+2.606020e+08	+9.119648e+00	+2.868035e+01
+2.671906e+08	+9.053314e+00	+1.935484e+01
+2.737793e+08	+8.920645e+00	+1.038123e+01
+2.803679e+08	+8.721642e+00	-2.111437e+00
+2.869565e+08	+8.588974e+00	-1.759531e+00
+2.935452e+08	+8.456305e+00	-9.325513e+00
+3.001338e+08	+8.389971e+00	-1.706745e+01
+3.067224e+08	+8.389971e+00	-2.480938e+01
+3.133110e+08	+8.389971e+00	-3.272727e+01
+3.198997e+08	+8.456305e+00	-4.082111e+01
+3.264883e+08	+8.588974e+00	-4.944282e+01
+3.330769e+08	+8.588974e+00	-5.841642e+01
+3.396656e+08	+8.588974e+00	-6.739003e+01
+3.462542e+08	+8.456305e+00	-7.618768e+01
+3.528428e+08	+8.389971e+00	-8.480938e+01
+3.594314e+08	+8.257302e+00	-9.290323e+01
+3.660201e+08	+8.190968e+00	-1.009971e+02
+3.726087e+08	+8.190968e+00	-1.087390e+02
+3.791973e+08	+8.190968e+00	-1.164809e+02
+3.857860e+08	+8.323636e+00	-1.242229e+02
+3.923746e+08	+8.522639e+00	-1.328446e+02
+3.989632e+08	+8.655308e+00	-1.421701e+02
+4.055518e+08	+8.655308e+00	-1.513196e+02
+4.121405e+08	+8.655308e+00	-1.604692e+02
+4.187291e+08	+8.655308e+00	-1.696188e+02
+4.253177e+08	+8.655308e+00	-1.696188e+02
+4.319064e+08	+8.588974e+00	+1.766569e+02
+4.384950e+08	+8.522639e+00	+1.768328e+02
+4.450836e+08	+8.522639e+00	+1.699707e+02
+4.516722e+08	+8.522639e+00	+1.608211e+02
+4.582609e+08	+8.456305e+00	+1.521994e+02
+4.648495e+08	+8.456305e+00	+1.435777e+02
+4.714381e+08	+8.522639e+00	+1.347801e+02
+4.780268e+08	+8.522639e+00	+1.252786e+02
+4.846154e+08	+8.456305e+00	+1.156012e+02
+4.912040e+08	+8.323636e+00	+1.059238e+02
+4.977926e+08	+8.058299e+00	+9.677419e+01
+5.043813e+08	+8.126686e+00	+8.797654e+01
+5.109699e+08	+7.928739e+00	+7.988270e+01
+5.175585e+08	+7.730792e+00	+7.214076e+01
+5.241472e+08	+7.532845e+00	+6.492669e+01
+5.307358e+08	+7.466862e+00	+5.771261e+01
+5.373244e+08	+7.466862e+00	+4.293255e+01
+5.439130e+08	+7.532845e+00	+3.607038e+01
+5.505017e+08	+7.664809e+00	+2.709677e+01
+5.570903e+08	+7.862757e+00	+1.812317e+01
+5.636789e+08	+7.862757e+00	+8.797654e+00
+5.702676e+08	+7.862757e+00	-2.111437e+00
+5.768562e+08	+7.664809e+00	-3.519062e+00
+5.834448e+08	+7.532845e+00	-1.020528e+01
+5.900334e+08	+7.466862e+00	-1.794721e+01
+5.966221e+08	+7.466862e+00	-2.516129e+01
+6.032107e+08	+7.532845e+00	-3.237537e+01
+6.097993e+08	+7.664809e+00	-3.976540e+01
+6.163880e+08	+7.862757e+00	-4.768328e+01
+6.229766e+08	+8.060704e+00	-5.595308e+01
+6.295652e+08	+8.258651e+00	-6.492669e+01
+6.361538e+08	+8.456598e+00	-7.460411e+01
+6.427425e+08	+8.522581e+00	-8.445748e+01
+6.493311e+08	+8.456598e+00	-9.431085e+01
+6.559197e+08	+8.324633e+00	-1.038123e+02
+6.625084e+08	+8.126686e+00	-1.129619e+02
+6.690970e+08	+7.994721e+00	-1.215836e+02
+6.756856e+08	+7.862757e+00	-1.298534e+02
+6.822742e+08	+7.730792e+00	-1.377713e+02
+6.888629e+08	+7.598827e+00	-1.455132e+02
+6.954515e+08	+7.598827e+00	-1.532551e+02
+7.020401e+08	+7.598827e+00	-1.613490e+02
+7.086288e+08	+7.598827e+00	-1.696188e+02
+7.152174e+08	+7.664809e+00	+1.756012e+02
+7.218060e+08	+7.664809e+00	+1.763050e+02
+7.283946e+08	+7.598827e+00	+1.719062e+02
+7.349833e+08	+7.598827e+00	+1.636364e+02
+7.415719e+08	+7.532845e+00	+1.551906e+02
+7.481605e+08	+7.532845e+00	+1.470968e+02
+7.547492e+08	+7.466862e+00	+1.390029e+02
+7.613378e+08	+7.532845e+00	+1.312610e+02
+7.679264e+08	+7.532845e+00	+1.233431e+02
+7.745151e+08	+7.598827e+00	+1.150733e+02
+7.811037e+08	+7.664809e+00	+1.066276e+02
+7.876923e+08	+7.730792e+00	+9.800587e+01
+7.942809e+08	+7.730792e+00	+8.938416e+01
+8.008696e+08	+8.119355e+00	+8.093842e+01
+8.074582e+08	+8.119355e+00	+7.249267e+01
+8.140468e+08	+8.119355e+00	+6.404692e+01
+8.206355e+08	+8.187097e+00	+5.542522e+01
+8.272241e+08	+8.187097e+00	+4.697947e+01
+8.338127e+08	+8.254839e+00	+3.835777e+01
+8.404013e+08	+8.254839e+00	+2.956012e+01
+8.469900e+08	+8.322581e+00	+2.041056e+01
+8.535786e+08	+8.254839e+00	+1.143695e+01
+8.601672e+08	+8.254839e+00	-4.750733e+00
+8.667559e+08	+8.187097e+00	-3.695015e+00
+8.733445e+08	+8.119355e+00	-8.269795e+00
+8.799331e+08	+8.051613e+00	-1.618768e+01
+8.865217e+08	+7.983871e+00	-2.445748e+01
+8.931104e+08	+7.983871e+00	-3.255132e+01
+8.996990e+08	+8.051613e+00	-4.064516e+01
+9.062876e+08	+8.119355e+00	-4.873900e+01
+9.128763e+08	+8.187097e+00	-5.718475e+01
+9.194649e+08	+8.254839e+00	-6.580645e+01
+9.260535e+08	+8.322581e+00	-7.478006e+01
+9.326421e+08	+8.322581e+00	-8.392962e+01
+9.392308e+08	+8.322581e+00	-9.290323e+01
+9.458194e+08	+8.254839e+00	-1.017009e+02
+9.524080e+08	+8.187097e+00	-1.101466e+02
+9.589967e+08	+8.119355e+00	-1.182405e+02
+9.655853e+08	+8.051613e+00	-1.261584e+02
+9.721739e+08	+8.119355e+00	-1.340762e+02
+9.787625e+08	+8.187097e+00	-1.419941e+02
+9.853512e+08	+8.322581e+00	-1.504399e+02
+9.919398e+08	+8.458065e+00	-1.595894e+02
+9.985284e+08	+8.593548e+00	-1.685630e+02
+1.005117e+09	+8.661290e+00	+1.743695e+02
+1.011706e+09	+8.661290e+00	+1.747214e+02
+1.018294e+09	+8.525806e+00	+1.694428e+02
+1.024883e+09	+8.390323e+00	+1.606452e+02
+1.031472e+09	+8.254839e+00	+1.514956e+02
+1.038060e+09	+8.119355e+00	+1.430499e+02
+1.044649e+09	+7.983871e+00	+1.349560e+02
+1.051237e+09	+7.916129e+00	+1.272141e+02
+1.057826e+09	+7.916129e+00	+1.194721e+02
+1.064415e+09	+7.983871e+00	+1.113783e+02
+1.071003e+09	+8.051613e+00	+1.031085e+02
+1.077592e+09	+8.119355e+00	+9.431085e+01
+1.084181e+09	+8.119355e+00	+8.533724e+01
+1.090769e+09	+8.051613e+00	+7.618768e+01
+1.097358e+09	+7.983871e+00	+6.721408e+01
+1.103946e+09	+8.347859e+00	+5.859238e+01
+1.110535e+09	+8.212023e+00	+5.014663e+01
+1.117124e+09	+8.076188e+00	+4.205279e+01
+1.123712e+09	+8.008270e+00	+3.413490e+01
+1.130301e+09	+8.008270e+00	+2.604106e+01
+1.136890e+09	+8.008270e+00	+1.812317e+01
+1.143478e+09	+8.076188e+00	+1.090909e+01
+1.150067e+09	+8.144106e+00	-5.982405e+00
+1.156656e+09	+8.212023e+00	-5.278592e+00
+1.163244e+09	+8.212023e+00	-5.278592e+00
+1.169833e+09	+8.212023e+00	-5.278592e+00
+1.176421e+09	+8.144106e+00	-2.498534e+01
+1.183010e+09	+8.144106e+00	-3.360704e+01
+1.189599e+09	+8.144106e+00	-3.378299e+01
+1.196187e+09	+8.076188e+00	-4.187683e+01
+1.202776e+09	+8.076188e+00	-4.979472e+01
+1.209365e+09	+8.076188e+00	-6.545455e+01
+1.215953e+09	+8.212023e+00	-7.354839e+01
+1.222542e+09	+8.483695e+00	-8.217009e+01
+1.229130e+09	+8.551613e+00	-9.114370e+01
+1.235719e+09	+8.619531e+00	-1.004692e+02
+1.242308e+09	+8.687449e+00	-1.099707e+02
+1.248896e+09	+8.619531e+00	-1.194721e+02
+1.255485e+09	+8.483695e+00	-1.286217e+02
+1.262074e+09	+8.279941e+00	-1.374194e+02
+1.268662e+09	+8.212023e+00	-1.458651e+02
+1.275251e+09	+8.076188e+00	-1.541349e+02
+1.281839e+09	+8.076188e+00	-1.622287e+02
+1.288428e+09	+8.144106e+00	-1.689150e+02
+1.295017e+09	+8.212023e+00	+1.729619e+02
+1.301605e+09	+8.279941e+00	+1.733138e+02
+1.308194e+09	+8.415777e+00	+1.694428e+02
+1.314783e+09	+8.415777e+00	+1.615249e+02
+1.321371e+09	+8.347859e+00	+1.516716e+02
+1.327960e+09	+8.212023e+00	+1.416422e+02
+1.334548e+09	+7.940352e+00	+1.323167e+02
+1.341137e+09	+7.668680e+00	+1.236950e+02
+1.347726e+09	+7.464927e+00	+1.157771e+02
+1.354314e+09	+7.261173e+00	+1.080352e+02
+1.360903e+09	+7.125337e+00	+1.009971e+02
+1.367492e+09	+7.125337e+00	+9.378299e+01
+1.374080e+09	+7.125337e+00	+8.674487e+01
+1.380669e+09	+7.193255e+00	+7.935484e+01
+1.387258e+09	+7.261173e+00	+7.161290e+01
+1.393846e+09	+7.397009e+00	+6.334311e+01
+1.400435e+09	+7.435484e+00	+5.507331e+01
+1.407023e+09	+7.435484e+00	+4.645161e+01
+1.413612e+09	+7.435484e+00	+3.765396e+01
+1.420201e+09	+7.435484e+00	+2.920821e+01
+1.426789e+09	+7.367742e+00	+2.111437e+01
+1.433378e+09	+7.300000e+00	+1.425220e+01
+1.439967e+09	+7.367742e+00	-9.501466e+00
+1.446555e+09	+7.367742e+00	-7.038123e+00
+1.453144e+09	+7.503226e+00	-7.214076e+00
+1.459732e+09	+7.503226e+00	-1.038123e+01
+1.466321e+09	+9.129032e+00	-1.601173e+01
+1.472910e+09	+7.909677e+00	-2.357771e+01
+1.479498e+09	+8.045161e+00	-3.219941e+01
+1.486087e+09	+8.180645e+00	-4.117302e+01
+1.492676e+09	+8.451613e+00	-5.014663e+01
+1.499264e+09	+8.519355e+00	-5.894428e+01
+1.505853e+09	+8.654839e+00	-6.756598e+01
+1.512441e+09	+8.722581e+00	-7.618768e+01
+1.519030e+09	+8.858065e+00	-8.480938e+01
+1.525619e+09	+8.925806e+00	-9.360704e+01
+1.532207e+09	+9.061290e+00	-1.025806e+02
+1.538796e+09	+9.129032e+00	-1.115543e+02
+1.545385e+09	+9.196774e+00	-1.207038e+02
+1.551973e+09	+9.196774e+00	-1.298534e+02
+1.558562e+09	+9.196774e+00	-1.393548e+02
+1.565151e+09	+9.196774e+00	-1.488563e+02
+1.571739e+09	+9.196774e+00	-1.578299e+02
+1.578328e+09	+9.196774e+00	-1.652199e+02
+1.584916e+09	+9.196774e+00	+1.701466e+02
+1.591505e+09	+9.196774e+00	+1.701466e+02
+1.598094e+09	+9.196774e+00	+1.719062e+02
+1.604682e+09	+9.196774e+00	+1.701466e+02
+1.611271e+09	+9.196774e+00	+1.650440e+02
+1.617860e+09	+9.129032e+00	+1.574780e+02
+1.624448e+09	+9.061290e+00	+1.488563e+02
+1.631037e+09	+9.129032e+00	+1.400587e+02
+1.637625e+09	+9.061290e+00	+1.228152e+02
+1.644214e+09	+9.129032e+00	+1.143695e+02
+1.650803e+09	+9.129032e+00	+1.140176e+02
+1.657391e+09	+9.264516e+00	+1.062757e+02
+1.663980e+09	+9.400000e+00	+8.903226e+01
+1.670569e+09	+9.467742e+00	+7.970674e+01
+1.677157e+09	+9.603226e+00	+7.038123e+01
+1.683746e+09	+9.670968e+00	+6.087977e+01
+1.690334e+09	+9.670968e+00	+6.070381e+01
+1.696923e+09	+9.603226e+00	+4.099707e+01
+1.703512e+09	+9.467742e+00	+3.202346e+01
+1.710100e+09	+9.264516e+00	+2.357771e+01
+1.716689e+09	+9.061290e+00	+1.671554e+01
+1.723278e+09	+8.925806e+00	+1.178886e+01
+1.729866e+09	+8.993548e+00	-8.973607e+00
+1.736455e+09	+9.129032e+00	-8.621701e+00
+1.743043e+09	+9.332258e+00	-1.055718e+01
+1.749632e+09	+9.603226e+00	-1.530792e+01
+1.756221e+09	+9.874194e+00	-2.269795e+01
+1.762809e+09	+1.007742e+01	-3.255132e+01
+1.769398e+09	+1.028065e+01	-4.328446e+01
+1.775987e+09	+1.028065e+01	-5.454545e+01
+1.782575e+09	+1.021290e+01	-6.545455e+01
+1.789164e+09	+1.000968e+01	-7.565982e+01
+1.795753e+09	+9.806452e+00	-8.498534e+01
+1.802341e+09	+9.603226e+00	-9.378299e+01
+1.808930e+09	+9.467742e+00	-1.022287e+02
+1.815518e+09	+9.400000e+00	-1.103226e+02
+1.822107e+09	+9.400000e+00	-1.187683e+02
+1.828696e+09	+9.400000e+00	-1.275660e+02
+1.835284e+09	+9.467742e+00	-1.367155e+02
+1.841873e+09	+9.467742e+00	-1.462170e+02
+1.848462e+09	+9.467742e+00	-1.551906e+02
+1.855050e+09	+9.400000e+00	-1.631085e+02
+1.861639e+09	+9.332258e+00	+1.682111e+02
+1.868227e+09	+9.196774e+00	+1.699707e+02
+1.874816e+09	+9.061290e+00	+1.687390e+02
+1.881405e+09	+8.925806e+00	+1.645161e+02
+1.887993e+09	+8.790323e+00	+1.581818e+02
+1.894582e+09	+8.722581e+00	+1.502639e+02
+1.901171e+09	+8.654839e+00	+1.414663e+02
+1.907759e+09	+8.587097e+00	+1.321408e+02
+1.914348e+09	+8.451613e+00	+1.229912e+02
+1.920936e+09	+8.316129e+00	+1.140176e+02
+1.927525e+09	+8.112903e+00	+1.052199e+02
+1.934114e+09	+7.977419e+00	+9.695015e+01
+1.940702e+09	+7.977419e+00	+9.695015e+01
+1.947291e+09	+7.774194e+00	+8.903226e+01
+1.953880e+09	+7.638710e+00	+8.146628e+01
+1.960468e+09	+7.570968e+00	+7.390029e+01
+1.967057e+09	+7.570968e+00	+6.633431e+01
+1.973645e+09	+7.638710e+00	+5.824047e+01
+1.980234e+09	+7.706452e+00	-4.979472e+01
+1.986823e+09	+7.774194e+00	-4.082111e+01
+1.993411e+09	+7.841935e+00	-3.131965e+01
+2.000000e+09	+7.774194e+00	-2.252199e+01
