# Hz S DB R 50.000000
+3.000000e+07	+9.538123e+00	-5.260997e+01
+3.658863e+07	+9.538123e+00	-6.615836e+01
+4.317726e+07	+9.475660e+00	-7.970674e+01
+4.976589e+07	+9.413196e+00	-9.325513e+01
+5.635452e+07	+9.288270e+00	-1.064516e+02
+6.294314e+07	+9.225806e+00	-1.194721e+02
+6.953177e+07	+9.163343e+00	-1.324927e+02
+7.612040e+07	+9.163343e+00	-1.453372e+02
+8.270903e+07	+9.163343e+00	-1.580059e+02
+8.929766e+07	+9.225806e+00	+1.710264e+02
+9.588629e+07	+9.225806e+00	+1.771848e+02
+1.024749e+08	+9.288270e+00	+1.717302e+02
+1.090635e+08	+9.288270e+00	+1.585337e+02
+1.156522e+08	+9.288270e+00	+1.451613e+02
+1.222408e+08	+9.225806e+00	+1.316129e+02
+1.288294e+08	+9.163343e+00	+1.184164e+02
+1.354181e+08	+9.163343e+00	+1.057478e+02
+1.420067e+08	+9.163343e+00	+9.290323e+01
+1.485953e+08	+9.225806e+00	+7.988270e+01
+1.551839e+08	+9.288270e+00	+6.615836e+01
+1.617726e+08	+9.288270e+00	+5.260997e+01
+1.683612e+08	+9.288270e+00	+3.888563e+01
+1.749498e+08	+9.288270e+00	+2.516129e+01
+1.815385e+08	+9.288270e+00	+1.143695e+01
+1.881271e+08	+9.225806e+00	+0.000000e+00
+1.947157e+08	+9.038416e+00	+0.000000e+00
+2.013043e+08	+8.975953e+00	-1.126100e+01
+2.078930e+08	+8.913490e+00	-2.392962e+01
+2.144816e+08	+8.788563e+00	-3.659824e+01
+2.210702e+08	+8.788563e+00	-4.909091e+01
+2.276589e+08	+8.851026e+00	-6.140762e+01
+2.342475e+08	+8.975953e+00	-7.460411e+01
+2.408361e+08	+9.100880e+00	-8.815249e+01
+2.474247e+08	+9.225806e+00	-1.022287e+02
+2.540134e+08	+8.854311e+00	-1.164809e+02
+2.606020e+08	+8.787977e+00	-1.309091e+02
+2.671906e+08	+8.655308e+00	-1.446334e+02
+2.737793e+08	+8.456305e+00	-1.580059e+02
+2.803679e+08	+8.323636e+00	+1.708504e+02
+2.869565e+08	+8.190968e+00	+1.775367e+02
+2.935452e+08	+8.190968e+00	+1.733138e+02
+3.001338e+08	+8.124633e+00	+1.613490e+02
+3.067224e+08	+8.190968e+00	+1.488563e+02
+3.133110e+08	+8.323636e+00	+1.360117e+02
+3.198997e+08	+8.389971e+00	+1.228152e+02
+3.264883e+08	+8.522639e+00	+1.096188e+02
+3.330769e+08	+8.588974e+00	+9.571848e+01
+3.396656e+08	+8.655308e+00	+8.164223e+01
+3.462542e+08	+8.655308e+00	+6.756598e+01
+3.528428e+08	+8.588974e+00	+5.348974e+01
+3.594314e+08	+8.456305e+00	+3.941349e+01
+3.660201e+08	+8.257302e+00	+2.621701e+01
+3.726087e+08	+8.124633e+00	+1.337243e+01
+3.791973e+08	+8.058299e+00	-5.278592e-01
+3.857860e+08	+7.991965e+00	+0.000000e+00
+3.923746e+08	+8.058299e+00	-6.158358e+00
+3.989632e+08	+8.124633e+00	-1.953079e+01
+4.055518e+08	+8.190968e+00	-3.290323e+01
+4.121405e+08	+8.190968e+00	-4.680352e+01
+4.187291e+08	+8.190968e+00	-6.105572e+01
+4.253177e+08	+8.058299e+00	-7.513196e+01
+4.319064e+08	+7.859296e+00	-8.850440e+01
+4.384950e+08	+7.660293e+00	-1.011730e+02
+4.450836e+08	+7.660293e+00	-1.143695e+02
+4.516722e+08	+7.593959e+00	-1.273900e+02
+4.582609e+08	+7.461290e+00	-1.404106e+02
+4.648495e+08	+7.461290e+00	-1.532551e+02
+4.714381e+08	+7.394956e+00	-1.662757e+02
+4.780268e+08	+7.394956e+00	+1.770088e+02
+4.846154e+08	+7.394956e+00	+1.757771e+02
+4.912040e+08	+7.262287e+00	+1.632845e+02
+4.977926e+08	+7.129619e+00	+1.499120e+02
+5.043813e+08	+7.664047e+00	+1.370674e+02
+5.109699e+08	+7.600528e+00	+1.245748e+02
+5.175585e+08	+7.600528e+00	+1.122581e+02
+5.241472e+08	+7.664047e+00	+9.941349e+01
+5.307358e+08	+7.791085e+00	+8.621701e+01
+5.373244e+08	+7.854604e+00	+7.196481e+01
+5.439130e+08	+7.854604e+00	+5.753666e+01
+5.505017e+08	+7.664047e+00	+4.328446e+01
+5.570903e+08	+7.346452e+00	+2.991202e+01
+5.636789e+08	+7.409971e+00	+2.991202e+01
+5.702676e+08	+7.028856e+00	-5.278592e+00
+5.768562e+08	+6.965337e+00	+0.000000e+00
+5.834448e+08	+6.901818e+00	+0.000000e+00
+5.900334e+08	+6.965337e+00	-1.178886e+01
+5.966221e+08	+7.028856e+00	-2.392962e+01
+6.032107e+08	+7.092375e+00	-3.607038e+01
+6.097993e+08	+7.219413e+00	-4.856305e+01
+6.163880e+08	+7.409971e+00	-6.140762e+01
+6.229766e+08	+7.537009e+00	-7.495601e+01
+6.295652e+08	+7.600528e+00	-8.885630e+01
+6.361538e+08	+7.600528e+00	-1.027566e+02
+6.427425e+08	+7.537009e+00	-1.164809e+02
+6.493311e+08	+7.409971e+00	-1.298534e+02
+6.559197e+08	+7.282933e+00	-1.426979e+02
+6.625084e+08	+7.219413e+00	-1.553666e+02
+6.690970e+08	+7.092375e+00	+1.682111e+02
+6.756856e+08	+7.155894e+00	+1.768328e+02
+6.822742e+08	+7.155894e+00	+1.756012e+02
+6.888629e+08	+7.219413e+00	+1.650440e+02
+6.954515e+08	+7.346452e+00	+1.518475e+02
+7.020401e+08	+7.473490e+00	+1.386510e+02
+7.086288e+08	+7.537009e+00	+1.249267e+02
+7.152174e+08	+7.600528e+00	+1.104985e+02
+7.218060e+08	+7.473490e+00	+9.589443e+01
+7.283946e+08	+7.282933e+00	+8.234604e+01
+7.349833e+08	+7.092375e+00	+6.932551e+01
+7.415719e+08	+6.901818e+00	+5.683284e+01
+7.481605e+08	+6.838299e+00	+4.451613e+01
+7.547492e+08	+6.838299e+00	+3.237537e+01
+7.613378e+08	+6.838299e+00	+1.988270e+01
+7.679264e+08	+6.901818e+00	-6.686217e+00
+7.745151e+08	+7.028856e+00	+0.000000e+00
+7.811037e+08	+7.092375e+00	-3.519062e-01
+7.876923e+08	+7.092375e+00	-1.354839e+01
+7.942809e+08	+7.092375e+00	-2.744868e+01
+8.008696e+08	+7.581232e+00	-4.064516e+01
+8.074582e+08	+7.517185e+00	-5.384164e+01
+8.140468e+08	+7.517185e+00	-6.668622e+01
+8.206355e+08	+7.517185e+00	-7.970674e+01
+8.272241e+08	+7.517185e+00	-9.255132e+01
+8.338127e+08	+7.581232e+00	-1.052199e+02
+8.404013e+08	+7.645279e+00	-1.180645e+02
+8.469900e+08	+7.709326e+00	-1.310850e+02
+8.535786e+08	+7.773372e+00	-1.442815e+02
+8.601672e+08	+7.901466e+00	-1.581818e+02
+8.667559e+08	+7.901466e+00	+1.713783e+02
+8.733445e+08	+7.901466e+00	+1.766569e+02
+8.799331e+08	+7.901466e+00	+1.713783e+02
+8.865217e+08	+7.901466e+00	+1.581818e+02
+8.931104e+08	+7.901466e+00	+1.444575e+02
+8.996990e+08	+7.837419e+00	+1.312610e+02
+9.062876e+08	+7.837419e+00	+1.180645e+02
+9.128763e+08	+7.837419e+00	+1.048680e+02
+9.194649e+08	+7.773372e+00	+9.149560e+01
+9.260535e+08	+7.709326e+00	+7.812317e+01
+9.326421e+08	+7.645279e+00	+6.475073e+01
+9.392308e+08	+7.581232e+00	+5.173021e+01
+9.458194e+08	+7.453138e+00	+3.888563e+01
+9.524080e+08	+7.389091e+00	+2.604106e+01
+9.589967e+08	+7.389091e+00	+1.284457e+01
+9.655853e+08	+7.389091e+00	-1.407625e+00
+9.721739e+08	+7.389091e+00	+0.000000e+00
+9.787625e+08	+7.453138e+00	-4.398827e+00
+9.853512e+08	+7.581232e+00	-1.706745e+01
+9.919398e+08	+7.709326e+00	-3.079179e+01
+9.985284e+08	+7.837419e+00	-4.416422e+01
+1.005117e+09	+7.965513e+00	-5.771261e+01
+1.011706e+09	+7.965513e+00	-7.143695e+01
+1.018294e+09	+8.029560e+00	-8.533724e+01
+1.024883e+09	+7.965513e+00	-9.888563e+01
+1.031472e+09	+7.965513e+00	-1.120821e+02
+1.038060e+09	+7.965513e+00	-1.252786e+02
+1.044649e+09	+7.965513e+00	-1.381232e+02
+1.051237e+09	+8.029560e+00	-1.514956e+02
+1.057826e+09	+8.157654e+00	-1.652199e+02
+1.064415e+09	+8.285748e+00	+1.747214e+02
+1.071003e+09	+8.413842e+00	+1.745455e+02
+1.077592e+09	+8.477889e+00	+1.641642e+02
+1.084181e+09	+8.477889e+00	+1.490323e+02
+1.090769e+09	+8.349795e+00	+1.342522e+02
+1.097358e+09	+8.221701e+00	+1.203519e+02
+1.103946e+09	+8.407214e+00	+1.068035e+02
+1.110535e+09	+8.210323e+00	+9.360704e+01
+1.117124e+09	+8.013431e+00	+8.093842e+01
+1.123712e+09	+7.947801e+00	+6.844575e+01
+1.130301e+09	+7.947801e+00	+5.612903e+01
+1.136890e+09	+7.947801e+00	+4.363636e+01
+1.143478e+09	+7.947801e+00	+3.043988e+01
+1.150067e+09	+8.013431e+00	+1.653959e+01
+1.156656e+09	+8.013431e+00	-4.046921e+00
+1.163244e+09	+7.947801e+00	+0.000000e+00
+1.169833e+09	+7.816540e+00	-4.398827e+00
+1.176421e+09	+7.685279e+00	-1.653959e+01
+1.183010e+09	+7.554018e+00	-3.008798e+01
+1.189599e+09	+7.488387e+00	-4.275660e+01
+1.196187e+09	+7.422757e+00	-5.489736e+01
+1.202776e+09	+7.488387e+00	-6.686217e+01
+1.209365e+09	+7.554018e+00	-7.917889e+01
+1.215953e+09	+7.750909e+00	-9.184751e+01
+1.222542e+09	+7.947801e+00	-1.050440e+02
+1.229130e+09	+8.079062e+00	-1.189443e+02
+1.235719e+09	+8.144692e+00	-1.335484e+02
+1.242308e+09	+8.210323e+00	-1.488563e+02
+1.248896e+09	+8.079062e+00	-1.638123e+02
+1.255485e+09	+7.882170e+00	+1.736657e+02
+1.262074e+09	+7.619648e+00	+1.740176e+02
+1.268662e+09	+7.422757e+00	+1.666276e+02
+1.275251e+09	+7.225865e+00	+1.546628e+02
+1.281839e+09	+7.225865e+00	+1.419941e+02
+1.288428e+09	+7.160235e+00	+1.295015e+02
+1.295017e+09	+7.225865e+00	+1.171848e+02
+1.301605e+09	+7.357126e+00	+1.046921e+02
+1.308194e+09	+7.488387e+00	+9.184751e+01
+1.314783e+09	+7.619648e+00	+7.829912e+01
+1.321371e+09	+7.685279e+00	+6.439883e+01
+1.327960e+09	+7.685279e+00	+5.049853e+01
+1.334548e+09	+7.619648e+00	+3.624633e+01
+1.341137e+09	+7.488387e+00	+2.199413e+01
+1.347726e+09	+7.291496e+00	+9.325513e+00
+1.354314e+09	+7.160235e+00	-1.407625e+00
+1.360903e+09	+7.094604e+00	-8.797654e-01
+1.367492e+09	+7.094604e+00	-7.565982e+00
+1.374080e+09	+7.160235e+00	-1.900293e+01
+1.380669e+09	+7.225865e+00	-3.219941e+01
+1.387258e+09	+7.357126e+00	-4.557185e+01
+1.393846e+09	+7.422757e+00	-5.876833e+01
+1.400435e+09	+8.068270e+00	-7.266862e+01
+1.407023e+09	+8.068270e+00	-8.656891e+01
+1.413612e+09	+8.068270e+00	-1.004692e+02
+1.420201e+09	+8.001935e+00	-1.141935e+02
+1.426789e+09	+7.935601e+00	-1.280938e+02
+1.433378e+09	+7.869267e+00	-1.423460e+02
+1.439967e+09	+7.802933e+00	-1.562463e+02
+1.446555e+09	+7.670264e+00	+1.678592e+02
+1.453144e+09	+7.537595e+00	+1.736657e+02
+1.459732e+09	+7.471261e+00	+1.717302e+02
+1.466321e+09	+7.404927e+00	+1.625806e+02
+1.472910e+09	+7.338592e+00	+1.493842e+02
+1.479498e+09	+7.205924e+00	+1.354839e+02
+1.486087e+09	+7.139589e+00	+1.222874e+02
+1.492676e+09	+7.006921e+00	+1.094428e+02
+1.499264e+09	+6.940587e+00	+9.695015e+01
+1.505853e+09	+6.874252e+00	+8.463343e+01
+1.512441e+09	+6.874252e+00	+7.249267e+01
+1.519030e+09	+6.874252e+00	+6.017595e+01
+1.525619e+09	+6.940587e+00	+4.768328e+01
+1.532207e+09	+6.940587e+00	+3.466276e+01
+1.538796e+09	+7.006921e+00	+2.146628e+01
+1.545385e+09	+7.073255e+00	+9.677419e+00
+1.551973e+09	+7.139589e+00	-2.639296e+00
+1.558562e+09	+7.205924e+00	-2.111437e+00
+1.565151e+09	+7.338592e+00	-8.797654e+00
+1.571739e+09	+7.338592e+00	-2.041056e+01
+1.578328e+09	+7.404927e+00	-3.395894e+01
+1.584916e+09	+7.471261e+00	-4.750733e+01
+1.591505e+09	+7.471261e+00	-6.087977e+01
+1.598094e+09	+7.537595e+00	-7.407625e+01
+1.604682e+09	+7.537595e+00	-8.727273e+01
+1.611271e+09	+7.537595e+00	-1.004692e+02
+1.617860e+09	+7.537595e+00	-1.136657e+02
+1.624448e+09	+7.537595e+00	-1.273900e+02
+1.631037e+09	+7.471261e+00	-1.412903e+02
+1.637625e+09	+7.404927e+00	-1.546628e+02
+1.644214e+09	+7.404927e+00	+1.659238e+02
+1.650803e+09	+7.404927e+00	+1.720821e+02
+1.657391e+09	+7.471261e+00	+1.713783e+02
+1.663980e+09	+7.471261e+00	+1.639883e+02
+1.670569e+09	+7.404927e+00	+1.513196e+02
+1.677157e+09	+7.338592e+00	+1.368915e+02
+1.683746e+09	+7.205924e+00	+1.224633e+02
+1.690334e+09	+7.073255e+00	+1.085630e+02
+1.696923e+09	+6.807918e+00	+9.554252e+01
+1.703512e+09	+6.608915e+00	+8.322581e+01
+1.710100e+09	+6.409912e+00	+7.143695e+01
+1.716689e+09	+6.343578e+00	+6.017595e+01
+1.723278e+09	+6.343578e+00	+4.891496e+01
+1.729866e+09	+6.409912e+00	+3.782991e+01
+1.736455e+09	+6.675249e+00	+2.639296e+01
+1.743043e+09	+6.940587e+00	+1.565982e+01
+1.749632e+09	+7.338592e+00	-7.038123e+00
+1.756221e+09	+7.802933e+00	-2.815249e+00
+1.762809e+09	+8.200938e+00	-5.102639e+00
+1.769398e+09	+8.532610e+00	-1.460411e+01
+1.775987e+09	+8.731613e+00	-2.850440e+01
+1.782575e+09	+8.797947e+00	-4.381232e+01
+1.789164e+09	+8.797947e+00	-5.876833e+01
+1.795753e+09	+8.797947e+00	-7.266862e+01
+1.802341e+09	+8.797947e+00	-8.604106e+01
+1.808930e+09	+8.797947e+00	-9.870968e+01
+1.815518e+09	+8.930616e+00	-1.117302e+02
+1.822107e+09	+9.063284e+00	-1.252786e+02
+1.828696e+09	+9.195953e+00	-1.397067e+02
+1.835284e+09	+9.328622e+00	-1.539589e+02
+1.841873e+09	+9.394956e+00	+1.657478e+02
+1.848462e+09	+9.394956e+00	+1.713783e+02
+1.855050e+09	+9.328622e+00	+1.689150e+02
+1.861639e+09	+9.195953e+00	+1.594135e+02
+1.868227e+09	+8.996950e+00	+1.460411e+02
+1.874816e+09	+8.797947e+00	+1.321408e+02
+1.881405e+09	+8.598944e+00	+1.184164e+02
+1.887993e+09	+8.532610e+00	+1.053959e+02
+1.894582e+09	+8.466276e+00	+9.290323e+01
+1.901171e+09	+8.466276e+00	+8.058651e+01
+1.907759e+09	+8.466276e+00	+6.791789e+01
+1.914348e+09	+8.532610e+00	+5.472141e+01
+1.920936e+09	+8.665279e+00	+4.134897e+01
+1.927525e+09	+8.797947e+00	+2.797654e+01
+1.934114e+09	+8.930616e+00	+1.601173e+01
+1.940702e+09	+9.063284e+00	-7.390029e+00
+1.947291e+09	+9.195953e+00	-3.870968e+00
+1.953880e+09	+9.461290e+00	-6.158358e+00
+1.960468e+09	+9.726628e+00	-1.390029e+01
+1.967057e+09	+1.005830e+01	-2.551320e+01
+1.973645e+09	+1.038997e+01	-3.976540e+01
+1.980234e+09	+1.072164e+01	-5.472141e+01
+1.986823e+09	+1.098698e+01	-7.020528e+01
+1.993411e+09	+1.118598e+01	-8.604106e+01
+2.000000e+09	+1.125232e+01	-1.022287e+02
