# Hz S DB R 50.000000
+3.000000e+07	+8.538710e+00	+8.375367e+01
+3.658863e+07	+8.101466e+00	+6.686217e+01
+4.317726e+07	+7.851613e+00	+5.085044e+01
+4.976589e+07	+7.789150e+00	+3.536657e+01
+5.635452e+07	+7.976540e+00	+1.970674e+01
+6.294314e+07	+8.226393e+00	-4.046921e+00
+6.953177e+07	+8.726100e+00	+0.000000e+00
+7.612040e+07	+9.288270e+00	-1.249267e+01
+8.270903e+07	+9.850440e+00	-3.202346e+01
+8.929766e+07	+1.041261e+01	-5.313783e+01
+9.588629e+07	+1.072493e+01	-7.583578e+01
+1.024749e+08	+1.072493e+01	-9.994135e+01
+1.090635e+08	+1.028768e+01	-1.233431e+02
+1.156522e+08	+9.663050e+00	-1.448094e+02
+1.222408e+08	+9.038416e+00	+1.648680e+02
+1.288294e+08	+8.413783e+00	+1.777126e+02
+1.354181e+08	+7.914076e+00	+1.689150e+02
+1.420067e+08	+7.539296e+00	+1.521994e+02
+1.485953e+08	+7.351906e+00	+1.361877e+02
+1.551839e+08	+7.414370e+00	+1.203519e+02
+1.617726e+08	+7.726686e+00	+1.041642e+02
+1.683612e+08	+8.226393e+00	+8.674487e+01
+1.749498e+08	+8.913490e+00	+6.774194e+01
+1.815385e+08	+9.538123e+00	+4.768328e+01
+1.881271e+08	+1.022522e+01	+2.568915e+01
+1.947157e+08	+1.078739e+01	-1.759531e+00
+2.013043e+08	+1.084985e+01	-5.630499e+00
+2.078930e+08	+1.047507e+01	-3.043988e+01
+2.144816e+08	+9.787977e+00	-5.260997e+01
+2.210702e+08	+9.038416e+00	-7.249267e+01
+2.276589e+08	+8.288856e+00	-8.991202e+01
+2.342475e+08	+7.726686e+00	-1.060997e+02
+2.408361e+08	+7.351906e+00	-1.212317e+02
+2.474247e+08	+7.164516e+00	-1.363636e+02
+2.540134e+08	+6.532610e+00	-1.513196e+02
+2.606020e+08	+6.598944e+00	+1.648680e+02
+2.671906e+08	+6.996950e+00	+1.768328e+02
+2.737793e+08	+7.660293e+00	+1.740176e+02
+2.803679e+08	+8.522639e+00	+1.569501e+02
+2.869565e+08	+9.583988e+00	+1.365396e+02
+2.935452e+08	+1.051267e+01	+1.126100e+02
+3.001338e+08	+1.110968e+01	+8.533724e+01
+3.067224e+08	+1.104334e+01	+5.612903e+01
+3.133110e+08	+1.038000e+01	+2.815249e+01
+3.198997e+08	+9.119648e+00	-3.519062e+00
+3.264883e+08	+7.925630e+00	+0.000000e+00
+3.330769e+08	+6.864282e+00	-1.741935e+01
+3.396656e+08	+6.134604e+00	-3.360704e+01
+3.462542e+08	+5.603930e+00	-4.873900e+01
+3.528428e+08	+5.404927e+00	-6.316716e+01
+3.594314e+08	+5.404927e+00	-7.741935e+01
+3.660201e+08	+5.603930e+00	-9.149560e+01
+3.726087e+08	+6.068270e+00	-1.060997e+02
+3.791973e+08	+6.665279e+00	-1.212317e+02
+3.857860e+08	+7.527625e+00	-1.372434e+02
+3.923746e+08	+8.522639e+00	+1.550147e+02
+3.989632e+08	+9.716657e+00	+1.752493e+02
+4.055518e+08	+1.064534e+01	+1.685630e+02
+4.121405e+08	+1.097701e+01	+1.411144e+02
+4.187291e+08	+1.051267e+01	+1.136657e+02
+4.253177e+08	+9.517654e+00	+8.903226e+01
+4.319064e+08	+8.323636e+00	+6.774194e+01
+4.384950e+08	+7.129619e+00	+4.944282e+01
+4.450836e+08	+6.267273e+00	+3.307918e+01
+4.516722e+08	+5.603930e+00	+1.759531e+01
+4.582609e+08	+5.139589e+00	-2.287390e+00
+4.648495e+08	+5.006921e+00	+0.000000e+00
+4.714381e+08	+5.073255e+00	-9.149560e+00
+4.780268e+08	+5.404927e+00	-2.463343e+01
+4.846154e+08	+5.935601e+00	-4.099707e+01
+4.912040e+08	+6.797947e+00	-5.859238e+01
+4.977926e+08	+7.792962e+00	-7.847507e+01
+5.043813e+08	+9.379062e+00	-1.011730e+02
+5.109699e+08	+1.014129e+01	-1.270381e+02
+5.175585e+08	+1.039537e+01	+1.548387e+02
+5.241472e+08	+9.887214e+00	+1.775367e+02
+5.307358e+08	+9.061466e+00	+1.632845e+02
+5.373244e+08	+8.108680e+00	+1.425220e+02
+5.439130e+08	+7.155894e+00	+1.242229e+02
+5.505017e+08	+6.330147e+00	+1.078592e+02
+5.570903e+08	+5.567918e+00	+9.343109e+01
+5.636789e+08	+4.996246e+00	+8.076246e+01
+5.702676e+08	+4.869208e+00	+6.897361e+01
+5.768562e+08	+4.996246e+00	+5.648094e+01
+5.834448e+08	+5.250323e+00	+4.310850e+01
+5.900334e+08	+5.694956e+00	+2.903226e+01
+5.966221e+08	+6.266628e+00	-1.354839e+01
+6.032107e+08	+7.028856e+00	+0.000000e+00
+6.097993e+08	+7.854604e+00	-5.102639e+00
+6.163880e+08	+8.489795e+00	-2.815249e+01
+6.229766e+08	+8.934428e+00	-5.348974e+01
+6.295652e+08	+8.870909e+00	-8.005865e+01
+6.361538e+08	+8.362757e+00	-1.059238e+02
+6.427425e+08	+7.600528e+00	-1.296774e+02
+6.493311e+08	+6.774780e+00	-1.509677e+02
+6.559197e+08	+6.076070e+00	+1.706745e+02
+6.625084e+08	+5.504399e+00	+1.771848e+02
+6.690970e+08	+5.123284e+00	+1.653959e+02
+6.756856e+08	+4.932727e+00	+1.493842e+02
+6.822742e+08	+4.996246e+00	+1.339003e+02
+6.888629e+08	+5.186804e+00	+1.184164e+02
+6.954515e+08	+5.567918e+00	+1.024047e+02
+7.020401e+08	+6.076070e+00	+8.586510e+01
+7.086288e+08	+6.711261e+00	+6.844575e+01
+7.152174e+08	+7.346452e+00	+4.979472e+01
+7.218060e+08	+7.918123e+00	+2.991202e+01
+7.283946e+08	+8.235718e+00	-8.093842e+00
+7.349833e+08	+8.299238e+00	+0.000000e+00
+7.415719e+08	+8.108680e+00	-1.636364e+01
+7.481605e+08	+7.727566e+00	-3.659824e+01
+7.547492e+08	+7.727566e+00	-3.659824e+01
+7.613378e+08	+6.901818e+00	-7.337243e+01
+7.679264e+08	+6.520704e+00	-9.096774e+01
+7.745151e+08	+6.266628e+00	-1.082111e+02
+7.811037e+08	+6.139589e+00	-1.254545e+02
+7.876923e+08	+6.076070e+00	-1.428739e+02
+7.942809e+08	+6.203109e+00	+1.613490e+02
+8.008696e+08	+6.812669e+00	+1.763050e+02
+8.074582e+08	+7.004809e+00	+1.701466e+02
+8.140468e+08	+7.196950e+00	+1.486804e+02
+8.206355e+08	+7.325044e+00	+1.268622e+02
+8.272241e+08	+7.389091e+00	+1.046921e+02
+8.338127e+08	+7.260997e+00	+8.269795e+01
+8.404013e+08	+7.132903e+00	+6.158358e+01
+8.469900e+08	+6.876716e+00	+4.187683e+01
+8.535786e+08	+6.684575e+00	+2.304985e+01
+8.601672e+08	+6.556481e+00	-4.926686e+00
+8.667559e+08	+6.492434e+00	+0.000000e+00
+8.733445e+08	+6.556481e+00	-8.269795e+00
+8.799331e+08	+6.748622e+00	-2.498534e+01
+8.865217e+08	+7.068856e+00	-4.117302e+01
+8.931104e+08	+7.453138e+00	-5.771261e+01
+8.996990e+08	+7.901466e+00	-7.513196e+01
+9.062876e+08	+8.413842e+00	-9.378299e+01
+9.128763e+08	+8.798123e+00	-1.138416e+02
+9.194649e+08	+9.054311e+00	-1.349560e+02
+9.260535e+08	+9.054311e+00	+1.576540e+02
+9.326421e+08	+8.798123e+00	+1.756012e+02
+9.392308e+08	+8.285748e+00	+1.692669e+02
+9.458194e+08	+7.645279e+00	+1.488563e+02
+9.524080e+08	+7.004809e+00	+1.296774e+02
+9.589967e+08	+6.492434e+00	+1.115543e+02
+9.655853e+08	+6.044106e+00	+9.413490e+01
+9.721739e+08	+5.787918e+00	+7.724340e+01
+9.787625e+08	+5.723871e+00	+6.035191e+01
+9.853512e+08	+5.851965e+00	+4.346041e+01
+9.919398e+08	+6.236246e+00	+2.551320e+01
+9.985284e+08	+6.748622e+00	-6.158358e+00
+1.005117e+09	+7.389091e+00	+0.000000e+00
+1.011706e+09	+8.093607e+00	-1.601173e+01
+1.018294e+09	+8.734076e+00	-4.046921e+01
+1.024883e+09	+9.054311e+00	-6.527859e+01
+1.031472e+09	+9.054311e+00	-9.043988e+01
+1.038060e+09	+8.670029e+00	-1.140176e+02
+1.044649e+09	+8.093607e+00	-1.354839e+02
+1.051237e+09	+7.389091e+00	-1.551906e+02
+1.057826e+09	+6.812669e+00	+1.715543e+02
+1.064415e+09	+6.300293e+00	+1.756012e+02
+1.071003e+09	+5.980059e+00	+1.680352e+02
+1.077592e+09	+5.787918e+00	+1.541349e+02
+1.084181e+09	+5.787918e+00	+1.397067e+02
+1.090769e+09	+5.980059e+00	+1.256305e+02
+1.097358e+09	+6.300293e+00	+1.112023e+02
+1.103946e+09	+7.160235e+00	+9.554252e+01
+1.110535e+09	+7.816540e+00	+7.812317e+01
+1.117124e+09	+8.538475e+00	+5.859238e+01
+1.123712e+09	+9.260411e+00	+3.642229e+01
+1.130301e+09	+9.654194e+00	-1.038123e+01
+1.136890e+09	+9.654194e+00	+0.000000e+00
+1.143478e+09	+9.129150e+00	-2.199413e+01
+1.150067e+09	+8.341584e+00	-4.662757e+01
+1.156656e+09	+7.357126e+00	-6.809384e+01
+1.163244e+09	+6.503930e+00	-8.727273e+01
+1.169833e+09	+5.847625e+00	-1.046921e+02
+1.176421e+09	+5.322581e+00	-1.210557e+02
+1.183010e+09	+5.060059e+00	-1.367155e+02
+1.189599e+09	+4.994428e+00	-1.523754e+02
+1.196187e+09	+5.191320e+00	+1.673314e+02
+1.202776e+09	+5.650733e+00	+1.750733e+02
+1.209365e+09	+6.241408e+00	+1.713783e+02
+1.215953e+09	+7.094604e+00	+1.567742e+02
+1.222542e+09	+8.079062e+00	+1.377713e+02
+1.229130e+09	+9.129150e+00	+1.171848e+02
+1.235719e+09	+9.129150e+00	+9.378299e+01
+1.242308e+09	+1.050739e+01	+6.774194e+01
+1.248896e+09	+1.044176e+01	+4.082111e+01
+1.255485e+09	+9.851085e+00	-1.425220e+01
+1.262074e+09	+8.932258e+00	+0.000000e+00
+1.268662e+09	+7.947801e+00	-8.093842e+00
+1.275251e+09	+7.094604e+00	-2.586510e+01
+1.281839e+09	+6.307038e+00	-4.310850e+01
+1.288428e+09	+5.781994e+00	-5.894428e+01
+1.295017e+09	+5.453842e+00	-7.390029e+01
+1.301605e+09	+5.322581e+00	-8.903226e+01
+1.308194e+09	+5.388211e+00	-1.041642e+02
+1.314783e+09	+5.650733e+00	-1.201760e+02
+1.321371e+09	+6.044516e+00	-1.370674e+02
+1.327960e+09	+6.503930e+00	+1.558944e+02
+1.334548e+09	+7.028974e+00	+1.720821e+02
+1.341137e+09	+7.554018e+00	+1.719062e+02
+1.347726e+09	+7.947801e+00	+1.520235e+02
+1.354314e+09	+8.079062e+00	+1.270381e+02
+1.360903e+09	+7.882170e+00	+1.031085e+02
+1.367492e+09	+7.422757e+00	+8.023460e+01
+1.374080e+09	+6.832082e+00	+5.894428e+01
+1.380669e+09	+6.307038e+00	+3.888563e+01
+1.387258e+09	+5.781994e+00	+1.953079e+01
+1.393846e+09	+5.453842e+00	-4.222874e+00
+1.400435e+09	+7.537595e+00	-7.038123e-01
+1.407023e+09	+5.680235e+00	-1.002933e+01
+1.413612e+09	+5.812903e+00	-2.604106e+01
+1.420201e+09	+6.078240e+00	-4.346041e+01
+1.426789e+09	+6.409912e+00	-6.087977e+01
+1.433378e+09	+6.940587e+00	-7.882698e+01
+1.439967e+09	+7.471261e+00	-9.800587e+01
+1.446555e+09	+7.935601e+00	-1.185924e+02
+1.453144e+09	+8.200938e+00	-1.407625e+02
+1.459732e+09	+8.333607e+00	+1.631085e+02
+1.466321e+09	+8.267273e+00	+1.736657e+02
+1.472910e+09	+7.935601e+00	+1.645161e+02
+1.479498e+09	+7.537595e+00	+1.444575e+02
+1.486087e+09	+7.073255e+00	+1.247507e+02
+1.492676e+09	+6.608915e+00	+1.069795e+02
+1.499264e+09	+6.277243e+00	+9.026393e+01
+1.505853e+09	+6.011906e+00	+7.407625e+01
+1.512441e+09	+5.812903e+00	+5.824047e+01
+1.519030e+09	+5.746569e+00	+4.187683e+01
+1.525619e+09	+5.746569e+00	+2.480938e+01
+1.532207e+09	+5.812903e+00	-8.973607e+00
+1.538796e+09	+6.011906e+00	-1.407625e+00
+1.545385e+09	+6.144575e+00	-7.565982e+00
+1.551973e+09	+6.343578e+00	-2.551320e+01
+1.558562e+09	+6.476246e+00	-4.680352e+01
+1.565151e+09	+6.542581e+00	-6.826979e+01
+1.571739e+09	+6.608915e+00	-8.991202e+01
+1.578328e+09	+6.608915e+00	-1.119062e+02
+1.584916e+09	+6.608915e+00	-1.344282e+02
+1.591505e+09	+6.608915e+00	+1.569501e+02
+1.598094e+09	+6.675249e+00	+1.715543e+02
+1.604682e+09	+6.741584e+00	+1.697947e+02
+1.611271e+09	+6.940587e+00	+1.530792e+02
+1.617860e+09	+7.073255e+00	+1.317889e+02
+1.624448e+09	+7.205924e+00	+1.113783e+02
+1.631037e+09	+7.338592e+00	+9.184751e+01
+1.637625e+09	+7.338592e+00	+7.266862e+01
+1.644214e+09	+7.338592e+00	+5.384164e+01
+1.650803e+09	+7.205924e+00	+3.501466e+01
+1.657391e+09	+7.073255e+00	+1.741935e+01
+1.663980e+09	+6.807918e+00	-5.278592e+00
+1.670569e+09	+6.608915e+00	-2.463343e+00
+1.677157e+09	+6.409912e+00	-8.973607e+00
+1.683746e+09	+6.277243e+00	-2.164223e+01
+1.690334e+09	+6.210909e+00	-3.642229e+01
+1.696923e+09	+6.210909e+00	-5.137830e+01
+1.703512e+09	+6.277243e+00	-6.615836e+01
+1.710100e+09	+6.476246e+00	-8.181818e+01
+1.716689e+09	+6.807918e+00	-9.835777e+01
+1.723278e+09	+7.272258e+00	-1.173607e+02
+1.729866e+09	+7.736598e+00	-1.398827e+02
+1.736455e+09	+8.200938e+00	+1.636364e+02
+1.743043e+09	+8.466276e+00	+1.713783e+02
+1.749632e+09	+8.333607e+00	+1.500880e+02
+1.756221e+09	+7.869267e+00	+1.192962e+02
+1.762809e+09	+7.205924e+00	+9.184751e+01
+1.769398e+09	+6.542581e+00	+6.774194e+01
+1.775987e+09	+6.078240e+00	+4.574780e+01
+1.782575e+09	+5.812903e+00	+2.621701e+01
+1.789164e+09	+5.746569e+00	+1.108504e+01
+1.795753e+09	+5.879238e+00	-3.695015e+00
+1.802341e+09	+6.210909e+00	-4.046921e+00
+1.808930e+09	+6.675249e+00	-1.108504e+01
+1.815518e+09	+7.205924e+00	-2.199413e+01
+1.822107e+09	+7.935601e+00	-3.519062e+01
+1.828696e+09	+8.731613e+00	-4.944282e+01
+1.835284e+09	+9.660293e+00	-6.475073e+01
+1.841873e+09	+1.052264e+01	-8.146628e+01
+1.848462e+09	+1.125232e+01	-1.002933e+02
+1.855050e+09	+1.165032e+01	-1.219355e+02
+1.861639e+09	+1.158399e+01	-1.460411e+02
+1.868227e+09	+1.098698e+01	+1.657478e+02
+1.874816e+09	+9.991965e+00	+1.710264e+02
+1.881405e+09	+8.864282e+00	+1.615249e+02
+1.887993e+09	+7.603930e+00	+1.446334e+02
+1.894582e+09	+6.476246e+00	+1.261584e+02
+1.901171e+09	+5.547566e+00	+1.078592e+02
+1.907759e+09	+4.751554e+00	+8.938416e+01
+1.914348e+09	+4.287214e+00	+6.985337e+01
+1.920936e+09	+4.220880e+00	+4.856305e+01
+1.927525e+09	+4.618886e+00	+2.639296e+01
+1.934114e+09	+4.618886e+00	-2.621701e+01
+1.940702e+09	+6.807918e+00	-4.574780e+00
+1.947291e+09	+8.333607e+00	-1.777126e+01
+1.953880e+09	+1.005830e+01	-4.187683e+01
+1.960468e+09	+1.158399e+01	-6.914956e+01
+1.967057e+09	+1.251267e+01	-9.695015e+01
+1.973645e+09	+1.277801e+01	-1.243988e+02
+1.980234e+09	+1.244633e+01	-1.492082e+02
+1.986823e+09	+1.184933e+01	-1.655718e+02
+1.993411e+09	+1.125232e+01	-1.706745e+02
+2.000000e+09	+1.065531e+01	-1.666276e+02
