# Hz S DB R 50.000000
+3.000000e+07	+8.726100e+00	-9.149560e+00
+3.658863e+07	+8.913490e+00	-1.337243e+01
+4.317726e+07	+9.100880e+00	-1.794721e+01
+4.976589e+07	+9.350733e+00	-2.269795e+01
+5.635452e+07	+9.600587e+00	-2.762463e+01
+6.294314e+07	+9.850440e+00	-3.307918e+01
+6.953177e+07	+1.016276e+01	-3.888563e+01
+7.612040e+07	+1.047507e+01	-4.504399e+01
+8.270903e+07	+1.060000e+01	-5.155425e+01
+8.929766e+07	+1.091232e+01	-5.859238e+01
+9.588629e+07	+1.103724e+01	-6.580645e+01
+1.024749e+08	+1.116217e+01	-7.319648e+01
+1.090635e+08	+1.122463e+01	-8.093842e+01
+1.156522e+08	+1.116217e+01	-8.885630e+01
+1.222408e+08	+1.103724e+01	-9.659824e+01
+1.288294e+08	+1.078739e+01	-1.039883e+02
+1.354181e+08	+1.053754e+01	-1.108504e+02
+1.420067e+08	+1.028768e+01	-1.173607e+02
+1.485953e+08	+9.975367e+00	-1.235191e+02
+1.551839e+08	+9.663050e+00	-1.291496e+02
+1.617726e+08	+9.350733e+00	-1.346041e+02
+1.683612e+08	+9.100880e+00	-1.397067e+02
+1.749498e+08	+8.788563e+00	-1.446334e+02
+1.815385e+08	+8.538710e+00	-1.490323e+02
+1.881271e+08	+8.288856e+00	-1.532551e+02
+1.947157e+08	+8.101466e+00	-1.574780e+02
+2.013043e+08	+7.976540e+00	-1.613490e+02
+2.078930e+08	+7.789150e+00	-1.650440e+02
+2.144816e+08	+7.726686e+00	-1.685630e+02
+2.210702e+08	+7.726686e+00	-1.720821e+02
+2.276589e+08	+7.726686e+00	-1.750733e+02
+2.342475e+08	+7.664223e+00	+1.771848e+02
+2.408361e+08	+7.726686e+00	+1.777126e+02
+2.474247e+08	+7.851613e+00	+1.778886e+02
+2.540134e+08	+7.726628e+00	+1.771848e+02
+2.606020e+08	+7.991965e+00	+1.752493e+02
+2.671906e+08	+8.257302e+00	+1.717302e+02
+2.737793e+08	+8.655308e+00	+1.676833e+02
+2.803679e+08	+8.986979e+00	+1.629326e+02
+2.869565e+08	+9.451320e+00	+1.580059e+02
+2.935452e+08	+9.782991e+00	+1.521994e+02
+3.001338e+08	+1.031367e+01	+1.460411e+02
+3.067224e+08	+1.077801e+01	+1.393548e+02
+3.133110e+08	+1.124235e+01	+1.321408e+02
+3.198997e+08	+1.170669e+01	+1.240469e+02
+3.264883e+08	+1.197202e+01	+1.150733e+02
+3.330769e+08	+1.223736e+01	+1.055718e+02
+3.396656e+08	+1.230370e+01	+9.571848e+01
+3.462542e+08	+1.223736e+01	+8.586510e+01
+3.528428e+08	+1.197202e+01	+7.618768e+01
+3.594314e+08	+1.157402e+01	+6.703812e+01
+3.660201e+08	+1.110968e+01	+5.841642e+01
+3.726087e+08	+1.057900e+01	+5.067449e+01
+3.791973e+08	+9.981994e+00	+4.381232e+01
+3.857860e+08	+9.384985e+00	+3.782991e+01
+3.923746e+08	+8.854311e+00	+3.255132e+01
+3.989632e+08	+8.389971e+00	+2.744868e+01
+4.055518e+08	+7.925630e+00	+2.269795e+01
+4.121405e+08	+7.527625e+00	+1.829912e+01
+4.187291e+08	+7.129619e+00	+1.425220e+01
+4.253177e+08	+6.797947e+00	+1.038123e+01
+4.319064e+08	+6.466276e+00	+6.510264e+00
+4.384950e+08	+6.200938e+00	+2.991202e+00
+4.450836e+08	+6.001935e+00	+0.000000e+00
+4.516722e+08	+5.802933e+00	+0.000000e+00
+4.582609e+08	+5.802933e+00	+0.000000e+00
+4.648495e+08	+5.736598e+00	+0.000000e+00
+4.714381e+08	+5.670264e+00	+0.000000e+00
+4.780268e+08	+5.736598e+00	+0.000000e+00
+4.846154e+08	+5.736598e+00	-1.231672e+00
+4.912040e+08	+5.869267e+00	-4.398827e+00
+4.977926e+08	+6.001935e+00	-7.917889e+00
+5.043813e+08	+6.901818e+00	-1.126100e+01
+5.109699e+08	+7.219413e+00	-1.478006e+01
+5.175585e+08	+7.537009e+00	-1.865103e+01
+5.241472e+08	+7.981642e+00	-2.340176e+01
+5.307358e+08	+8.426276e+00	-2.885630e+01
+5.373244e+08	+8.870909e+00	-3.501466e+01
+5.439130e+08	+9.252023e+00	-4.205279e+01
+5.505017e+08	+9.506100e+00	-4.944282e+01
+5.570903e+08	+9.633138e+00	-5.700880e+01
+5.636789e+08	+9.760176e+00	-6.387097e+01
+5.702676e+08	+9.950733e+00	-7.090909e+01
+5.768562e+08	+1.007777e+01	-7.847507e+01
+5.834448e+08	+1.007777e+01	-8.656891e+01
+5.900334e+08	+1.014129e+01	-9.448680e+01
+5.966221e+08	+1.007777e+01	-1.025806e+02
+6.032107e+08	+9.950733e+00	-1.108504e+02
+6.097993e+08	+9.696657e+00	-1.185924e+02
+6.163880e+08	+9.379062e+00	-1.258065e+02
+6.229766e+08	+9.061466e+00	-1.324927e+02
+6.295652e+08	+8.680352e+00	-1.390029e+02
+6.361538e+08	+8.299238e+00	-1.448094e+02
+6.427425e+08	+7.981642e+00	-1.502639e+02
+6.493311e+08	+7.664047e+00	-1.555425e+02
+6.559197e+08	+7.346452e+00	-1.602933e+02
+6.625084e+08	+7.092375e+00	-1.650440e+02
+6.690970e+08	+6.774780e+00	-1.694428e+02
+6.756856e+08	+6.584223e+00	-1.731378e+02
+6.822742e+08	+6.457185e+00	-1.756012e+02
+6.888629e+08	+6.330147e+00	+1.768328e+02
+6.954515e+08	+6.266628e+00	+1.770088e+02
+7.020401e+08	+6.203109e+00	+1.770088e+02
+7.086288e+08	+6.203109e+00	+1.756012e+02
+7.152174e+08	+6.266628e+00	+1.731378e+02
+7.218060e+08	+6.330147e+00	+1.696188e+02
+7.283946e+08	+6.393666e+00	+1.653959e+02
+7.349833e+08	+6.520704e+00	+1.606452e+02
+7.415719e+08	+6.647742e+00	+1.560704e+02
+7.481605e+08	+6.774780e+00	+1.511437e+02
+7.547492e+08	+6.901818e+00	+1.463930e+02
+7.613378e+08	+7.028856e+00	+1.416422e+02
+7.679264e+08	+7.219413e+00	+1.365396e+02
+7.745151e+08	+7.409971e+00	+1.310850e+02
+7.811037e+08	+7.537009e+00	+1.252786e+02
+7.876923e+08	+7.664047e+00	+1.192962e+02
+7.942809e+08	+7.854604e+00	+1.131378e+02
+8.008696e+08	+8.413842e+00	+1.068035e+02
+8.074582e+08	+8.477889e+00	+1.001173e+02
+8.140468e+08	+8.541935e+00	+9.360704e+01
+8.206355e+08	+8.477889e+00	+8.709677e+01
+8.272241e+08	+8.413842e+00	+8.058651e+01
+8.338127e+08	+8.349795e+00	+7.425220e+01
+8.404013e+08	+8.221701e+00	+6.809384e+01
+8.469900e+08	+8.093607e+00	+6.228739e+01
+8.535786e+08	+7.901466e+00	+5.648094e+01
+8.601672e+08	+7.773372e+00	+5.102639e+01
+8.667559e+08	+7.581232e+00	+4.574780e+01
+8.733445e+08	+7.453138e+00	+4.082111e+01
+8.799331e+08	+7.325044e+00	+3.607038e+01
+8.865217e+08	+7.196950e+00	+3.149560e+01
+8.931104e+08	+7.068856e+00	+2.692082e+01
+8.996990e+08	+7.004809e+00	+2.269795e+01
+9.062876e+08	+6.940762e+00	+1.829912e+01
+9.128763e+08	+6.940762e+00	+1.407625e+01
+9.194649e+08	+6.940762e+00	+9.853372e+00
+9.260535e+08	+7.004809e+00	+5.982405e+00
+9.326421e+08	+7.132903e+00	+2.463343e+00
+9.392308e+08	+7.260997e+00	+0.000000e+00
+9.458194e+08	+7.453138e+00	+0.000000e+00
+9.524080e+08	+7.645279e+00	+0.000000e+00
+9.589967e+08	+7.837419e+00	+0.000000e+00
+9.655853e+08	+8.093607e+00	-1.055718e+00
+9.721739e+08	+8.349795e+00	-5.102639e+00
+9.787625e+08	+8.670029e+00	-1.020528e+01
+9.853512e+08	+8.990264e+00	-1.618768e+01
+9.919398e+08	+9.310499e+00	-2.252199e+01
+9.985284e+08	+9.630733e+00	-2.938416e+01
+1.005117e+09	+9.886921e+00	-3.659824e+01
+1.011706e+09	+1.014311e+01	-4.398827e+01
+1.018294e+09	+1.027120e+01	-5.190616e+01
+1.024883e+09	+1.039930e+01	-5.982405e+01
+1.031472e+09	+1.046334e+01	-6.826979e+01
+1.038060e+09	+1.039930e+01	-7.671554e+01
+1.044649e+09	+1.020716e+01	-8.498534e+01
+1.051237e+09	+1.001501e+01	-9.272727e+01
+1.057826e+09	+9.694780e+00	-1.004692e+02
+1.064415e+09	+9.310499e+00	-1.075073e+02
+1.071003e+09	+8.990264e+00	-1.140176e+02
+1.077592e+09	+8.541935e+00	-1.200000e+02
+1.084181e+09	+8.157654e+00	-1.256305e+02
+1.090769e+09	+7.773372e+00	-1.307331e+02
+1.097358e+09	+7.389091e+00	-1.353079e+02
+1.103946e+09	+7.488387e+00	-1.398827e+02
+1.110535e+09	+7.160235e+00	-1.441056e+02
+1.117124e+09	+6.897713e+00	-1.479765e+02
+1.123712e+09	+6.700821e+00	-1.518475e+02
+1.130301e+09	+6.503930e+00	-1.555425e+02
+1.136890e+09	+6.372669e+00	-1.592375e+02
+1.143478e+09	+6.241408e+00	-1.625806e+02
+1.150067e+09	+6.175777e+00	-1.659238e+02
+1.156656e+09	+6.175777e+00	-1.687390e+02
+1.163244e+09	+6.175777e+00	-1.710264e+02
+1.169833e+09	+6.175777e+00	-1.729619e+02
+1.176421e+09	+6.175777e+00	-1.743695e+02
+1.183010e+09	+6.372669e+00	+1.750733e+02
+1.189599e+09	+6.503930e+00	+1.754252e+02
+1.196187e+09	+6.766452e+00	+1.750733e+02
+1.202776e+09	+6.963343e+00	+1.738416e+02
+1.209365e+09	+7.160235e+00	+1.722581e+02
+1.215953e+09	+7.488387e+00	+1.694428e+02
+1.222542e+09	+7.816540e+00	+1.659238e+02
+1.229130e+09	+8.210323e+00	+1.615249e+02
+1.235719e+09	+8.604106e+00	+1.560704e+02
+1.242308e+09	+8.997889e+00	+1.507918e+02
+1.248896e+09	+9.391672e+00	+1.446334e+02
+1.255485e+09	+9.785455e+00	+1.379472e+02
+1.262074e+09	+1.011361e+01	+1.307331e+02
+1.268662e+09	+1.044176e+01	+1.233431e+02
+1.275251e+09	+1.070428e+01	+1.152493e+02
+1.281839e+09	+1.083554e+01	+1.069795e+02
+1.288428e+09	+1.090117e+01	+9.835777e+01
+1.295017e+09	+1.090117e+01	+8.973607e+01
+1.301605e+09	+1.076991e+01	+8.111437e+01
+1.308194e+09	+1.050739e+01	+7.284457e+01
+1.314783e+09	+1.024487e+01	+6.510264e+01
+1.321371e+09	+9.851085e+00	+5.771261e+01
+1.327960e+09	+9.457302e+00	+5.085044e+01
+1.334548e+09	+9.063519e+00	+4.451613e+01
+1.341137e+09	+8.669736e+00	+3.853372e+01
+1.347726e+09	+8.341584e+00	+3.290323e+01
+1.354314e+09	+7.947801e+00	+2.762463e+01
+1.360903e+09	+7.685279e+00	+2.252199e+01
+1.367492e+09	+7.357126e+00	+1.794721e+01
+1.374080e+09	+7.094604e+00	+1.372434e+01
+1.380669e+09	+6.832082e+00	+9.853372e+00
+1.387258e+09	+6.635191e+00	+6.862170e+00
+1.393846e+09	+6.503930e+00	+4.222874e+00
+1.400435e+09	+6.874252e+00	+2.287390e+00
+1.407023e+09	+6.741584e+00	-1.055718e+00
+1.413612e+09	+6.675249e+00	-5.278592e-01
+1.420201e+09	+6.608915e+00	-7.038123e-01
+1.426789e+09	+6.542581e+00	-1.407625e+00
+1.433378e+09	+6.608915e+00	-2.639296e+00
+1.439967e+09	+6.608915e+00	-4.574780e+00
+1.446555e+09	+6.675249e+00	-7.214076e+00
+1.453144e+09	+6.807918e+00	-1.038123e+01
+1.459732e+09	+6.874252e+00	-1.390029e+01
+1.466321e+09	+7.006921e+00	-1.794721e+01
+1.472910e+09	+7.139589e+00	-2.234604e+01
+1.479498e+09	+7.272258e+00	-2.692082e+01
+1.486087e+09	+7.471261e+00	-3.167155e+01
+1.492676e+09	+7.670264e+00	-3.677419e+01
+1.499264e+09	+7.802933e+00	-4.205279e+01
+1.505853e+09	+8.001935e+00	-4.750733e+01
+1.512441e+09	+8.200938e+00	-5.313783e+01
+1.519030e+09	+8.333607e+00	-5.912023e+01
+1.525619e+09	+8.466276e+00	-6.510264e+01
+1.532207e+09	+8.532610e+00	-7.126100e+01
+1.538796e+09	+8.532610e+00	-7.741935e+01
+1.545385e+09	+8.532610e+00	-8.357771e+01
+1.551973e+09	+8.532610e+00	-8.956012e+01
+1.558562e+09	+8.466276e+00	-9.554252e+01
+1.565151e+09	+8.466276e+00	-1.013490e+02
+1.571739e+09	+8.333607e+00	-1.071554e+02
+1.578328e+09	+8.267273e+00	-1.126100e+02
+1.584916e+09	+8.200938e+00	-1.182405e+02
+1.591505e+09	+8.068270e+00	-1.233431e+02
+1.598094e+09	+8.001935e+00	-1.287977e+02
+1.604682e+09	+8.001935e+00	-1.339003e+02
+1.611271e+09	+7.935601e+00	-1.386510e+02
+1.617860e+09	+7.935601e+00	-1.439296e+02
+1.624448e+09	+7.935601e+00	-1.488563e+02
+1.631037e+09	+8.001935e+00	-1.536070e+02
+1.637625e+09	+8.001935e+00	-1.581818e+02
+1.644214e+09	+8.134604e+00	-1.622287e+02
+1.650803e+09	+8.200938e+00	-1.659238e+02
+1.657391e+09	+8.399941e+00	-1.689150e+02
+1.663980e+09	+8.598944e+00	+1.712023e+02
+1.670569e+09	+8.797947e+00	+1.724340e+02
+1.677157e+09	+9.063284e+00	+1.724340e+02
+1.683746e+09	+9.262287e+00	+1.713783e+02
+1.690334e+09	+9.527625e+00	+1.682111e+02
+1.696923e+09	+9.726628e+00	+1.638123e+02
+1.703512e+09	+9.925630e+00	+1.576540e+02
+1.710100e+09	+1.012463e+01	+1.502639e+02
+1.716689e+09	+1.019097e+01	+1.421701e+02
+1.723278e+09	+1.025730e+01	+1.333724e+02
+1.729866e+09	+1.019097e+01	+1.247507e+02
+1.736455e+09	+1.005830e+01	+1.163050e+02
+1.743043e+09	+9.859296e+00	+1.080352e+02
+1.749632e+09	+9.593959e+00	+1.001173e+02
+1.756221e+09	+9.328622e+00	+9.272727e+01
+1.762809e+09	+8.996950e+00	+8.568915e+01
+1.769398e+09	+8.665279e+00	+7.900293e+01
+1.775987e+09	+8.333607e+00	+7.284457e+01
+1.782575e+09	+8.001935e+00	+6.686217e+01
+1.789164e+09	+7.537595e+00	+6.140762e+01
+1.795753e+09	+7.338592e+00	+5.595308e+01
+1.802341e+09	+7.073255e+00	+5.102639e+01
+1.808930e+09	+6.807918e+00	+4.627566e+01
+1.815518e+09	+6.542581e+00	+4.170088e+01
+1.822107e+09	+6.409912e+00	+3.712610e+01
+1.828696e+09	+6.277243e+00	+3.343109e+01
+1.835284e+09	+6.210909e+00	+2.938416e+01
+1.841873e+09	+6.144575e+00	+2.568915e+01
+1.848462e+09	+6.144575e+00	+2.217009e+01
+1.855050e+09	+6.210909e+00	+1.882698e+01
+1.861639e+09	+6.277243e+00	+1.565982e+01
+1.868227e+09	+6.409912e+00	+1.266862e+01
+1.874816e+09	+6.608915e+00	+1.002933e+01
+1.881405e+09	+6.741584e+00	+7.741935e+00
+1.887993e+09	+7.006921e+00	+5.982405e+00
+1.894582e+09	+7.272258e+00	+4.750733e+00
+1.901171e+09	+7.603930e+00	-3.870968e+00
+1.907759e+09	+7.935601e+00	-3.695015e+00
+1.914348e+09	+8.399941e+00	-4.046921e+00
+1.920936e+09	+8.864282e+00	-5.278592e+00
+1.927525e+09	+9.328622e+00	-7.214076e+00
+1.934114e+09	+9.859296e+00	-1.020528e+01
+1.940702e+09	+1.045630e+01	-1.425220e+01
+1.947291e+09	+1.105331e+01	-1.953079e+01
+1.953880e+09	+1.158399e+01	-2.586510e+01
+1.960468e+09	+1.224733e+01	-3.325513e+01
+1.967057e+09	+1.284434e+01	-4.170088e+01
+1.973645e+09	+1.344135e+01	-5.120235e+01
+1.980234e+09	+1.390569e+01	-6.105572e+01
+1.986823e+09	+1.430370e+01	-7.196481e+01
+1.993411e+09	+1.456903e+01	-8.304985e+01
+2.000000e+09	+1.470170e+01	-9.448680e+01
