# Hz S DB R 50.000000
+3.000000e+07	-1.931994e+01	-8.428152e+01
+3.658863e+07	-2.231818e+01	+1.141935e+02
+4.317726e+07	-2.612845e+01	+1.532551e+02
+4.976589e+07	-2.737771e+01	+1.349560e+02
+5.635452e+07	-2.381730e+01	+7.882698e+01
+6.294314e+07	-2.025689e+01	+4.416422e+01
+6.953177e+07	-1.769589e+01	-1.777126e+01
+7.612040e+07	-1.588446e+01	+0.000000e+00
+8.270903e+07	-1.463519e+01	-1.002933e+01
+8.929766e+07	-1.388563e+01	-3.219941e+01
+9.588629e+07	-1.338592e+01	-5.560117e+01
+1.024749e+08	-1.319853e+01	-7.900293e+01
+1.090635e+08	-1.338592e+01	-1.034604e+02
+1.156522e+08	-1.388563e+01	-1.303812e+02
+1.222408e+08	-1.438534e+01	+1.594135e+02
+1.288294e+08	-1.476012e+01	+1.750733e+02
+1.354181e+08	-1.482258e+01	+1.458651e+02
+1.420067e+08	-1.426041e+01	+1.134897e+02
+1.485953e+08	-1.338592e+01	+8.234604e+01
+1.551839e+08	-1.226158e+01	+5.260997e+01
+1.617726e+08	-1.113724e+01	+2.568915e+01
+1.683612e+08	-1.007537e+01	-3.519062e-01
+1.749498e+08	-9.200880e+00	-5.982405e+00
+1.815385e+08	-8.576246e+00	-2.938416e+01
+1.881271e+08	-8.326393e+00	-5.190616e+01
+1.947157e+08	-8.451320e+00	-7.425220e+01
+2.013043e+08	-8.638710e+00	-9.624633e+01
+2.078930e+08	-8.951026e+00	-1.180645e+02
+2.144816e+08	-9.513196e+00	-1.400587e+02
+2.210702e+08	-1.020029e+01	+1.625806e+02
+2.276589e+08	-1.107478e+01	+1.764809e+02
+2.342475e+08	-1.194927e+01	+1.565982e+02
+2.408361e+08	-1.294868e+01	+1.259824e+02
+2.474247e+08	-1.363578e+01	+9.149560e+01
+2.540134e+08	-1.555672e+01	+5.577713e+01
+2.606020e+08	-1.515871e+01	-2.041056e+01
+2.671906e+08	-1.442903e+01	+0.000000e+00
+2.737793e+08	-1.363302e+01	-2.428152e+01
+2.803679e+08	-1.296968e+01	-5.032258e+01
+2.869565e+08	-1.243900e+01	-7.354839e+01
+2.935452e+08	-1.224000e+01	-9.466276e+01
+3.001338e+08	-1.217367e+01	-1.152493e+02
+3.067224e+08	-1.237267e+01	-1.349560e+02
+3.133110e+08	-1.283701e+01	-1.543109e+02
+3.198997e+08	-1.363302e+01	+1.727859e+02
+3.264883e+08	-1.469437e+01	+1.752493e+02
+3.330769e+08	-1.641906e+01	+1.583578e+02
+3.396656e+08	-1.887343e+01	+1.393548e+02
+3.462542e+08	-2.252182e+01	+1.192962e+02
+3.528428e+08	-2.862457e+01	-9.536657e+01
+3.594314e+08	-3.486000e+01	-6.563050e+01
+3.660201e+08	-3.041560e+01	-8.832845e+01
+3.726087e+08	-2.437918e+01	-1.136657e+02
+3.791973e+08	-2.106246e+01	-1.342522e+02
+3.857860e+08	-1.880710e+01	-1.529032e+02
+3.923746e+08	-1.714874e+01	+1.715543e+02
+3.989632e+08	-1.641906e+01	+1.734897e+02
+4.055518e+08	-1.628639e+01	+1.558944e+02
+4.121405e+08	-1.648540e+01	+1.354839e+02
+4.187291e+08	-1.734774e+01	+1.136657e+02
+4.253177e+08	-1.734774e+01	+8.973607e+01
+4.319064e+08	-1.893977e+01	+6.000000e+01
+4.384950e+08	-2.132780e+01	-2.129032e+01
+4.450836e+08	-2.477718e+01	-2.217009e+01
+4.516722e+08	-2.776223e+01	-7.865103e+01
+4.582609e+08	-2.550686e+01	-1.175367e+02
+4.648495e+08	-2.165947e+01	-1.446334e+02
+4.714381e+08	-1.874076e+01	+1.671554e+02
+4.780268e+08	-1.655173e+01	+1.669795e+02
+4.846154e+08	-1.482704e+01	+1.761290e+02
+4.912040e+08	-1.376569e+01	+1.590616e+02
+4.977926e+08	-1.316868e+01	+1.381232e+02
+5.043813e+08	-1.151871e+01	+9.747801e+01
+5.109699e+08	-1.177279e+01	+7.706745e+01
+5.175585e+08	-1.234446e+01	+5.595308e+01
+5.241472e+08	-1.463114e+01	-3.307918e+01
+5.307358e+08	-1.653672e+01	-7.038123e+00
+5.373244e+08	-1.907748e+01	-9.677419e+00
+5.439130e+08	-2.155472e+01	-5.577713e+01
+5.505017e+08	-2.168176e+01	-1.103226e+02
+5.570903e+08	-1.958563e+01	+1.520235e+02
+5.636789e+08	-1.691783e+01	+1.731378e+02
+5.702676e+08	-1.456762e+01	+1.660997e+02
+5.768562e+08	-1.259853e+01	+1.430499e+02
+5.834448e+08	-1.120111e+01	+1.228152e+02
+5.900334e+08	-1.012129e+01	+1.038123e+02
+5.966221e+08	-9.359062e+00	+8.533724e+01
+6.032107e+08	-8.914428e+00	+6.721408e+01
+6.097993e+08	-8.533314e+00	+4.891496e+01
+6.163880e+08	-8.406276e+00	+3.008798e+01
+6.229766e+08	-8.469795e+00	-1.002933e+01
+6.295652e+08	-8.723871e+00	+0.000000e+00
+6.361538e+08	-9.359062e+00	-1.442815e+01
+6.427425e+08	-1.024833e+01	-3.800587e+01
+6.493311e+08	-1.145519e+01	-6.351906e+01
+6.559197e+08	-1.291613e+01	-9.184751e+01
+6.625084e+08	-1.425003e+01	-1.242229e+02
+6.690970e+08	-1.501226e+01	+1.595894e+02
+6.756856e+08	-1.482170e+01	+1.733138e+02
+6.822742e+08	-1.412299e+01	+1.449853e+02
+6.888629e+08	-1.317021e+01	+1.171848e+02
+6.954515e+08	-1.215390e+01	+9.219941e+01
+7.020401e+08	-1.126463e+01	+6.950147e+01
+7.086288e+08	-1.062944e+01	+4.856305e+01
+7.152174e+08	-1.018481e+01	+2.903226e+01
+7.218060e+08	-9.994252e+00	-9.325513e+00
+7.283946e+08	-1.018481e+01	+0.000000e+00
+7.349833e+08	-1.082000e+01	-7.741935e+00
+7.415719e+08	-1.183630e+01	-2.463343e+01
+7.481605e+08	-1.323372e+01	-3.958944e+01
+7.547492e+08	-1.520282e+01	+5.190616e+01
+7.613378e+08	-1.768006e+01	+6.087977e+01
+7.679264e+08	-2.072897e+01	+6.228739e+01
+7.745151e+08	-2.346029e+01	+4.838710e+01
+7.811037e+08	-2.314270e+01	-2.727273e+01
+7.876923e+08	-2.066545e+01	-1.917889e+01
+7.942809e+08	-1.844229e+01	-2.357771e+01
+8.008696e+08	-1.650041e+01	-3.431085e+01
+8.074582e+08	-1.553971e+01	-4.803519e+01
+8.140468e+08	-1.521947e+01	-6.369501e+01
+8.206355e+08	-1.541161e+01	-8.129032e+01
+8.272241e+08	-1.624422e+01	-1.009971e+02
+8.338127e+08	-1.758921e+01	-1.247507e+02
+8.404013e+08	-1.951062e+01	+1.544868e+02
+8.469900e+08	-2.143202e+01	+1.682111e+02
+8.535786e+08	-2.168821e+01	+1.210557e+02
+8.601672e+08	-1.887015e+01	+7.090909e+01
+8.667559e+08	-1.560375e+01	+3.712610e+01
+8.733445e+08	-1.297783e+01	-1.090909e+01
+8.799331e+08	-1.105642e+01	+0.000000e+00
+8.865217e+08	-9.519296e+00	-1.143695e+01
+8.931104e+08	-8.302405e+00	-3.149560e+01
+8.996990e+08	-7.341701e+00	-5.032258e+01
+9.062876e+08	-6.573138e+00	-6.914956e+01
+9.128763e+08	-5.996716e+00	-8.815249e+01
+9.194649e+08	-5.740528e+00	-1.075073e+02
+9.260535e+08	-5.612434e+00	-1.270381e+02
+9.326421e+08	-5.868622e+00	-1.472727e+02
+9.392308e+08	-6.316950e+00	+1.680352e+02
+9.458194e+08	-7.149560e+00	+1.754252e+02
+9.524080e+08	-8.238358e+00	+1.580059e+02
+9.589967e+08	-9.583343e+00	+1.326686e+02
+9.655853e+08	-1.105642e+01	+1.045161e+02
+9.721739e+08	-1.246545e+01	+7.214076e+01
+9.787625e+08	-1.336211e+01	-3.466276e+01
+9.853512e+08	-1.316997e+01	+0.000000e+00
+9.919398e+08	-1.201713e+01	-2.375367e+01
+9.985284e+08	-1.048000e+01	-5.612903e+01
+1.005117e+09	-9.070968e+00	-8.322581e+01
+1.011706e+09	-8.046217e+00	-1.073314e+02
+1.018294e+09	-7.341701e+00	-1.300293e+02
+1.024883e+09	-6.957419e+00	-1.518475e+02
+1.031472e+09	-6.765279e+00	+1.715543e+02
+1.038060e+09	-6.893372e+00	+1.741935e+02
+1.044649e+09	-7.277654e+00	+1.590616e+02
+1.051237e+09	-7.790029e+00	+1.397067e+02
+1.057826e+09	-8.558592e+00	+1.207038e+02
+1.064415e+09	-9.647390e+00	+1.013490e+02
+1.071003e+09	-1.112047e+01	+8.093842e+01
+1.077592e+09	-1.316997e+01	+5.841642e+01
+1.084181e+09	-1.592399e+01	-3.149560e+01
+1.090769e+09	-1.931848e+01	-9.149560e+00
+1.097358e+09	-2.348152e+01	-3.272727e+01
+1.103946e+09	-2.388299e+01	-1.078592e+02
+1.110535e+09	-2.014205e+01	+1.548387e+02
+1.117124e+09	-1.712305e+01	+1.722581e+02
+1.123712e+09	-1.508850e+01	+1.624047e+02
+1.130301e+09	-1.384152e+01	+1.426979e+02
+1.136890e+09	-1.325085e+01	+1.228152e+02
+1.143478e+09	-1.285707e+01	+1.031085e+02
+1.150067e+09	-1.298833e+01	+8.269795e+01
+1.156656e+09	-1.357900e+01	+6.193548e+01
+1.163244e+09	-1.357900e+01	+6.193548e+01
+1.169833e+09	-1.469472e+01	-2.058651e+01
+1.176421e+09	-1.928886e+01	-9.501466e+00
+1.183010e+09	-2.434240e+01	-2.762463e+01
+1.189599e+09	-2.801771e+01	-8.234604e+01
+1.196187e+09	-2.670510e+01	+1.472727e+02
+1.202776e+09	-2.079836e+01	+1.451613e+02
+1.209365e+09	-1.692616e+01	+1.212317e+02
+1.215953e+09	-1.430094e+01	+1.008211e+02
+1.222542e+09	-1.252891e+01	+8.041056e+01
+1.229130e+09	-1.134757e+01	+5.947214e+01
+1.235719e+09	-1.062563e+01	+3.695015e+01
+1.242308e+09	-1.023185e+01	-1.319648e+01
+1.248896e+09	-1.010059e+01	-5.278592e-01
+1.255485e+09	-1.023185e+01	-1.337243e+01
+1.262074e+09	-1.049437e+01	-3.818182e+01
+1.268662e+09	-1.095378e+01	-6.351906e+01
+1.275251e+09	-1.134757e+01	-9.079179e+01
+1.281839e+09	-1.161009e+01	-1.191202e+02
+1.288428e+09	-1.161009e+01	+1.486804e+02
+1.295017e+09	-1.147883e+01	+1.722581e+02
+1.301605e+09	-1.108504e+01	+1.615249e+02
+1.308194e+09	-1.036311e+01	+1.293255e+02
+1.314783e+09	-9.575543e+00	+9.976540e+01
+1.321371e+09	-8.919238e+00	+7.161290e+01
+1.327960e+09	-8.328563e+00	+4.434018e+01
+1.334548e+09	-7.737889e+00	-1.759531e+01
+1.341137e+09	-7.278475e+00	-1.055718e+00
+1.347726e+09	-6.884692e+00	-7.917889e+00
+1.354314e+09	-6.622170e+00	-2.920821e+01
+1.360903e+09	-6.425279e+00	-5.120235e+01
+1.367492e+09	-6.294018e+00	-7.249267e+01
+1.374080e+09	-6.228387e+00	-9.395894e+01
+1.380669e+09	-6.228387e+00	-1.157771e+02
+1.387258e+09	-6.294018e+00	-1.391789e+02
+1.393846e+09	-6.425279e+00	+1.625806e+02
+1.400435e+09	-6.392610e+00	+1.733138e+02
+1.407023e+09	-6.724282e+00	+1.602933e+02
+1.413612e+09	-7.254956e+00	+1.358358e+02
+1.420201e+09	-7.918299e+00	+1.113783e+02
+1.426789e+09	-8.714311e+00	+8.780059e+01
+1.433378e+09	-9.642991e+00	+6.369501e+01
+1.439967e+09	-1.063801e+01	+3.853372e+01
+1.446555e+09	-1.176569e+01	-1.196481e+01
+1.453144e+09	-1.289337e+01	-2.639296e+00
+1.459732e+09	-1.402106e+01	-2.621701e+01
+1.466321e+09	-1.488340e+01	-5.964809e+01
+1.472910e+09	-1.528141e+01	-9.343109e+01
+1.479498e+09	-1.528141e+01	-1.263343e+02
+1.486087e+09	-1.501607e+01	+1.564223e+02
+1.492676e+09	-1.475073e+01	+1.720821e+02
+1.499264e+09	-1.468440e+01	+1.634604e+02
+1.505853e+09	-1.481707e+01	+1.428739e+02
+1.512441e+09	-1.521507e+01	+1.231672e+02
+1.519030e+09	-1.601109e+01	+1.078592e+02
+1.525619e+09	-1.727144e+01	-9.659824e+01
+1.532207e+09	-1.873079e+01	-9.255132e+01
+1.538796e+09	-1.979214e+01	-9.906158e+01
+1.545385e+09	-1.892979e+01	+1.117302e+02
+1.551973e+09	-1.647543e+01	+1.175367e+02
+1.558562e+09	-1.388839e+01	+1.143695e+02
+1.565151e+09	-1.163302e+01	+1.057478e+02
+1.571739e+09	-9.841994e+00	+9.413490e+01
+1.578328e+09	-8.448974e+00	+8.058651e+01
+1.584916e+09	-7.387625e+00	+6.651026e+01
+1.591505e+09	-7.387625e+00	+5.120235e+01
+1.598094e+09	-6.591613e+00	+3.466276e+01
+1.604682e+09	-6.060938e+00	+1.794721e+01
+1.611271e+09	-5.795601e+00	-5.102639e+00
+1.617860e+09	-6.127273e+00	-2.463343e+00
+1.624448e+09	-6.127273e+00	-1.266862e+01
+1.631037e+09	-7.652962e+00	-3.167155e+01
+1.637625e+09	-9.045982e+00	-5.436950e+01
+1.644214e+09	-1.096968e+01	-8.023460e+01
+1.650803e+09	-1.335771e+01	-1.147214e+02
+1.657391e+09	-1.514874e+01	+1.636364e+02
+1.663980e+09	-1.382205e+01	+1.525513e+02
+1.670569e+09	-1.070434e+01	+1.124340e+02
+1.677157e+09	-7.918299e+00	+8.480938e+01
+1.683746e+09	-5.729267e+00	+6.193548e+01
+1.690334e+09	-4.137243e+00	+4.117302e+01
+1.696923e+09	-3.009560e+00	+2.199413e+01
+1.703512e+09	-2.213548e+00	-7.565982e+00
+1.710100e+09	-1.682874e+00	-2.463343e+00
+1.716689e+09	-1.417537e+00	-7.214076e+00
+1.723278e+09	-1.351202e+00	-1.917889e+01
+1.729866e+09	-1.351202e+00	-3.413490e+01
+1.736455e+09	-1.616540e+00	-4.961877e+01
+1.743043e+09	-2.080880e+00	-6.527859e+01
+1.749632e+09	-2.876891e+00	-8.093842e+01
+1.756221e+09	-4.203578e+00	-9.747801e+01
+1.762809e+09	-6.193607e+00	+1.150733e+02
+1.769398e+09	-9.443988e+00	+1.335484e+02
+1.775987e+09	-1.541408e+01	+1.514956e+02
+1.782575e+09	-3.133431e+01	+9.712610e+01
+1.789164e+09	-1.647543e+01	-7.390029e+00
+1.795753e+09	-1.043900e+01	-8.973607e+00
+1.802341e+09	-7.188622e+00	-1.812317e+01
+1.808930e+09	-5.065924e+00	-3.008798e+01
+1.815518e+09	-3.606569e+00	-4.310850e+01
+1.822107e+09	-2.545220e+00	-5.577713e+01
+1.828696e+09	-1.881877e+00	-6.826979e+01
+1.835284e+09	-1.483871e+00	-8.058651e+01
+1.841873e+09	-1.351202e+00	-9.237537e+01
+1.848462e+09	-1.550205e+00	-1.036364e+02
+1.855050e+09	-2.014545e+00	-1.140176e+02
+1.861639e+09	-2.744223e+00	-1.221114e+02
+1.868227e+09	-3.473900e+00	-1.277419e+02
+1.874816e+09	-4.203578e+00	+1.298534e+02
+1.881405e+09	-4.468915e+00	-1.293255e+02
+1.887993e+09	-4.203578e+00	-1.280938e+02
+1.894582e+09	-3.473900e+00	-1.286217e+02
+1.901171e+09	-2.677889e+00	-1.319648e+02
+1.907759e+09	-1.815543e+00	-1.382991e+02
+1.914348e+09	-1.152199e+00	-1.465689e+02
+1.920936e+09	-8.205279e-01	-1.557185e+02
+1.927525e+09	-7.541935e-01	-1.639883e+02
+1.934114e+09	-1.019531e+00	+1.692669e+02
+1.940702e+09	-6.923284e+00	+1.704985e+02
+1.947291e+09	-1.616540e+00	+1.692669e+02
+1.953880e+09	-2.545220e+00	-1.659238e+02
+1.960468e+09	-5.596598e+00	-1.639883e+02
+1.967057e+09	-7.520293e+00	+1.668035e+02
+1.973645e+09	-8.316305e+00	+1.703226e+02
+1.980234e+09	-6.591613e+00	-1.632845e+02
+1.986823e+09	+1.832845e+00	-1.583578e+02
+1.993411e+09	-1.085865e+00	-1.613490e+02
+2.000000e+09	+9.041642e-01	-1.669795e+02
