# Hz S DB R 50.000000
+3.000000e+07	-2.131877e+01	-6.510264e+00
+3.658863e+07	-2.100645e+01	-1.214076e+01
+4.317726e+07	-2.094399e+01	-1.953079e+01
+4.976589e+07	-2.100645e+01	-2.744868e+01
+5.635452e+07	-2.125630e+01	-3.554252e+01
+6.294314e+07	-2.163109e+01	-4.346041e+01
+6.953177e+07	-2.213079e+01	-5.120235e+01
+7.612040e+07	-2.281789e+01	-5.876833e+01
+8.270903e+07	-2.375484e+01	-6.580645e+01
+8.929766e+07	-2.481672e+01	-7.231672e+01
+9.588629e+07	-2.619091e+01	+7.724340e+01
+1.024749e+08	-2.762757e+01	+7.970674e+01
+1.090635e+08	-2.931408e+01	+7.865103e+01
+1.156522e+08	-3.056334e+01	+7.178886e+01
+1.222408e+08	-3.093812e+01	+5.912023e+01
+1.288294e+08	-3.081320e+01	+4.381232e+01
+1.354181e+08	-2.950147e+01	+3.202346e+01
+1.420067e+08	-2.787742e+01	-2.357771e+01
+1.485953e+08	-2.625337e+01	-2.058651e+01
+1.551839e+08	-2.481672e+01	-2.164223e+01
+1.617726e+08	-2.356745e+01	-2.621701e+01
+1.683612e+08	-2.250557e+01	-3.272727e+01
+1.749498e+08	-2.163109e+01	-3.976540e+01
+1.815385e+08	-2.094399e+01	-4.803519e+01
+1.881271e+08	-2.044428e+01	-5.648094e+01
+1.947157e+08	-2.013196e+01	-6.510264e+01
+2.013043e+08	-1.994457e+01	-7.372434e+01
+2.078930e+08	-1.994457e+01	-8.252199e+01
+2.144816e+08	-2.000704e+01	-9.096774e+01
+2.210702e+08	-2.025689e+01	-9.923754e+01
+2.276589e+08	-2.056921e+01	-1.062757e+02
+2.342475e+08	-2.056921e+01	-1.124340e+02
+2.408361e+08	-2.075660e+01	-1.219355e+02
+2.474247e+08	-2.063167e+01	-1.349560e+02
+2.540134e+08	-2.345050e+01	+1.448094e+02
+2.606020e+08	-2.212381e+01	+1.360117e+02
+2.671906e+08	-2.809390e+01	+1.331965e+02
+2.737793e+08	-2.809390e+01	+1.307331e+02
+2.803679e+08	-2.835924e+01	+1.298534e+02
+2.869565e+08	-2.842557e+01	+1.272141e+02
+2.935452e+08	-2.842557e+01	+1.240469e+02
+3.001338e+08	-2.796123e+01	-1.201760e+02
+3.067224e+08	-2.709889e+01	-1.189443e+02
+3.133110e+08	-2.603754e+01	-1.207038e+02
+3.198997e+08	-2.517519e+01	-1.242229e+02
+3.264883e+08	-2.431284e+01	-1.277419e+02
+3.330769e+08	-2.338416e+01	-1.321408e+02
+3.396656e+08	-2.245548e+01	-1.386510e+02
+3.462542e+08	-2.172581e+01	-1.462170e+02
+3.528428e+08	-2.099613e+01	-1.546628e+02
+3.594314e+08	-2.059812e+01	-1.636364e+02
+3.660201e+08	-2.033279e+01	+1.712023e+02
+3.726087e+08	-2.026645e+01	+1.731378e+02
+3.791973e+08	-2.046545e+01	+1.706745e+02
+3.857860e+08	-2.092979e+01	+1.657478e+02
+3.923746e+08	-2.139413e+01	+1.588856e+02
+3.989632e+08	-2.165947e+01	+1.525513e+02
+4.055518e+08	-2.205748e+01	+1.441056e+02
+4.121405e+08	-2.278716e+01	+1.365396e+02
+4.187291e+08	-2.351683e+01	+1.296774e+02
+4.253177e+08	-2.464452e+01	+1.224633e+02
+4.319064e+08	-2.610387e+01	-1.159531e+02
+4.384950e+08	-2.822657e+01	-1.120821e+02
+4.450836e+08	-3.008393e+01	-1.166569e+02
+4.516722e+08	-3.121161e+01	-1.205279e+02
+4.582609e+08	-3.194129e+01	-1.310850e+02
+4.648495e+08	-3.121161e+01	-1.439296e+02
+4.714381e+08	-2.981859e+01	-1.521994e+02
+4.780268e+08	-2.882358e+01	-1.558944e+02
+4.846154e+08	-2.743056e+01	-1.599413e+02
+4.912040e+08	-2.583853e+01	+1.622287e+02
+4.977926e+08	-2.424651e+01	+1.629326e+02
+5.043813e+08	-2.079249e+01	+1.604692e+02
+5.109699e+08	-1.939507e+01	+1.550147e+02
+5.175585e+08	-1.825173e+01	+1.479765e+02
+5.241472e+08	-1.710839e+01	+1.395308e+02
+5.307358e+08	-1.602856e+01	+1.302053e+02
+5.373244e+08	-1.513930e+01	+1.191202e+02
+5.439130e+08	-1.444059e+01	+1.064516e+02
+5.505017e+08	-1.412299e+01	+9.237537e+01
+5.570903e+08	-1.437707e+01	+7.794721e+01
+5.636789e+08	-1.526633e+01	+6.580645e+01
+5.702676e+08	-1.621912e+01	+5.753666e+01
+5.768562e+08	-1.691783e+01	+5.120235e+01
+5.834448e+08	-1.755302e+01	+4.539589e+01
+5.900334e+08	-1.812469e+01	+3.994135e+01
+5.966221e+08	-1.869636e+01	+3.483871e+01
+6.032107e+08	-1.939507e+01	+2.991202e+01
+6.097993e+08	-1.983971e+01	+2.498534e+01
+6.163880e+08	-2.060194e+01	+2.023460e+01
+6.229766e+08	-2.155472e+01	-1.741935e+01
+6.295652e+08	-2.238047e+01	-1.618768e+01
+6.361538e+08	-2.326974e+01	-1.618768e+01
+6.427425e+08	-2.428604e+01	-1.865103e+01
+6.493311e+08	-2.492123e+01	-2.357771e+01
+6.559197e+08	-2.492123e+01	-3.008798e+01
+6.625084e+08	-2.428604e+01	-3.501466e+01
+6.690970e+08	-2.346029e+01	+3.730205e+01
+6.756856e+08	-2.238047e+01	+3.747801e+01
+6.822742e+08	-2.136416e+01	+3.536657e+01
+6.888629e+08	-2.041138e+01	+3.167155e+01
+6.954515e+08	-1.958563e+01	+2.692082e+01
+7.020401e+08	-1.895044e+01	+2.111437e+01
+7.086288e+08	-1.844229e+01	+1.495601e+01
+7.152174e+08	-1.806117e+01	+8.797654e+00
+7.218060e+08	-1.780710e+01	+3.695015e+00
+7.283946e+08	-1.761654e+01	-5.278592e-01
+7.349833e+08	-1.736246e+01	+0.000000e+00
+7.415719e+08	-1.710839e+01	-5.278592e-01
+7.481605e+08	-1.685431e+01	-4.574780e+00
+7.547492e+08	-1.672727e+01	-1.090909e+01
+7.613378e+08	-1.672727e+01	-1.882698e+01
+7.679264e+08	-1.698135e+01	-2.674487e+01
+7.745151e+08	-1.736246e+01	-3.413490e+01
+7.811037e+08	-1.787062e+01	-4.134897e+01
+7.876923e+08	-1.856933e+01	-4.750733e+01
+7.942809e+08	-1.939507e+01	-5.225806e+01
+8.008696e+08	-2.002299e+01	+5.630499e+01
+8.074582e+08	-2.091965e+01	+5.841642e+01
+8.140468e+08	-2.194440e+01	+5.859238e+01
+8.206355e+08	-2.284106e+01	+5.630499e+01
+8.272241e+08	-2.335343e+01	+5.155425e+01
+8.338127e+08	-2.335343e+01	+4.574780e+01
+8.404013e+08	-2.284106e+01	+4.082111e+01
+8.469900e+08	-2.194440e+01	-3.818182e+01
+8.535786e+08	-2.098370e+01	-3.782991e+01
+8.601672e+08	-1.995894e+01	-3.906158e+01
+8.667559e+08	-1.899824e+01	-4.240469e+01
+8.733445e+08	-1.803754e+01	-4.715543e+01
+8.799331e+08	-1.720493e+01	-5.313783e+01
+8.865217e+08	-1.656446e+01	-5.947214e+01
+8.931104e+08	-1.605208e+01	-6.651026e+01
+8.996990e+08	-1.553971e+01	-7.372434e+01
+9.062876e+08	-1.515543e+01	-8.111437e+01
+9.128763e+08	-1.483519e+01	-8.868035e+01
+9.194649e+08	-1.457900e+01	-9.677419e+01
+9.260535e+08	-1.445091e+01	-1.046921e+02
+9.326421e+08	-1.438686e+01	-1.126100e+02
+9.392308e+08	-1.438686e+01	-1.210557e+02
+9.458194e+08	-1.451496e+01	-1.291496e+02
+9.524080e+08	-1.470710e+01	-1.370674e+02
+9.589967e+08	-1.502733e+01	-1.449853e+02
+9.655853e+08	-1.541161e+01	-1.523754e+02
+9.721739e+08	-1.585994e+01	-1.590616e+02
+9.787625e+08	-1.643636e+01	-1.638123e+02
+9.853512e+08	-1.707683e+01	-1.671554e+02
+9.919398e+08	-1.765326e+01	+1.682111e+02
+9.985284e+08	-1.829372e+01	+1.689150e+02
+1.005117e+09	-1.887015e+01	+1.690909e+02
+1.011706e+09	-1.944657e+01	-1.664516e+02
+1.018294e+09	-1.983085e+01	-1.678592e+02
+1.024883e+09	-1.995894e+01	-1.675073e+02
+1.031472e+09	-1.983085e+01	-1.680352e+02
+1.038060e+09	-1.951062e+01	-1.683871e+02
+1.044649e+09	-1.893419e+01	+1.699707e+02
+1.051237e+09	-1.848587e+01	+1.703226e+02
+1.057826e+09	-1.803754e+01	+1.697947e+02
+1.064415e+09	-1.765326e+01	+1.682111e+02
+1.071003e+09	-1.733302e+01	+1.652199e+02
+1.077592e+09	-1.694874e+01	+1.604692e+02
+1.084181e+09	-1.675660e+01	+1.544868e+02
+1.090769e+09	-1.656446e+01	+1.470968e+02
+1.097358e+09	-1.650041e+01	+1.398827e+02
+1.103946e+09	-1.666364e+01	+1.323167e+02
+1.110535e+09	-1.666364e+01	+1.242229e+02
+1.117124e+09	-1.666364e+01	+1.157771e+02
+1.123712e+09	-1.679490e+01	+1.076833e+02
+1.130301e+09	-1.705742e+01	+9.958944e+01
+1.136890e+09	-1.738557e+01	+9.114370e+01
+1.143478e+09	-1.771372e+01	+8.252199e+01
+1.150067e+09	-1.817314e+01	+7.425220e+01
+1.156656e+09	-1.876381e+01	+6.633431e+01
+1.163244e+09	-1.942012e+01	+5.876833e+01
+1.169833e+09	-2.027331e+01	+5.190616e+01
+1.176421e+09	-2.112651e+01	+4.521994e+01
+1.183010e+09	-2.224223e+01	-4.170088e+01
+1.189599e+09	-2.329232e+01	-3.976540e+01
+1.196187e+09	-2.434240e+01	-4.064516e+01
+1.202776e+09	-2.532686e+01	-4.504399e+01
+1.209365e+09	-2.578628e+01	-5.260997e+01
+1.215953e+09	-2.585191e+01	-5.876833e+01
+1.222542e+09	-2.532686e+01	+6.158358e+01
+1.229130e+09	-2.460493e+01	+6.263930e+01
+1.235719e+09	-2.368610e+01	+6.070381e+01
+1.242308e+09	-2.276727e+01	+5.736070e+01
+1.248896e+09	-2.184845e+01	+5.243402e+01
+1.255485e+09	-2.099525e+01	+4.662757e+01
+1.262074e+09	-2.033894e+01	+3.994135e+01
+1.268662e+09	-1.981390e+01	+3.290323e+01
+1.275251e+09	-1.935449e+01	+2.586510e+01
+1.281839e+09	-1.909196e+01	+1.935484e+01
+1.288428e+09	-1.882944e+01	+1.425220e+01
+1.295017e+09	-1.876381e+01	-1.126100e+01
+1.301605e+09	-1.889507e+01	-1.002933e+01
+1.308194e+09	-1.902633e+01	-1.196481e+01
+1.314783e+09	-1.935449e+01	-1.653959e+01
+1.321371e+09	-1.968264e+01	-2.269795e+01
+1.327960e+09	-2.001079e+01	-2.991202e+01
+1.334548e+09	-2.020768e+01	-3.870968e+01
+1.341137e+09	-2.060147e+01	-4.926686e+01
+1.347726e+09	-2.092962e+01	-6.052786e+01
+1.354314e+09	-2.132340e+01	-7.126100e+01
+1.360903e+09	-2.171718e+01	-8.322581e+01
+1.367492e+09	-2.204534e+01	-9.677419e+01
+1.374080e+09	-2.237349e+01	-1.071554e+02
+1.380669e+09	-2.270164e+01	-1.191202e+02
+1.387258e+09	-2.270164e+01	-1.207038e+02
+1.393846e+09	-2.302979e+01	-1.404106e+02
+1.400435e+09	-2.363953e+01	-1.485044e+02
+1.407023e+09	-2.403754e+01	-1.539589e+02
+1.413612e+09	-2.450188e+01	+1.560704e+02
+1.420201e+09	-2.489988e+01	+1.571261e+02
+1.426789e+09	-2.523155e+01	+1.557185e+02
+1.433378e+09	-2.549689e+01	+1.529032e+02
+1.439967e+09	-2.569589e+01	+1.499120e+02
+1.446555e+09	-2.582856e+01	+1.462170e+02
+1.453144e+09	-2.589490e+01	+1.437537e+02
+1.459732e+09	-2.576223e+01	+1.416422e+02
+1.466321e+09	-2.543056e+01	+1.398827e+02
+1.472910e+09	-2.489988e+01	+1.384751e+02
+1.479498e+09	-2.423654e+01	+1.363636e+02
+1.486087e+09	-2.357320e+01	+1.333724e+02
+1.492676e+09	-2.277718e+01	+1.298534e+02
+1.499264e+09	-2.198117e+01	+1.256305e+02
+1.505853e+09	-2.111883e+01	+1.210557e+02
+1.512441e+09	-2.025648e+01	+1.161290e+02
+1.519030e+09	-1.939413e+01	+1.108504e+02
+1.525619e+09	-1.859812e+01	+1.048680e+02
+1.532207e+09	-1.786845e+01	+9.870968e+01
+1.538796e+09	-1.713877e+01	+9.237537e+01
+1.545385e+09	-1.654176e+01	+8.586510e+01
+1.551973e+09	-1.594475e+01	+7.935484e+01
+1.558562e+09	-1.548041e+01	+7.302053e+01
+1.565151e+09	-1.501607e+01	+6.686217e+01
+1.571739e+09	-1.455173e+01	+6.052786e+01
+1.578328e+09	-1.415372e+01	+5.436950e+01
+1.584916e+09	-1.382205e+01	+4.803519e+01
+1.591505e+09	-1.349038e+01	+4.187683e+01
+1.598094e+09	-1.322504e+01	+3.571848e+01
+1.604682e+09	-1.289337e+01	+2.956012e+01
+1.611271e+09	-1.276070e+01	+2.392962e+01
+1.617860e+09	-1.256170e+01	+1.847507e+01
+1.624448e+09	-1.242903e+01	+1.372434e+01
+1.631037e+09	-1.229636e+01	+9.853372e+00
+1.637625e+09	-1.216370e+01	+6.862170e+00
+1.644214e+09	-1.209736e+01	+4.574780e+00
+1.650803e+09	-1.203103e+01	+3.343109e+00
+1.657391e+09	-1.196469e+01	-2.639296e+00
+1.663980e+09	-1.183202e+01	-2.639296e+00
+1.670569e+09	-1.169935e+01	-3.167155e+00
+1.677157e+09	-1.156669e+01	-4.046921e+00
+1.683746e+09	-1.143402e+01	-5.102639e+00
+1.690334e+09	-1.123501e+01	-6.510264e+00
+1.696923e+09	-1.103601e+01	-1.055718e+01
+1.703512e+09	-1.070434e+01	-9.853372e+00
+1.710100e+09	-1.043900e+01	-1.178886e+01
+1.716689e+09	-1.010733e+01	-1.407625e+01
+1.723278e+09	-9.775660e+00	-1.671554e+01
+1.729866e+09	-9.377654e+00	-1.970674e+01
+1.736455e+09	-8.979648e+00	-2.304985e+01
+1.743043e+09	-8.581642e+00	-2.674487e+01
+1.749632e+09	-8.183636e+00	-3.079179e+01
+1.756221e+09	-7.785630e+00	-3.501466e+01
+1.762809e+09	-7.453959e+00	-3.958944e+01
+1.769398e+09	-7.055953e+00	-4.434018e+01
+1.775987e+09	-6.724282e+00	-4.909091e+01
+1.782575e+09	-6.392610e+00	-5.401760e+01
+1.789164e+09	-6.127273e+00	-5.912023e+01
+1.795753e+09	-5.861935e+00	-6.422287e+01
+1.802341e+09	-5.596598e+00	-6.932551e+01
+1.808930e+09	-5.397595e+00	-7.442815e+01
+1.815518e+09	-5.264927e+00	-7.935484e+01
+1.822107e+09	-5.065924e+00	-8.445748e+01
+1.828696e+09	-4.933255e+00	-8.920821e+01
+1.835284e+09	-4.800587e+00	-9.413490e+01
+1.841873e+09	-4.734252e+00	-9.888563e+01
+1.848462e+09	-4.601584e+00	-1.034604e+02
+1.855050e+09	-4.601584e+00	-1.080352e+02
+1.861639e+09	-4.468915e+00	-1.127859e+02
+1.868227e+09	-4.402581e+00	-1.168328e+02
+1.874816e+09	-4.336246e+00	-1.210557e+02
+1.881405e+09	-4.269912e+00	-1.252786e+02
+1.887993e+09	-4.137243e+00	-1.289736e+02
+1.894582e+09	-4.004575e+00	-1.326686e+02
+1.901171e+09	-3.805572e+00	-1.365396e+02
+1.907759e+09	-3.606569e+00	-1.404106e+02
+1.914348e+09	-3.341232e+00	-1.442815e+02
+1.920936e+09	-3.075894e+00	-1.481525e+02
+1.927525e+09	-2.810557e+00	-1.518475e+02
+1.934114e+09	-2.545220e+00	-1.558944e+02
+1.940702e+09	-2.213548e+00	-1.595894e+02
+1.947291e+09	-1.948211e+00	-1.632845e+02
+1.953880e+09	-1.682874e+00	-1.662757e+02
+1.960468e+09	-1.417537e+00	-1.683871e+02
+1.967057e+09	-1.152199e+00	+1.699707e+02
+1.973645e+09	-8.868622e-01	+1.706745e+02
+1.980234e+09	-8.868622e-01	-1.704985e+02
+1.986823e+09	-4.888563e-01	-1.682111e+02
+1.993411e+09	-3.561877e-01	-1.652199e+02
+2.000000e+09	-2.235191e-01	-1.613490e+02
