# Hz S DB R 50.000000
+3.000000e+07	-4.396250e+01	-9.120097e+01	-1.073426e+01	-1.267248e+00	-1.062403e+01	-8.919208e-01	-6.146051e+01	-1.346072e+02
+3.658863e+07	-4.287336e+01	-8.559128e+01	-1.076356e+01	-1.653067e+00	-1.067503e+01	-3.655047e+00	-4.930202e+01	-4.578021e+01
+4.317726e+07	-3.909488e+01	-8.460151e+01	-1.075884e+01	-2.121981e+00	-1.055107e+01	-3.334990e+00	-5.605492e+01	-6.548547e+01
+4.976589e+07	-5.519449e+01	-1.498210e+02	-1.073652e+01	-2.222868e+00	-1.055902e+01	-3.598813e+00	-5.826344e+01	-9.687975e+01
+5.635452e+07	-5.224551e+01	-1.654518e+02	-1.062783e+01	-2.707489e+00	-1.051957e+01	-4.375595e+00	-5.873359e+01	-9.696489e+01
+6.294314e+07	-4.314139e+01	+1.330223e+02	-1.065173e+01	-3.118260e+00	-1.060769e+01	-5.286213e+00	-6.110161e+01	-9.511855e+01
+6.953177e+07	-4.344959e+01	+1.388177e+02	-1.059901e+01	-3.262821e+00	-1.086045e+01	-4.302810e+00	-5.408863e+01	-1.335576e+02
+7.612040e+07	-4.245161e+01	+1.405010e+02	-1.058946e+01	-3.931373e+00	-1.088276e+01	-6.421962e+00	-6.016962e+01	-1.240738e+02
+8.270903e+07	-5.023699e+01	-1.277551e+02	-1.056149e+01	-4.472268e+00	-1.092117e+01	-7.326841e+00	-6.707223e+01	-1.203688e+02
+8.929766e+07	-5.237353e+01	-1.716295e+02	-1.056489e+01	+1.276899e+01	-1.105169e+01	-7.166975e+00	-8.340577e+01	-1.076710e+02
+9.588629e+07	-5.496619e+01	+1.790512e+02	-1.062853e+01	-5.589706e+00	-1.110948e+01	-6.906594e+00	-5.361681e+01	-1.154341e+02
+1.024749e+08	-5.864129e+01	+1.564325e+02	-1.062128e+01	-1.076485e+01	-1.113805e+01	-6.473152e+00	-4.640669e+01	-9.115057e+01
+1.090635e+08	-4.277437e+01	-4.953492e+01	-1.061754e+01	-6.061584e+00	-1.120761e+01	-6.202182e+00	-4.366768e+01	-7.825382e+01
+1.156522e+08	-4.252168e+01	-4.204790e+01	-1.064002e+01	-6.447053e+00	-1.128137e+01	-6.290591e+00	-4.935732e+01	+9.491039e+01
+1.222408e+08	-5.300790e+01	+1.001231e+02	-1.055112e+01	-6.473724e+00	-1.098800e+01	-5.556680e+00	-6.463752e+01	-1.110610e+02
+1.288294e+08	-5.785051e+01	+7.455417e+01	-1.052524e+01	-6.734033e+00	-1.097225e+01	-6.107509e+00	-6.095571e+01	-1.528183e+02
+1.354181e+08	-3.549445e+01	+1.366795e+02	-1.062175e+01	-7.539562e+00	-1.081602e+01	+9.658058e+00	-5.794807e+01	-1.185155e+02
+1.420067e+08	-3.935266e+01	+1.455116e+02	-1.051687e+01	-7.390374e+00	-1.075216e+01	-3.724713e+00	-4.524630e+01	-1.653807e+02
+1.485953e+08	-3.946518e+01	+1.561920e+02	-1.059184e+01	-7.957584e+00	-1.068860e+01	-2.235091e+01	-4.210557e+01	-1.346986e+02
+1.551839e+08	-3.975289e+01	+1.651334e+02	-1.057372e+01	-8.000621e+00	-1.063185e+01	-1.368531e+01	-4.368854e+01	-8.589013e+01
+1.617726e+08	-4.386322e+01	-7.174237e+01	-1.052345e+01	-8.492765e+00	-1.071915e+01	-1.039528e+01	-4.248241e+01	-1.238389e+02
+1.683612e+08	-4.092397e+01	+1.715957e+02	-1.048025e+01	-8.913399e+00	-1.085957e+01	-1.050353e+01	-3.906844e+01	-1.451306e+02
+1.749498e+08	-4.818033e+01	-1.034656e+02	-1.052522e+01	-9.487467e+00	-1.104686e+01	-8.991339e+00	-3.987468e+01	-1.474315e+02
+1.815385e+08	-4.191247e+01	-1.132496e+02	-1.056174e+01	-9.590277e+00	-1.090838e+01	-8.738864e+00	-3.901182e+01	-1.549318e+02
+1.881271e+08	-3.349614e+01	+1.717392e+02	-1.065349e+01	-1.170190e+01	-1.089293e+01	-9.557708e+00	-3.827375e+01	-1.644111e+02
+1.947157e+08	-4.049342e+01	-1.683299e+02	-1.055828e+01	-2.585480e+01	-1.087998e+01	-9.935090e+00	-3.700508e+01	-1.759177e+02
+2.013043e+08	-4.072694e+01	+1.793686e+02	-1.047471e+01	-2.082851e+01	-1.078471e+01	-1.025746e+01	-3.732423e+01	+1.709900e+02
+2.078930e+08	-4.089525e+01	+1.659173e+02	-1.046490e+01	-1.112657e+01	-1.072264e+01	-1.035215e+01	-3.806069e+01	+1.690176e+02
+2.144816e+08	-4.167951e+01	+1.495530e+02	-1.041804e+01	-1.161475e+01	-1.069961e+01	-9.885890e+00	-3.865884e+01	+1.583065e+02
+2.210702e+08	-4.146132e+01	+1.322847e+02	-1.045351e+01	-1.211715e+01	-1.038008e+01	-8.272990e+00	-3.685012e+01	+1.307594e+02
+2.276589e+08	-4.054843e+01	+1.137001e+02	-1.051531e+01	-1.286726e+01	-1.059424e+01	-9.879973e+00	-4.098748e+01	+1.363208e+02
+2.342475e+08	-3.269805e+01	+1.977974e+01	-1.052543e+01	-1.256685e+01	-1.057039e+01	-1.041356e+01	-4.328423e+01	+1.305310e+02
+2.408361e+08	-4.074860e+01	+7.550419e+01	-1.056966e+01	-1.262817e+01	-1.044523e+01	-1.008703e+01	-4.523117e+01	+1.176912e+02
+2.474247e+08	-3.108516e+01	+2.043655e+01	-1.051051e+01	-1.349328e+01	-1.021108e+01	-1.035772e+01	-5.167882e+01	+1.115339e+02
+2.540134e+08	-3.841102e+01	+1.346159e+00	-1.118126e+01	-1.440920e+01	-1.062598e+01	-1.307564e+01	-5.769132e+01	+1.623839e+02
+2.606020e+08	-3.317209e+01	-1.717116e+02	-1.114393e+01	-1.260308e+01	-1.037709e+01	-1.536700e+01	-5.924035e+01	-2.663398e-01
+2.671906e+08	-4.717051e+01	-1.924751e+01	-1.112836e+01	-1.355080e+01	-1.032521e+01	-1.411738e+01	-6.776779e+01	+1.447419e+02
+2.737793e+08	-3.461905e+01	-1.456745e+02	-1.102542e+01	-1.424435e+01	-1.021834e+01	-1.565884e+01	-7.037740e+01	+6.401890e+01
+2.803679e+08	-3.447787e+01	-1.381372e+02	-1.100150e+01	+3.409659e+00	-1.008357e+01	-1.351929e+01	-6.905437e+01	+1.643464e+02
+2.869565e+08	-3.400529e+01	-1.280750e+02	-1.100015e+01	-1.678768e+01	-1.020392e+01	-2.231398e+01	-5.049870e+01	+6.312081e+01
+2.935452e+08	-3.279978e+01	-1.305805e+02	-1.103598e+01	-2.589286e+01	-1.025906e+01	-2.385446e+01	-4.336256e+01	+8.298708e+01
+3.001338e+08	-3.194362e+01	-1.346735e+02	-1.102984e+01	-2.398303e+01	-1.036436e+01	-3.888299e+01	-4.747535e+01	+1.362661e+02
+3.067224e+08	-3.197851e+01	-1.478210e+02	-1.093407e+01	-1.936447e+01	-1.050523e+01	-2.589641e+01	-4.619254e+01	+1.332160e+02
+3.133110e+08	-3.190433e+01	-1.472400e+02	-1.108167e+01	-1.778282e+01	-1.054944e+01	-2.147714e+01	-4.515828e+01	+1.276530e+02
+3.198997e+08	-3.831409e+01	-1.505453e+02	-1.093308e+01	-1.789176e+01	-1.073017e+01	-2.163080e+01	-4.292827e+01	+1.167581e+02
+3.264883e+08	-3.644692e+01	+5.026648e+01	-1.110784e+01	-1.866617e+01	-1.091322e+01	-2.190442e+01	-4.469368e+01	+1.059494e+02
+3.330769e+08	-3.530907e+01	+6.050303e+01	-1.111800e+01	-1.882340e+01	-1.093340e+01	-2.039636e+01	-4.408495e+01	+9.731623e+01
+3.396656e+08	-3.353545e+01	+6.432555e+01	-1.116237e+01	-1.852358e+01	-1.104128e+01	-2.104803e+01	-4.363868e+01	+8.617411e+01
+3.462542e+08	-3.439227e+01	+6.867162e+01	-1.124143e+01	-1.889710e+01	-1.095350e+01	-2.076150e+01	-4.402960e+01	+7.250668e+01
+3.528428e+08	-3.130961e+01	+6.442024e+01	-1.102128e+01	-1.871957e+01	-1.100473e+01	-1.983901e+01	-4.634451e+01	+3.373188e+01
+3.594314e+08	-3.055714e+01	+6.242539e+01	-1.091365e+01	-1.863563e+01	-1.085451e+01	-2.067571e+01	-4.679038e+01	+3.871842e+01
+3.660201e+08	-3.975777e+01	+9.088370e+01	-1.075101e+01	-1.931248e+01	-1.080209e+01	-2.110002e+01	-5.231522e+01	+1.566546e+00
+3.726087e+08	-3.875509e+01	+4.865339e+01	-1.079322e+01	-1.954203e+01	-1.077786e+01	-2.174051e+01	-5.033809e+01	-1.902355e+01
+3.791973e+08	-4.055905e+01	+4.331670e+01	-1.069314e+01	-1.947246e+01	-1.074531e+01	-2.237785e+01	-5.005766e+01	-4.501079e+01
+3.857860e+08	-3.997821e+01	+2.394491e+01	-1.066860e+01	-3.337836e+01	-1.077845e+01	-2.310237e+01	-4.824047e+01	-6.471799e+01
+3.923746e+08	-3.075298e+01	-1.134582e+02	-1.076445e+01	-4.087788e+01	-1.082592e+01	-2.390556e+01	-4.554362e+01	-6.203410e+01
+3.989632e+08	-3.074173e+01	-1.017342e+02	-1.083290e+01	-4.046875e+01	-1.087819e+01	-2.472388e+01	-4.133288e+01	-9.587195e+01
+4.055518e+08	-3.173341e+01	-1.001605e+02	-1.084464e+01	-3.012147e+01	-1.102422e+01	-2.505806e+01	-4.098042e+01	-1.238973e+02
+4.121405e+08	-4.089562e+01	+8.424504e+00	-1.083910e+01	-2.203851e+01	-1.113678e+01	-2.483622e+01	-4.140343e+01	-1.364603e+02
+4.187291e+08	-4.881968e+01	+1.149985e+01	-1.086860e+01	-2.247680e+01	-1.121345e+01	-2.473188e+01	-4.206593e+01	-1.482264e+02
+4.253177e+08	-5.175178e+01	+4.778688e+01	-1.080156e+01	-2.213820e+01	-1.139142e+01	-3.356358e+01	-4.260019e+01	-1.597926e+02
+4.319064e+08	-3.531198e+01	+7.149360e+01	-1.074852e+01	-2.219799e+01	-1.140307e+01	-2.799224e+01	-3.277752e+01	+1.495208e+02
+4.384950e+08	-4.347708e+01	-1.301728e+02	-1.067032e+01	-2.276041e+01	-1.138554e+01	-3.685267e+01	-5.170502e+01	-8.227940e+01
+4.450836e+08	-3.347432e+01	+8.642382e+01	-1.064429e+01	-2.277297e+01	-1.130124e+01	-4.015474e+01	-6.035429e+01	-5.797757e+01
+4.516722e+08	-3.286817e+01	+9.017118e+01	-1.064049e+01	-2.368727e+01	-1.116547e+01	-4.021603e+01	-6.863237e+01	+1.921584e+00
+4.582609e+08	-3.209304e+01	+9.151607e+01	-1.061517e+01	-2.423326e+01	-1.103054e+01	-4.705949e+01	-7.705074e+01	+1.683360e+02
+4.648495e+08	-3.168882e+01	+9.218492e+01	-1.063693e+01	-2.524676e+01	-1.092124e+01	-3.842743e+01	-7.520458e+01	+1.511510e+02
+4.714381e+08	-3.089649e+01	+8.395862e+01	-1.054619e+01	-2.648310e+01	-1.087809e+01	-3.762982e+01	-6.977138e+01	+1.721033e+02
+4.780268e+08	-5.076650e+01	+1.000234e+02	-1.076960e+01	-2.336614e+01	-1.084997e+01	-3.706756e+01	-6.125785e+01	+1.656754e+02
+4.846154e+08	-5.553985e+01	+8.245162e+01	-1.091441e+01	-3.561579e+01	-1.084938e+01	-3.484592e+01	-5.051006e+01	+4.453230e+01
+4.912040e+08	-5.777362e+01	+5.826680e+01	-1.094508e+01	-3.667087e+01	-1.077127e+01	-3.500427e+01	-4.853693e+01	+1.695086e+02
+4.977926e+08	-5.705613e+01	-1.513718e+01	-1.090952e+01	-3.676975e+01	-1.068474e+01	-3.608121e+01	-4.519467e+01	+1.565215e+02
+5.043813e+08	-5.635754e+01	-8.716631e+01	-1.054350e+01	-3.265115e+01	-1.058905e+01	-3.845972e+01	-4.014636e+01	+1.369483e+02
+5.109699e+08	-5.612494e+01	-9.563643e+01	-1.049649e+01	-2.923484e+01	-1.067522e+01	-3.916561e+01	-3.835825e+01	+1.301077e+02
+5.175585e+08	-5.148108e+01	-1.227923e+02	-1.043091e+01	-2.863043e+01	-1.078998e+01	-3.761864e+01	-3.531277e+01	+1.470960e+02
+5.241472e+08	-4.794075e+01	-1.463592e+02	-1.039844e+01	-2.908808e+01	-1.078023e+01	-3.994946e+01	-3.369339e+01	+9.650856e+01
+5.307358e+08	-4.826601e+01	-1.739924e+02	-1.047010e+01	-2.966934e+01	-1.069993e+01	-4.089554e+01	-3.350226e+01	+9.574636e+01
+5.373244e+08	-4.362510e+01	+1.798531e+02	-1.040550e+01	-2.960988e+01	-1.066430e+01	-3.372079e+01	-3.381484e+01	+9.376380e+01
+5.439130e+08	-4.428329e+01	+1.419392e+02	-1.029650e+01	-2.995924e+01	-1.068756e+01	-3.460980e+01	-3.352213e+01	+8.684068e+01
+5.505017e+08	-4.394130e+01	+1.206081e+02	-1.007748e+01	-3.155858e+01	-1.064651e+01	-3.371945e+01	-3.316968e+01	+8.197827e+01
+5.570903e+08	-4.270553e+01	+9.587155e+01	-1.007904e+01	-3.443518e+01	-1.076054e+01	-3.414424e+01	-3.360787e+01	+7.151040e+01
+5.636789e+08	-2.661144e+01	+1.104386e+02	-1.054457e+01	-4.774867e+01	-1.057696e+01	-3.478698e+01	-3.249422e+01	+6.012383e+01
+5.702676e+08	-2.760780e+01	+1.113007e+02	-1.043968e+01	-2.444069e+01	-1.052003e+01	-3.331131e+01	-3.191768e+01	+6.274608e+01
+5.768562e+08	-2.793976e+01	+1.033033e+02	-1.055149e+01	-4.174744e+01	-1.041633e+01	-4.129639e+01	-3.265709e+01	+4.299973e+01
+5.834448e+08	-3.664332e+01	+3.864599e+01	-1.057147e+01	-5.363996e+01	-1.028761e+01	-4.340907e+01	-3.345355e+01	+2.757813e+01
+5.900334e+08	-3.604467e+01	+2.970358e+01	-1.053701e+01	-5.373220e+01	-1.030821e+01	-4.579734e+01	-2.531166e+01	+3.138213e+01
+5.966221e+08	-3.468576e+01	+6.991974e+00	-1.069971e+01	-5.391528e+01	-9.831158e+00	-4.637768e+01	-2.943325e+01	+5.350388e+01
+6.032107e+08	-3.850480e+01	+2.829633e+01	-1.051937e+01	-6.014352e+01	-1.031212e+01	-4.827357e+01	-3.060414e+01	+3.359661e+01
+6.097993e+08	-4.020634e+01	+2.738355e+01	-1.045909e+01	-4.523180e+01	-1.049601e+01	-4.971149e+01	-3.173440e+01	+3.159761e+01
+6.163880e+08	-5.535011e+01	-1.911937e+01	-1.039093e+01	-3.559874e+01	-1.072824e+01	-5.604571e+01	-3.779710e+01	-4.285605e+01
+6.229766e+08	-5.214724e+01	+4.108309e+00	-1.048872e+01	-3.599085e+01	-1.126667e+01	-4.872470e+01	-3.375753e+01	-7.251085e+01
+6.295652e+08	-5.256241e+01	-8.547245e+01	-1.040862e+01	-3.600975e+01	-1.099974e+01	-4.593612e+01	-3.643613e+01	-5.810535e+01
+6.361538e+08	-4.345322e+01	-1.296510e+02	-1.033840e+01	-3.604436e+01	-1.113834e+01	-4.533729e+01	-4.013628e+01	-5.257978e+01
+6.427425e+08	-3.117352e+01	-6.468905e+01	-1.026439e+01	-3.656613e+01	-1.139154e+01	-4.516198e+01	-4.539626e+01	-4.521392e+01
+6.493311e+08	-3.789329e+01	-1.110621e+02	-1.019204e+01	-3.712597e+01	-1.150969e+01	-4.451129e+01	-5.402399e+01	+1.604289e+00
+6.559197e+08	-3.762367e+01	-1.134499e+02	-1.012454e+01	-3.821067e+01	-1.139938e+01	-4.360937e+01	-4.185137e+01	+1.282455e+02
+6.625084e+08	-3.015717e+01	+1.682172e+02	-1.021613e+01	-3.920191e+01	-1.159259e+01	-4.034373e+01	-5.152505e+01	+4.467761e+01
+6.690970e+08	-2.977691e+01	+1.601557e+02	-1.026332e+01	-1.540101e+01	-1.174293e+01	-3.476934e+01	-3.985477e+01	-6.225182e+00
+6.756856e+08	-2.939518e+01	+1.583763e+02	-1.035924e+01	-3.751439e+01	-1.166689e+01	-3.814951e+01	-3.598593e+01	+2.742623e+00
+6.822742e+08	-4.108759e+01	+1.633775e+02	-1.034956e+01	-4.916862e+01	-1.148390e+01	-3.769770e+01	-3.315836e+01	+3.678837e+00
+6.888629e+08	-4.042485e+01	+1.285775e+02	-1.045517e+01	-5.131523e+01	-1.116620e+01	-3.898225e+01	-3.992722e+01	-1.982981e+01
+6.954515e+08	-3.006349e+01	+1.413336e+02	-1.055761e+01	-5.096214e+01	-1.096539e+01	-3.888614e+01	-3.817059e+01	-3.405186e+01
+7.020401e+08	-3.081829e+01	+1.354598e+02	-1.068757e+01	-5.098985e+01	-1.077353e+01	-3.890471e+01	-3.684435e+01	-5.072295e+01
+7.086288e+08	-3.862582e+01	+6.639906e+01	-1.069502e+01	-4.943859e+01	-1.051836e+01	-3.946369e+01	-3.569293e+01	-6.456236e+01
+7.152174e+08	-3.808361e+01	+6.194407e+01	-1.078071e+01	-4.543339e+01	-1.040933e+01	-3.403771e+01	-3.497318e+01	-7.513465e+01
+7.218060e+08	-3.779010e+01	+6.018224e+01	-1.060958e+01	-3.861862e+01	-1.016582e+01	-4.447610e+01	-3.443933e+01	-1.031299e+02
+7.283946e+08	-3.030486e+01	-1.064970e+01	-1.049667e+01	-3.890472e+01	-1.024340e+01	-4.981316e+01	-3.470988e+01	-9.640918e+01
+7.349833e+08	-3.910524e+01	-6.180765e-01	-1.037592e+01	-3.913692e+01	-1.025763e+01	-5.003897e+01	-3.819692e+01	-1.547911e+02
+7.415719e+08	-2.949460e+01	-6.760313e+00	-1.029465e+01	-3.995387e+01	-1.018977e+01	-5.067643e+01	-3.500339e+01	-1.462502e+02
+7.481605e+08	-2.864025e+01	-1.411064e+01	-1.027736e+01	-4.034904e+01	-1.026132e+01	-5.178001e+01	-3.400131e+01	-1.336877e+02
+7.547492e+08	-2.904135e+01	-2.549082e+01	-1.030124e+01	-4.067253e+01	-1.014586e+01	-5.188802e+01	-4.285195e+01	-1.522652e+02
+7.613378e+08	-2.880938e+01	-2.419672e+01	-1.029223e+01	-4.095920e+01	-1.026205e+01	-5.180365e+01	-4.157979e+01	-1.685747e+02
+7.679264e+08	-2.980254e+01	-2.412886e+01	-1.030646e+01	-2.750654e+01	-1.032262e+01	-5.166122e+01	-3.900636e+01	-1.740794e+02
+7.745151e+08	-2.848736e+01	-1.503382e+02	-1.034054e+01	-4.744569e+01	-1.047813e+01	-5.815981e+01	-4.093046e+01	-1.717179e+02
+7.811037e+08	-3.524901e+01	-1.150503e+02	-1.030200e+01	-6.037131e+01	-1.058127e+01	-5.132461e+01	-4.117117e+01	-1.575036e+02
+7.876923e+08	-4.024873e+01	-1.314688e+02	-1.026779e+01	-6.124883e+01	-1.050543e+01	-4.714964e+01	-4.366291e+01	-1.591702e+02
+7.942809e+08	-2.905301e+01	-1.560974e+02	-1.020441e+01	-6.081823e+01	-1.056439e+01	-4.634242e+01	-5.166149e+01	-1.340457e+02
+8.008696e+08	-3.090503e+01	-1.585934e+02	-1.031234e+01	-6.115912e+01	-1.043132e+01	-5.049421e+01	-4.584283e+01	+7.450911e+00
+8.074582e+08	-3.201930e+01	-1.643363e+02	-1.027762e+01	-6.240410e+01	-1.035716e+01	-5.063955e+01	-4.789335e+01	-2.256249e+00
+8.140468e+08	-3.345938e+01	-1.605234e+02	-1.029158e+01	-6.050272e+01	-1.025123e+01	-5.058812e+01	-4.990009e+01	-5.570795e+00
+8.206355e+08	-5.069547e+01	+7.340870e+01	-1.029553e+01	-4.868945e+01	-1.020134e+01	-5.041039e+01	-5.180449e+01	+4.156054e+00
+8.272241e+08	-4.708582e+01	+5.952967e+01	-1.032755e+01	-4.432395e+01	-1.020937e+01	-5.057930e+01	-5.630570e+01	+1.219206e+01
+8.338127e+08	-4.398519e+01	+2.912490e+01	-1.039903e+01	-4.548275e+01	-1.032060e+01	-5.089437e+01	-6.526804e+01	+3.881809e+01
+8.404013e+08	-4.912193e+01	-1.400228e+01	-1.044053e+01	-4.574270e+01	-1.107762e+01	-5.292442e+01	-4.749687e+01	+6.465006e+01
+8.469900e+08	-4.484226e+01	-6.870106e+00	-1.043093e+01	-4.632639e+01	-1.088174e+01	-5.215766e+01	-5.298372e+01	+8.519066e+01
+8.535786e+08	-4.156661e+01	-2.748905e+01	-1.046888e+01	-4.693466e+01	-1.092461e+01	-5.231954e+01	-4.804160e+01	+8.791970e+01
+8.601672e+08	-4.139867e+01	-4.913525e+01	-1.057308e+01	-4.626733e+01	-1.103830e+01	-4.507321e+01	-4.285235e+01	+9.594294e+01
+8.667559e+08	-4.006249e+01	-6.135455e+01	-1.055504e+01	-2.961880e+01	-1.132705e+01	-5.440172e+01	-4.395860e+01	+7.632613e+01
+8.733445e+08	-3.660564e+01	-7.248135e+01	-1.058047e+01	-4.821508e+01	-1.131961e+01	-5.513969e+01	-4.684716e+01	+5.593527e+01
+8.799331e+08	-3.155246e+01	-1.121345e+02	-1.049637e+01	-5.696591e+01	-1.143804e+01	-5.787153e+01	-4.207148e+01	+4.166647e+01
+8.865217e+08	-3.116561e+01	-1.138978e+02	-1.050754e+01	-5.742814e+01	-1.142841e+01	-5.795043e+01	-4.030583e+01	+3.334905e+01
+8.931104e+08	-3.105737e+01	-1.115645e+02	-1.051762e+01	-5.719229e+01	-1.133163e+01	-5.713380e+01	-3.945462e+01	+1.992213e+01
+8.996990e+08	-4.560556e+01	-6.684850e+01	-1.044883e+01	-5.752797e+01	-1.122192e+01	-5.655052e+01	-3.832791e+01	+5.394516e+00
+9.062876e+08	-4.217749e+01	-6.294552e+01	-1.044830e+01	-5.836966e+01	-1.109232e+01	-5.648238e+01	-3.764628e+01	-9.582607e+00
+9.128763e+08	-3.213412e+01	-1.123607e+02	-1.042322e+01	-5.799421e+01	-1.093249e+01	-5.724911e+01	-3.672129e+01	-2.295847e+01
+9.194649e+08	-4.763767e+01	-6.049235e+01	-1.034586e+01	-5.888594e+01	-1.072600e+01	-5.843840e+01	-3.577362e+01	-3.660097e+01
+9.260535e+08	-3.319424e+01	-1.137834e+02	-1.026342e+01	-4.993656e+01	-1.031341e+01	-6.140500e+01	-3.509667e+01	-2.489500e+01
+9.326421e+08	-4.116891e+01	-1.287538e+01	-1.030909e+01	-4.914349e+01	-1.056128e+01	-6.721009e+01	-3.446592e+01	-5.788539e+01
+9.392308e+08	-3.150517e+01	+4.817834e+01	-1.021125e+01	-5.009407e+01	-1.076364e+01	-5.996608e+01	-3.437904e+01	-9.105745e+01
+9.458194e+08	-3.166832e+01	+4.999624e+01	-1.011036e+01	-5.103818e+01	-1.076006e+01	-5.814305e+01	-3.286884e+01	-7.915261e+01
+9.524080e+08	-3.199609e+01	+4.837588e+01	-1.022607e+01	-5.165608e+01	-1.091634e+01	-5.900540e+01	-3.287494e+01	-8.760801e+01
+9.589967e+08	-3.889011e+01	-3.289077e+01	-1.021470e+01	-5.170393e+01	-1.120698e+01	-6.076010e+01	-3.346013e+01	-9.825022e+01
+9.655853e+08	-3.281735e+01	+4.288952e+01	-1.016454e+01	-3.790774e+01	-1.151757e+01	-6.123766e+01	-3.339956e+01	-1.039291e+02
+9.721739e+08	-3.515273e+01	+4.160715e+01	-1.022001e+01	-6.482778e+01	-1.187710e+01	-6.071947e+01	-3.602938e+01	-1.197492e+02
+9.787625e+08	-3.827309e+01	-3.367695e+01	-1.019547e+01	-7.360431e+01	-1.160413e+01	-5.521938e+01	-4.185800e+01	-1.127093e+02
+9.853512e+08	-3.020204e+01	-8.103738e+01	-1.025376e+01	-7.382157e+01	-1.222493e+01	-5.760675e+01	-3.464418e+01	-1.467787e+02
+9.919398e+08	-2.983523e+01	-8.058331e+01	-1.027154e+01	-7.341733e+01	-1.247109e+01	-5.714023e+01	-4.603421e+01	-8.602790e+01
+9.985284e+08	-3.081150e+01	-8.115177e+01	-1.025153e+01	-7.432276e+01	-1.258538e+01	-5.639731e+01	-5.609956e+01	-5.894814e+01
+1.005117e+09	-2.944253e+01	-7.725905e+01	-1.032739e+01	-7.429696e+01	-1.221765e+01	-4.540577e+01	-5.650581e+01	-1.294562e+02
+1.011706e+09	-3.763513e+01	-4.765871e+01	-1.034696e+01	-7.528576e+01	-1.191123e+01	-5.397089e+01	-4.647302e+01	-1.294130e+02
+1.018294e+09	-3.872737e+01	-5.330689e+01	-1.039740e+01	-7.381033e+01	-1.158069e+01	-5.717557e+01	-5.415145e+01	-1.061391e+02
+1.024883e+09	-3.932855e+01	-5.626331e+01	-1.029117e+01	-6.236870e+01	-1.102027e+01	-5.806105e+01	-5.525930e+01	-1.569727e+02
+1.031472e+09	-2.888712e+01	-7.477206e+01	-1.042762e+01	-5.601726e+01	-1.043875e+01	-5.800832e+01	-5.045873e+01	-9.787955e+01
+1.038060e+09	-2.917151e+01	-7.593669e+01	-1.044152e+01	-5.653432e+01	-1.068810e+01	-5.739091e+01	-4.517226e+01	-5.556721e+01
+1.044649e+09	-4.091305e+01	-3.916222e+01	-1.046022e+01	-5.680769e+01	-1.055918e+01	-5.826345e+01	-3.930574e+01	-5.724184e+01
+1.051237e+09	-2.765466e+01	+9.113924e+01	-1.054485e+01	-5.666585e+01	-1.036549e+01	-5.979900e+01	-3.959321e+01	-4.868490e+01
+1.057826e+09	-2.824345e+01	+9.145298e+01	-1.060059e+01	-5.642362e+01	-1.043878e+01	-6.186138e+01	-3.908976e+01	-3.256604e+01
+1.064415e+09	-2.894146e+01	+9.101029e+01	-1.065252e+01	-4.997260e+01	-1.023334e+01	-6.424502e+01	-4.967175e+01	+1.372861e+02
