# Hz S DB R 50.000000
+3.000000e+07	-4.512028e+00	+1.725155e+02	-4.111606e+01	+1.498270e+02	+2.507169e+00	-1.091152e+02	+5.947092e-02	-9.389704e+01
+3.658863e+07	-4.266777e+00	+1.755823e+02	-4.147215e+01	+1.587670e+02	+1.197696e+00	-1.098875e+02	-1.825599e+00	-8.840921e+01
+4.317726e+07	-4.271798e+00	+1.747173e+02	-4.151141e+01	+1.712943e+02	+6.547230e-01	-1.095422e+02	-3.592979e+00	-8.400188e+01
+4.976589e+07	-4.330555e+00	+1.738586e+02	-4.115733e+01	-1.748669e+02	+2.748193e-01	-1.099335e+02	-5.360616e+00	-7.985406e+01
+5.635452e+07	-4.311710e+00	+1.728891e+02	-4.088751e+01	-1.618761e+02	+9.126624e-02	-1.115496e+02	-7.345597e+00	-7.660509e+01
+6.294314e+07	-4.303799e+00	+1.717144e+02	-4.075112e+01	-1.493165e+02	-1.432615e-01	-1.179891e+02	-1.155393e+01	-6.844569e+01
+6.953177e+07	-4.314948e+00	+1.707223e+02	-4.064616e+01	-1.370450e+02	+2.607864e-01	-1.082505e+02	-9.236342e+00	-7.477604e+01
+7.612040e+07	-4.264456e+00	+1.699944e+02	-4.055093e+01	-1.245777e+02	+5.144518e-01	-1.106496e+02	-1.089426e+01	-7.443502e+01
+8.270903e+07	-4.346289e+00	+1.695107e+02	-4.039999e+01	-1.125804e+02	+6.932000e-01	-1.156302e+02	-1.539680e+01	-7.309244e+01
+8.929766e+07	-4.338740e+00	+1.683202e+02	-4.035178e+01	-8.262067e+01	+1.025670e+00	-1.204652e+02	-2.538554e+01	-5.525037e+01
+9.588629e+07	-4.323493e+00	+1.675452e+02	-4.034010e+01	-9.070678e+01	+1.383946e+00	-1.260180e+02	-2.134306e+01	+8.353614e+01
+1.024749e+08	-4.356099e+00	+1.666919e+02	-4.043514e+01	-8.672752e+01	+1.821173e+00	-1.325772e+02	-1.261548e+01	+8.909536e+01
+1.090635e+08	-4.340305e+00	+1.662451e+02	-4.054262e+01	-7.551463e+01	+2.200986e+00	-1.400468e+02	-8.088011e+00	+8.630581e+01
+1.156522e+08	-4.362766e+00	+1.654084e+02	-4.078755e+01	-6.389826e+01	+2.582884e+00	-1.473964e+02	-5.099366e+00	+8.313581e+01
+1.222408e+08	-4.192134e+00	+1.643606e+02	-4.118544e+01	-5.183308e+01	+5.386133e+00	-1.730162e+02	+2.134468e+00	+8.009327e+01
+1.288294e+08	-4.374608e+00	+1.660714e+02	-4.130866e+01	-3.742951e+01	+3.242554e+00	-1.612190e+02	-1.079086e+00	+7.735987e+01
+1.354181e+08	-4.368626e+00	+1.631404e+02	-4.158568e+01	-2.333544e+01	+3.120097e+00	-1.454938e+02	-7.632416e-01	+7.502714e+01
+1.420067e+08	-4.093804e+00	+1.620454e+02	-4.134989e+01	-6.886345e+00	+3.589751e+00	-1.637952e+02	+8.377705e-01	+7.401531e+01
+1.485953e+08	-4.110840e+00	+1.616183e+02	-4.186862e+01	+6.276687e+00	+4.238692e+00	-1.755725e+02	+2.266894e+00	+7.326515e+01
+1.551839e+08	-4.130838e+00	+1.590027e+02	-4.219766e+01	+2.075740e+01	+5.206783e+00	+1.792837e+02	+3.808079e+00	+7.356199e+01
+1.617726e+08	-4.299998e+00	+1.580603e+02	-4.225030e+01	+3.591236e+01	+6.540388e+00	+1.763716e+02	+5.597861e+00	+7.510140e+01
+1.683612e+08	-4.042956e+00	+1.567923e+02	-4.179245e+01	+5.381930e+01	+8.581262e+00	+1.743465e+02	+7.985765e+00	+7.708004e+01
+1.749498e+08	-4.191847e+00	+1.556250e+02	-4.112365e+01	+6.951531e+01	+1.169257e+01	+1.763459e+02	+1.150387e+01	+8.186882e+01
+1.815385e+08	-4.253095e+00	+1.556158e+02	-3.933443e+01	+8.499334e+01	+1.785975e+01	-1.792163e+02	+1.755093e+01	+9.023504e+01
+1.881271e+08	-4.162386e+00	+1.554825e+02	-3.602405e+01	+1.254016e+02	+2.793834e+01	-8.195961e+01	+2.754323e+01	-1.675817e+02
+1.947157e+08	-4.230396e+00	+1.533093e+02	-4.406771e+01	+1.059782e+02	+1.432412e+01	-3.216874e+01	+1.365004e+01	-1.117528e+02
+2.013043e+08	-4.245678e+00	+1.520379e+02	-4.351216e+01	+1.224824e+02	+1.450750e+01	-3.190226e+01	+1.370127e+01	-1.158467e+02
+2.078930e+08	-4.267547e+00	+1.509910e+02	-4.252604e+01	+1.273645e+02	+9.479162e+00	-2.446455e+01	+8.495984e+00	-1.040630e+02
+2.144816e+08	-4.310673e+00	+1.498154e+02	-4.179705e+01	+1.384052e+02	+6.423151e+00	-2.141767e+01	+5.107916e+00	-9.730812e+01
+2.210702e+08	-4.324798e+00	+1.489141e+02	-4.122951e+01	-1.746927e+01	+4.590267e+00	-2.084883e+01	+2.453788e+00	-9.268603e+01
+2.276589e+08	-4.382212e+00	+1.483079e+02	-4.074727e+01	+1.576865e+02	+2.742427e+00	-1.988907e+01	+2.006185e-01	-8.863773e+01
+2.342475e+08	-4.695439e+00	+1.459810e+02	-4.018874e+01	+1.695530e+02	+1.859068e+00	-2.318518e+01	-1.098329e+00	-8.607305e+01
+2.408361e+08	-4.554303e+00	+1.468090e+02	-4.003882e+01	-1.694450e+02	+8.525031e-01	-2.177861e+01	-3.702481e+00	-8.376363e+01
+2.474247e+08	-5.487004e+00	+1.430448e+02	-3.932552e+01	-1.504093e+02	+2.407815e-01	-2.116429e+01	-6.586822e+00	-8.115506e+01
+2.540134e+08	-4.702536e+00	+1.453102e+02	-4.219756e+01	-1.315526e+02	-8.222234e-01	-2.156710e+01	-1.011721e+01	-7.568527e+01
+2.606020e+08	-4.165969e+00	+1.455876e+02	-4.256721e+01	-1.189065e+02	-6.755213e-01	-4.035786e+01	-1.764704e+01	+4.658843e+01
+2.671906e+08	-4.855968e+00	+1.414435e+02	-4.186386e+01	-1.116404e+02	-2.937401e-01	-2.501836e+01	-2.082418e+01	-3.229023e+01
+2.737793e+08	-4.719609e+00	+1.429210e+02	-4.178102e+01	-9.972264e+01	+3.940960e-01	-2.126294e+01	-2.137463e+01	-4.491022e+01
+2.803679e+08	-4.052391e+00	+1.439029e+02	-4.216697e+01	-7.024832e+01	+1.184993e+00	-2.152296e+01	-2.401153e+01	+6.121770e+01
+2.869565e+08	-4.694511e+00	+1.411878e+02	-4.178075e+01	-9.230774e+01	+2.180971e+00	-3.573440e+01	-1.382324e+01	+8.995336e+01
+2.935452e+08	-4.618092e+00	+1.405929e+02	-4.186998e+01	-1.047684e+02	+3.230685e+00	-4.337388e+01	-8.253373e+00	+9.409261e+01
+3.001338e+08	-4.686144e+00	+1.398279e+02	-4.172946e+01	-9.993148e+01	+4.377970e+00	-5.286153e+01	-4.359818e+00	+9.187979e+01
+3.067224e+08	-4.708108e+00	+1.388452e+02	-4.141936e+01	-9.360652e+01	+5.531864e+00	-6.481653e+01	-1.054349e+00	+8.626241e+01
+3.133110e+08	-4.748199e+00	+1.380494e+02	-4.143683e+01	+1.622176e+02	+6.619210e+00	-7.921871e+01	+1.638336e+00	+7.790259e+01
+3.198997e+08	-5.397625e+00	+1.407480e+02	-4.145997e+01	+1.686699e+02	+7.763839e+00	-1.025867e+02	+4.550140e+00	+6.419819e+01
+3.264883e+08	-4.683791e+00	+1.334752e+02	-4.172924e+01	-6.295702e+01	+5.430815e+00	-9.805471e+01	+2.446180e+00	+5.877550e+01
+3.330769e+08	-4.878965e+00	+1.334291e+02	-4.233301e+01	-4.928526e+01	+5.015218e+00	-1.089487e+02	+3.038258e+00	+5.101718e+01
+3.396656e+08	-4.299356e+00	+1.311227e+02	-4.289452e+01	-3.280877e+01	+4.676230e+00	-1.174954e+02	+3.504451e+00	+4.640071e+01
+3.462542e+08	-7.064512e+00	+1.397672e+02	-4.436430e+01	-4.217823e+00	+4.599793e+00	-1.238622e+02	+3.943742e+00	+4.347368e+01
+3.528428e+08	-4.221292e+00	+1.299918e+02	-4.434858e+01	+1.296039e+01	+4.618969e+00	-1.272949e+02	+4.533552e+00	+4.291953e+01
+3.594314e+08	-4.102747e+00	+1.294160e+02	-4.493514e+01	+3.310051e+01	+5.353279e+00	-1.325844e+02	+5.389860e+00	+4.341619e+01
+3.660201e+08	-4.223094e+00	+1.316050e+02	-4.475138e+01	+4.269959e+01	+6.501537e+00	-1.347216e+02	+6.635748e+00	+4.594646e+01
+3.726087e+08	-4.134354e+00	+1.307845e+02	-4.467027e+01	+5.942381e+01	+8.256629e+00	-1.380853e+02	+8.445482e+00	+4.745097e+01
+3.791973e+08	-4.076751e+00	+1.302755e+02	-4.476902e+01	+6.154803e+01	+1.122572e+01	-1.408992e+02	+1.138933e+01	+4.926094e+01
+3.857860e+08	-4.147976e+00	+1.288530e+02	-4.644692e+01	+5.979615e+01	+1.722997e+01	-1.415386e+02	+1.732284e+01	+5.299288e+01
+3.923746e+08	-4.234398e+00	+1.194896e+02	-3.925270e+01	+4.010869e+01	+6.630668e+00	+4.317422e+01	+5.486585e+00	-9.123677e+01
+3.989632e+08	-4.214481e+00	+1.260827e+02	-3.932458e+01	+4.720948e+01	+1.155922e+01	+3.853373e+01	+1.095967e+01	-1.156994e+02
+4.055518e+08	-4.386853e+00	+1.283692e+02	-4.142339e+01	+7.783910e+01	+1.003986e+01	+3.089495e+01	+9.193269e+00	-1.281549e+02
+4.121405e+08	-4.146467e+00	+1.254848e+02	-4.220609e+01	+1.100634e+02	+5.982827e+00	+3.473294e+01	+4.537355e+00	-1.201823e+02
+4.187291e+08	-4.050045e+00	+1.285889e+02	-4.309768e+01	+1.349569e+02	+3.136935e+00	+3.661776e+01	+9.996789e-01	-1.142798e+02
+4.253177e+08	-4.179957e+00	+1.275907e+02	-4.306353e+01	+1.509837e+02	+1.008345e+00	+2.873622e+01	-2.017007e+00	-1.091069e+02
+4.319064e+08	-4.259458e+00	+1.265180e+02	-4.262435e+01	+1.614083e+02	-6.500034e-01	+3.491223e+01	-5.064230e+00	-1.062354e+02
+4.384950e+08	-4.303418e+00	+1.268162e+02	-4.207559e+01	+1.637235e+02	-1.694223e+00	+2.839889e+01	-7.822307e+00	-1.003659e+02
+4.450836e+08	-4.005164e+00	+1.244244e+02	-4.167140e+01	-1.774222e+02	-2.553729e+00	+2.664125e+01	-1.102156e+01	-9.463083e+01
+4.516722e+08	-4.500536e+00	+1.211246e+02	-4.152752e+01	-1.586166e+02	-3.080591e+00	+2.887747e+01	-1.663278e+01	-8.670132e+01
+4.582609e+08	-4.540491e+00	+1.190461e+02	-4.116363e+01	-1.512258e+02	-3.233442e+00	+2.810984e+01	-2.775239e+01	+2.701077e+01
+4.648495e+08	-4.651670e+00	+1.175605e+02	-4.103099e+01	-1.454841e+02	-3.127453e+00	+3.782877e+01	-2.800111e+01	-5.041956e-01
+4.714381e+08	-4.620933e+00	+1.164333e+02	-4.071310e+01	-1.470854e+02	-2.944313e+00	+4.016278e+01	-2.168666e+01	+6.626633e+01
+4.780268e+08	-5.186338e+00	+1.171963e+02	-4.066668e+01	+1.485014e+02	-2.419563e+00	+4.270509e+01	-1.368464e+01	+8.461585e+01
+4.846154e+08	-5.213483e+00	+1.163276e+02	-4.014369e+01	+1.482609e+02	-1.688515e+00	+4.610798e+01	-9.353830e+00	+9.209894e+01
+4.912040e+08	-5.570967e+00	+1.077434e+02	-4.056216e+01	+1.531633e+02	-5.757358e-01	+4.664997e+01	-6.393717e+00	+9.857453e+01
+4.977926e+08	-5.629994e+00	+1.068730e+02	-4.064618e+01	+1.588252e+02	+9.251318e-01	+4.596584e+01	-3.591471e+00	+1.035837e+02
+5.043813e+08	-6.134063e+00	+1.107752e+02	-3.917196e+01	+1.619190e+02	+3.756585e+00	+4.333334e+01	-7.985068e-01	+1.076199e+02
+5.109699e+08	-5.898303e+00	+1.079197e+02	-3.894502e+01	-7.575943e+01	+6.148236e+00	+4.247549e+01	+2.433534e+00	+1.122943e+02
+5.175585e+08	-5.827184e+00	+1.063400e+02	-3.893935e+01	-5.107216e+01	+1.636256e+01	+1.063535e+02	+1.410793e+01	-1.581757e+02
+5.241472e+08	-5.871942e+00	+1.065154e+02	-3.850114e+01	-2.025325e+01	+1.480823e+01	+4.250490e+01	+1.263030e+01	+1.254031e+02
+5.307358e+08	-5.789887e+00	+1.064336e+02	-3.757988e+01	+1.034003e+01	+2.083259e+01	+2.929190e+01	+1.862923e+01	+1.133535e+02
+5.373244e+08	-5.634488e+00	+1.072951e+02	-4.477377e+01	+2.295033e+01	+2.604460e+01	-1.123728e+02	+2.419768e+01	-3.016348e+01
+5.439130e+08	-5.077226e+00	+1.112089e+02	-4.158364e+01	+6.880722e+01	+1.533367e+01	-1.309392e+02	+1.395133e+01	-4.135762e+01
+5.505017e+08	-4.958265e+00	+1.105664e+02	-4.041717e+01	+7.195295e+01	+1.096122e+01	-1.360445e+02	+1.014849e+01	-4.157440e+01
+5.570903e+08	-4.962609e+00	+1.094654e+02	-3.856934e+01	+4.622748e+01	+8.066759e+00	-1.379568e+02	+8.093095e+00	-4.065199e+01
+5.636789e+08	-4.221238e+00	+1.099745e+02	-3.867920e+01	-1.183595e+00	+6.481472e+00	-1.412754e+02	+6.735630e+00	-4.072572e+01
+5.702676e+08	-4.333670e+00	+1.102682e+02	-3.849649e+01	-2.702414e+01	+5.686762e+00	-1.427577e+02	+5.823538e+00	-4.219832e+01
+5.768562e+08	-4.319983e+00	+1.101470e+02	-3.872101e+01	-3.239055e+01	+5.322773e+00	-1.547794e+02	+5.060796e+00	-4.468299e+01
+5.834448e+08	-4.773137e+00	+1.095608e+02	-3.840725e+01	-3.401089e+01	+5.127158e+00	-1.625224e+02	+4.380376e+00	-4.798208e+01
+5.900334e+08	-4.707532e+00	+1.076861e+02	-3.831651e+01	-3.479020e+01	+5.017027e+00	-1.697922e+02	+3.632935e+00	-5.178100e+01
+5.966221e+08	-4.681313e+00	+1.066109e+02	-3.860165e+01	-3.625508e+01	+3.459938e+00	+1.585535e+02	-7.527634e-01	-5.928159e+01
+6.032107e+08	-4.044064e+00	+1.073638e+02	-3.858353e+01	-3.783093e+01	+5.097466e+00	+1.730032e+02	+2.258104e+00	-6.255598e+01
+6.097993e+08	-3.951955e+00	+1.064146e+02	-3.915324e+01	-3.695776e+01	+5.841567e+00	+1.719371e+02	+2.861322e+00	-6.844445e+01
+6.163880e+08	-3.986085e+00	+1.053604e+02	-4.009601e+01	+1.544998e+02	+4.907708e+00	+1.579352e+02	+7.924714e-01	-7.592002e+01
+6.229766e+08	-3.894072e+00	+1.048632e+02	-4.046067e+01	+1.765854e+02	+3.716417e+00	+1.456418e+02	-1.587485e+00	-8.200086e+01
+6.295652e+08	-3.812509e+00	+1.039167e+02	-4.080364e+01	-1.632957e+02	+2.795977e+00	+1.349691e+02	-4.762215e+00	-8.548006e+01
+6.361538e+08	-3.836233e+00	+1.024254e+02	-4.095562e+01	-1.447437e+02	+1.703082e+00	+1.271465e+02	-8.791562e+00	-8.595686e+01
+6.427425e+08	-4.256632e+00	+9.895714e+01	-4.081383e+01	-1.278988e+02	+7.221944e-01	+1.208450e+02	-1.446584e+01	-7.934957e+01
+6.493311e+08	-4.221306e+00	+9.811320e+01	-4.040446e+01	-1.130032e+02	-8.936503e-02	+1.161117e+02	-2.345330e+01	-3.530166e+01
+6.559197e+08	-4.216868e+00	+9.634792e+01	-3.991941e+01	-1.021912e+02	-2.927177e-01	+1.016382e+02	-1.111169e+01	+7.431279e+01
+6.625084e+08	-3.964182e+00	+9.748901e+01	-3.963724e+01	-9.384646e+01	-1.224384e+00	+1.140055e+02	-1.458858e+01	+6.032415e+01
+6.690970e+08	-3.967963e+00	+9.631478e+01	-3.959049e+01	+9.580128e+01	-1.668987e+00	+1.202360e+02	-1.211451e+01	+6.445210e+01
+6.756856e+08	-4.015118e+00	+9.513964e+01	-3.932732e+01	+8.623924e+01	-1.650733e+00	+1.144994e+02	-8.889591e+00	+7.018597e+01
+6.822742e+08	-4.382020e+00	+9.141913e+01	-3.931203e+01	+8.586434e+01	-1.265160e+00	+1.146014e+02	-6.238853e+00	+7.429816e+01
+6.888629e+08	-4.428547e+00	+9.033148e+01	-3.938158e+01	+9.261502e+01	-8.028439e-01	+1.123145e+02	-4.851603e+00	+7.668506e+01
+6.954515e+08	-4.315102e+00	+9.256847e+01	-3.947555e+01	-4.806569e+01	+2.870714e-01	+1.133366e+02	-2.212413e+00	+7.957901e+01
+7.020401e+08	-4.443284e+00	+9.186714e+01	-3.983614e+01	-3.400896e+01	+1.864889e+00	+1.140712e+02	+3.015591e-01	+8.197686e+01
+7.086288e+08	-4.533981e+00	+9.124139e+01	-4.036184e+01	-1.856263e+01	+3.881258e+00	+1.134242e+02	+2.773348e+00	+8.419116e+01
+7.152174e+08	-4.562836e+00	+9.137647e+01	-4.117577e+01	+9.349609e-01	+6.315189e+00	+1.178196e+02	+5.499275e+00	+8.596550e+01
+7.218060e+08	-4.742215e+00	+9.235880e+01	-4.266297e+01	+2.181745e+01	+9.896929e+00	+1.053170e+02	+8.832034e+00	+8.796469e+01
+7.283946e+08	-4.877412e+00	+8.962205e+01	-3.714034e+01	+1.691591e+02	+2.528834e+01	+8.595234e+01	+2.489654e+01	+8.642708e+01
+7.349833e+08	-4.777858e+00	+9.077628e+01	-4.629012e+01	+9.913351e+01	+1.609531e+01	+9.678745e+01	+1.542013e+01	+8.727416e+01
+7.415719e+08	-4.887771e+00	+8.783378e+01	-3.878208e+01	+1.741890e+02	+2.391546e+01	+7.624251e+01	+2.319165e+01	+6.968776e+01
+7.481605e+08	-4.488014e+00	+8.499981e+01	-3.206987e+01	+6.857447e+01	+2.243641e+01	-5.470348e+01	+2.179415e+01	-5.561427e+01
+7.547492e+08	-4.461573e+00	+8.474090e+01	-3.099689e+01	+8.380088e+01	+2.499253e+01	-1.597679e+01	+2.468347e+01	-2.029113e+01
+7.613378e+08	-4.709043e+00	+8.293152e+01	-3.837792e+01	+6.708328e+01	+1.051981e+01	-8.340686e+01	+9.828288e+00	-7.330615e+01
+7.679264e+08	-4.686272e+00	+8.311882e+01	-3.947028e+01	+9.423110e+01	+8.088285e+00	-8.858420e+01	+7.027573e+00	-7.422238e+01
+7.745151e+08	-4.710484e+00	+8.646884e+01	-3.975646e+01	+8.578470e+01	+6.349233e+00	-9.351118e+01	+4.866803e+00	-7.519862e+01
+7.811037e+08	-4.727066e+00	+8.529126e+01	-4.016250e+01	+8.936961e+01	+5.001773e+00	-9.919072e+01	+3.018497e+00	-7.668135e+01
+7.876923e+08	-4.623345e+00	+8.551232e+01	-4.031088e+01	+1.105666e+02	+3.969362e+00	-1.044296e+02	+1.273850e+00	-7.788691e+01
+7.942809e+08	-4.588944e+00	+8.455836e+01	-3.979975e+01	+1.227687e+02	+1.453758e+00	-1.316464e+02	-6.844674e+00	-7.762928e+01
+8.008696e+08	-4.628218e+00	+8.404494e+01	-4.020202e+01	+1.355045e+02	+2.904177e+00	-1.181148e+02	-2.604476e+00	-8.380916e+01
+8.074582e+08	-4.796689e+00	+8.156713e+01	-4.005011e+01	+1.493829e+02	+3.056693e+00	-1.168681e+02	-2.517097e+00	-8.476043e+01
+8.140468e+08	-3.925903e+00	+6.195980e+01	-3.892938e+01	+1.605238e+02	+2.447695e+00	-1.233206e+02	-5.134598e+00	-8.406644e+01
+8.206355e+08	-4.549302e+00	+6.310260e+01	-3.964848e+01	+1.732961e+02	+1.809395e+00	-1.303124e+02	-8.374994e+00	-8.275930e+01
+8.272241e+08	-4.726944e+00	+6.648611e+01	-3.988259e+01	-1.769505e+02	+1.336087e+00	-1.373221e+02	-1.289244e+01	-7.805268e+01
+8.338127e+08	-4.791989e+00	+6.931440e+01	-3.994308e+01	-1.685779e+02	+8.372251e-01	-1.437351e+02	-2.017869e+01	-5.326651e+01
+8.404013e+08	-4.858837e+00	+7.237075e+01	-4.021751e+01	-1.589259e+02	+2.051308e-01	-1.502573e+02	-2.141627e+01	+3.872212e+01
+8.469900e+08	-4.975943e+00	+7.408057e+01	-4.033578e+01	-1.481041e+02	+1.014468e-01	-1.535240e+02	-1.457453e+01	+6.376668e+01
+8.535786e+08	-5.603621e+00	+7.364300e+01	-4.047285e+01	-1.375138e+02	-5.321169e-02	-1.574043e+02	-1.050827e+01	+7.155783e+01
+8.601672e+08	-4.241573e+00	+7.690719e+01	-4.062799e+01	-1.206410e+02	+1.844629e-01	-1.592259e+02	-5.686604e+00	+7.661772e+01
+8.667559e+08	-5.045587e+00	+7.774290e+01	-4.044155e+01	-9.175119e+01	-6.116232e-01	-1.581970e+02	-7.642986e+00	+7.602155e+01
+8.733445e+08	-5.358963e+00	+8.069098e+01	-4.066328e+01	-9.835217e+01	-6.078656e-01	-1.554541e+02	-6.967142e+00	+7.813415e+01
+8.799331e+08	-5.070879e+00	+7.621333e+01	-4.029072e+01	-9.541310e+01	-4.182247e-01	-1.603134e+02	-4.750282e+00	+8.172866e+01
+8.865217e+08	-5.130492e+00	+7.683500e+01	-4.032595e+01	-8.354421e+01	+1.717645e-01	-1.612003e+02	-2.792035e+00	+8.540612e+01
+8.931104e+08	-5.113219e+00	+7.536098e+01	-4.029576e+01	-7.157967e+01	+1.066491e+00	-1.597662e+02	-8.688907e-01	+8.916866e+01
+8.996990e+08	-4.777549e+00	+7.313667e+01	-3.974772e+01	-6.396225e+01	+2.411418e+00	-1.578994e+02	+1.230115e+00	+9.306018e+01
+9.062876e+08	-4.781084e+00	+7.233862e+01	-3.929071e+01	-5.155146e+01	+4.349851e+00	-1.553686e+02	+3.576972e+00	+9.842839e+01
+9.128763e+08	-5.156989e+00	+7.298351e+01	-4.024863e+01	-1.708284e+02	+7.060751e+00	-1.520459e+02	+6.489990e+00	+1.048272e+02
+9.194649e+08	-4.816134e+00	+7.103221e+01	-3.961128e+01	-1.604132e+02	+1.082694e+01	-1.441710e+02	+1.025379e+01	+1.163257e+02
+9.260535e+08	-5.138334e+00	+7.170497e+01	-4.054372e+01	-1.436152e+02	+9.873205e+00	-4.633976e+01	+8.518910e+00	-1.181753e+02
+9.326421e+08	-5.647277e+00	+7.466835e+01	-3.941284e+01	-1.385143e+02	+1.582678e+01	-4.629726e+01	+1.491370e+01	-1.336171e+02
+9.392308e+08	-4.721844e+00	+6.950262e+01	-3.916007e+01	-1.158177e+02	+1.582288e+01	-2.550891e+01	+1.455939e+01	-1.156108e+02
+9.458194e+08	-4.643326e+00	+6.913579e+01	-4.001331e+01	-1.065924e+02	+9.898903e+00	-8.681461e+00	+8.618960e+00	-9.527778e+01
+9.524080e+08	-4.548607e+00	+6.869873e+01	-3.992309e+01	-9.823037e+01	+6.475626e+00	-5.484870e+00	+4.771467e+00	-8.748495e+01
+9.589967e+08	-4.876604e+00	+6.853753e+01	-3.985523e+01	-8.828809e+01	+4.148256e+00	-5.600077e+00	+1.865406e+00	-8.295740e+01
+9.655853e+08	-4.367416e+00	+6.728513e+01	-4.000912e+01	-7.614022e+01	+2.550647e+00	-6.030526e+00	-4.976528e-01	-7.860531e+01
+9.721739e+08	-4.332836e+00	+7.021402e+01	-3.978146e+01	-7.955493e+01	+1.429748e+00	-7.303192e+00	-2.297765e+00	-7.500475e+01
+9.787625e+08	-4.000697e+00	+6.469160e+01	-3.954744e+01	-7.645452e+01	+9.573194e-01	-6.573941e+00	-3.952332e+00	-7.148923e+01
+9.853512e+08	-4.267013e+00	+6.307645e+01	-3.955685e+01	-6.524172e+01	+2.601596e-01	-1.097479e+01	-5.523816e+00	-6.828976e+01
+9.919398e+08	-4.078898e+00	+6.140297e+01	-3.936578e+01	+1.362078e+02	-3.353688e-02	-1.341243e+01	-7.409791e+00	-6.377107e+01
+9.985284e+08	-3.900641e+00	+5.883655e+01	-3.933088e+01	+1.524348e+02	-3.755067e-01	-2.251128e+01	-1.248580e+01	-4.881888e+01
+1.005117e+09	-3.761933e+00	+5.615499e+01	-3.922004e+01	+1.687744e+02	+5.563409e-01	-4.100161e+00	-9.771451e+00	-6.332912e+01
+1.011706e+09	-3.393333e+00	+5.394369e+01	-3.899318e+01	-1.759076e+02	+1.055342e+00	-1.503602e+01	-1.193788e+01	-6.287955e+01
+1.018294e+09	-3.369630e+00	+5.151650e+01	-3.882807e+01	-1.611141e+02	+1.574539e+00	-2.493173e+01	-1.806364e+01	-4.711439e+01
+1.024883e+09	-3.842922e+00	+5.667124e+01	-3.892421e+01	-1.450844e+02	+2.171818e+00	-3.176940e+01	-2.121359e+01	+3.302226e+01
+1.031472e+09	-4.011033e+00	+5.521206e+01	-3.873431e+01	-1.343240e+02	+3.103569e+00	-4.041768e+01	-1.360737e+01	+6.858856e+01
+1.038060e+09	-4.309039e+00	+5.138318e+01	-3.886811e+01	-1.234935e+02	+3.129762e+00	-4.795824e+01	-8.960147e+00	+7.363980e+01
+1.044649e+09	-4.032554e+00	+4.937289e+01	-3.893329e+01	-1.138550e+02	+3.430089e+00	-5.669347e+01	-6.021141e+00	+7.366882e+01
+1.051237e+09	-4.232510e+00	+4.666290e+01	-3.896219e+01	-1.050267e+02	+3.767623e+00	-6.643178e+01	-3.630434e+00	+7.138829e+01
+1.057826e+09	-4.325643e+00	+4.714806e+01	-3.928808e+01	-9.766695e+01	+5.066072e+00	-8.645573e+01	+6.404109e-01	+7.021532e+01
+1.064415e+09	-4.647736e+00	+4.266837e+01	-3.975736e+01	-8.138170e+01	+3.944673e+00	-8.019883e+01	-1.025165e+00	+6.868051e+01
