# Hz S DB R 50.000000
+1.000000e+06	-1.651579e+01	+9.696010e+01	-4.804770e+01	-8.696682e+01	-4.083611e+01	-8.511496e+01	-1.520285e-01	-9.197105e-02
+8.688963e+06	-8.608783e-03	-1.799406e+02	-4.213911e+01	-7.507884e+01	-4.064680e+01	-8.835831e+01	+1.748308e-01	+1.986944e-01
+1.637793e+07	+2.693349e-02	-1.799854e+02	-4.270537e+01	-5.626673e+01	-4.093712e+01	-8.421158e+01	+5.643184e-01	-1.511227e-01
+2.406689e+07	+5.328402e-03	-1.799862e+02	-4.226897e+01	-3.911865e+01	-4.133057e+01	-7.837105e+01	+9.817592e-01	-6.153990e-01
+3.175585e+07	-2.003364e-02	-1.799193e+02	-4.178766e+01	-2.275533e+01	-4.190630e+01	-7.016472e+01	+1.333171e+00	-4.678561e-01
+3.944482e+07	+5.487645e-03	-1.797338e+02	-3.851666e+01	-7.135311e+00	-4.077610e+01	+1.216775e+02	+1.595110e+00	-1.757691e-01
+4.713378e+07	-7.540123e-03	-1.796636e+02	-4.113529e+01	+6.531545e+00	-4.124421e+01	+1.359431e+02	+1.395168e+00	+1.125631e+00
+5.482274e+07	+4.757039e-02	-1.793110e+02	-4.001997e+01	-1.658597e+02	-4.052704e+01	+1.507925e+02	+8.694937e-01	+1.742057e+00
+6.251171e+07	+5.374966e-02	-1.791724e+02	-4.033360e+01	-1.533853e+02	-4.274041e+01	-1.409950e+01	+1.778969e-01	-1.053655e+01
+7.020067e+07	+1.424188e-02	-1.795000e+02	-4.020084e+01	+4.472305e+01	-4.325309e+01	-2.710335e+00	-1.024696e+00	-4.164053e-01
+7.788963e+07	+3.755421e-02	-1.791985e+02	-4.004487e+01	+5.759894e+01	-4.316162e+01	+6.829973e+00	-2.037203e+00	-1.831014e+00
+8.557860e+07	+8.183903e-02	-1.791087e+02	-3.996648e+01	+7.091139e+01	-4.230519e+01	+1.277043e+01	-2.806338e+00	-2.164538e+00
+9.326756e+07	+6.497415e-02	-1.793123e+02	-4.003258e+01	+8.656119e+01	-4.281300e+01	+1.935559e+01	-3.290976e+00	-1.221257e+00
+1.009565e+08	+5.702049e-02	-1.791856e+02	-3.996703e+01	-9.711928e+01	-4.272103e+01	+2.554572e+01	-3.423108e+00	+2.108457e-01
+1.086455e+08	-1.541090e-02	-1.791323e+02	-4.021798e+01	-8.550206e+01	-4.266873e+01	+3.133166e+01	-3.070851e+00	+2.160158e+00
+1.163344e+08	-3.594755e-03	-1.791736e+02	-4.042112e+01	-7.232594e+01	-4.272225e+01	-1.402960e+02	-2.253851e+00	+3.231382e+00
+1.240234e+08	+1.396401e-02	-1.790683e+02	-4.066854e+01	+1.271615e+02	-4.284696e+01	-1.323503e+02	-1.205433e+00	+2.812393e+00
+1.317124e+08	-2.981308e-02	-1.789873e+02	-4.057222e+01	-4.417494e+01	-4.339631e+01	-1.164856e+02	-5.247839e-01	-3.117131e+01
+1.394013e+08	-1.137272e-02	-1.789842e+02	-4.090437e+01	-3.084505e+01	-4.320467e+01	-1.092996e+02	+7.215796e-01	-1.054324e+01
+1.470903e+08	+6.738303e-02	-1.787938e+02	-4.100352e+01	-1.696965e+01	-3.804478e+01	-1.088258e+02	+1.943515e+00	+4.877095e+00
+1.547793e+08	+5.641952e-02	-1.789503e+02	-4.156752e+01	-2.186264e+00	-4.107162e+01	-9.877845e+01	+2.249920e+00	+7.637031e+00
+1.624682e+08	+1.185367e-01	-1.797689e+02	-3.929707e+01	+1.143349e+01	-4.077054e+01	-9.370100e+01	+2.026577e+00	+8.133894e+00
+1.701572e+08	+4.267337e-01	+1.747564e+02	-4.211699e+01	+2.368474e+01	-4.063255e+01	+1.537192e+02	+1.725248e+00	+8.533287e+00
+1.778462e+08	-1.319205e-01	-1.799225e+02	-4.253132e+01	+4.270897e+01	-3.675165e+01	+1.519433e+02	+9.408448e-01	+6.696573e+00
+1.855351e+08	-2.064327e-01	-1.791709e+02	-4.200710e+01	+5.851422e+01	-4.144191e+01	+1.601844e+02	+1.309307e-01	+5.087344e+00
+1.932241e+08	-1.442849e-01	-1.783685e+02	-4.154963e+01	+6.115936e+01	-4.158710e+01	+1.534545e+02	-3.293347e-01	+4.204560e+00
+2.009130e+08	-7.235880e-02	-1.776993e+02	-4.206528e+01	+7.173229e+01	-4.117714e+01	+1.540986e+02	-5.423690e-01	-3.774816e+01
+2.086020e+08	-2.440645e-02	-1.775998e+02	-4.182305e+01	+9.227575e+01	-4.109514e+01	+1.582860e+02	-8.197870e-01	-9.286323e+00
+2.162910e+08	+8.831084e-02	-1.775828e+02	-4.021128e+01	-5.589425e+01	-4.100516e+01	+1.604617e+02	-6.325942e-01	+4.920515e+00
+2.239799e+08	+6.033475e-02	-1.777402e+02	-4.139165e+01	-3.900458e+01	-4.117105e+01	+1.627345e+02	-2.897562e-01	+6.096725e+00
+2.316689e+08	+1.578695e-01	-1.776105e+02	-4.079139e+01	-2.229287e+01	-4.168764e+01	+1.595530e+02	+2.307324e-01	+6.752879e+00
+2.393579e+08	+2.256354e-01	-1.781019e+02	-4.101192e+01	-1.850653e+01	-4.040030e+01	+3.069900e+01	+6.532886e-01	+7.630357e+00
+2.470468e+08	+2.022793e-01	-1.785129e+02	-4.155099e+01	-4.084625e+00	-4.273657e+01	+3.501697e+01	+6.821886e-01	+7.212549e+00
+2.547358e+08	+9.991603e-02	-1.786527e+02	-4.388063e+01	+1.871126e+01	-4.378074e+01	+3.433244e+01	+1.401558e-01	+6.121920e+00
+2.624247e+08	-4.835943e-03	-1.784486e+02	-4.322920e+01	-1.287986e+02	-3.817128e+01	+3.408091e+01	-1.939778e-02	-5.627153e+00
+2.701137e+08	-1.591503e-02	-1.779173e+02	-4.223085e+01	-1.185675e+02	-4.320885e+01	+4.988868e+01	-1.201009e+00	-1.170831e+01
+2.778027e+08	-2.437868e-03	-1.777637e+02	-4.161680e+01	-1.085300e+02	-4.240826e+01	-9.412226e+01	-2.890913e+00	-3.339442e+00
+2.854916e+08	-4.648637e-02	-1.777471e+02	-4.112463e+01	-9.963452e+01	-4.406577e+01	-1.004576e+02	-4.202444e+00	-5.480294e+00
+2.931806e+08	-8.501099e-02	-1.773880e+02	-4.078139e+01	-1.125836e+02	-4.380411e+01	-1.034773e+02	-5.212797e+00	-4.706710e+00
+3.008696e+08	-1.082475e-01	-1.773436e+02	-4.063972e+01	-1.136428e+02	-4.316755e+01	-9.823092e+01	-5.590229e+00	-1.145715e+00
+3.085585e+08	-1.138254e-01	-1.774034e+02	-4.062399e+01	-1.048878e+02	-4.262483e+01	+7.562111e+01	-5.370239e+00	+3.536998e+00
+3.162475e+08	-1.175575e-01	-1.772782e+02	-4.070983e+01	-9.467932e+01	-4.210286e+01	+7.911922e+01	-4.431842e+00	+7.281720e+00
+3.239365e+08	+2.319272e-01	-1.778727e+02	-4.054097e+01	-8.429155e+01	-4.226080e+01	-8.021102e+01	-3.375826e+00	+5.974597e+00
+3.316254e+08	-1.235434e-01	-1.770659e+02	-4.099982e+01	-7.364900e+01	-4.255374e+01	-7.343956e+01	-2.092894e+00	+4.287602e+00
+3.393144e+08	-7.052223e-02	-1.771157e+02	-4.135837e+01	-6.669936e+01	-4.251724e+01	-7.176680e+01	-5.081495e-01	+7.517405e-01
+3.470033e+08	-1.029515e-01	-1.773295e+02	-4.232287e+01	-4.822839e+01	-4.390895e+01	-6.456615e+01	-1.285663e-01	-2.852983e+01
+3.546923e+08	-2.244879e-02	-1.775671e+02	-4.243723e+01	-3.999813e+01	-4.305314e+01	-6.119420e+01	+1.958486e+00	+8.580716e+00
+3.623813e+08	-9.491040e-02	-1.776544e+02	-4.163140e+01	-3.487918e+01	-4.044823e+01	+1.509674e+02	+2.109854e+00	+1.683270e+01
+3.700702e+08	-1.558318e-02	-1.777294e+02	-4.047042e+01	-3.332111e+01	-4.302301e+01	+1.721489e+02	+1.391634e+00	+1.769310e+01
+3.777592e+08	+1.267706e-02	-1.782707e+02	-3.978973e+01	-9.328629e+01	-3.631920e+01	-1.799693e+02	+6.861453e-01	+1.519068e+01
+3.854482e+08	-6.926824e-04	-1.785698e+02	-3.971253e+01	-7.895628e+01	-4.279582e+01	+1.791977e+02	+1.160602e-02	+1.132399e+01
+3.931371e+08	+8.448259e-02	-1.788078e+02	-4.057840e+01	-8.073250e+01	-4.230438e+01	+1.758322e+02	+1.154588e-01	+2.252986e+00
+4.008261e+08	-2.969915e-01	-1.746924e+02	-4.130801e+01	-7.326815e+01	-4.121945e+01	+1.698806e+02	-3.281481e-02	-9.868739e+00
+4.085151e+08	+2.251882e-01	+1.790424e+02	-4.101465e+01	-6.403253e+01	-4.238084e+01	+5.405474e+01	-1.096839e+00	-2.037460e+01
+4.162040e+08	+3.766654e-01	+1.780361e+02	-4.107516e+01	-5.175154e+01	-4.190359e+01	-1.787428e+02	-1.958709e+00	+2.740228e+00
+4.238930e+08	+5.084835e-01	+1.785594e+02	-4.067442e+01	-4.162755e+01	-4.209385e+01	-1.666136e+02	-1.919402e+00	+1.011662e+01
+4.315819e+08	+6.288426e-01	+1.785657e+02	-3.995753e+01	-3.043828e+01	-4.200568e+01	-1.758597e+02	-1.461673e+00	+1.209761e+01
+4.392709e+08	+6.209939e-01	+1.779065e+02	-4.039445e+01	-3.405441e+01	-4.088501e+01	-1.575812e+02	-6.024343e-01	+1.434553e+01
+4.469599e+08	+6.018380e-01	+1.779267e+02	-4.079473e+01	-1.670496e+02	-3.598692e+01	+1.015644e+02	+3.688113e-01	+1.461568e+01
+4.546488e+08	+5.299352e-01	+1.777995e+02	-4.148025e+01	-1.562385e+02	-3.892243e+01	+1.138640e+02	+9.599463e-01	+1.424232e+01
+4.623378e+08	+8.579804e-01	+1.780817e+02	-4.147045e+01	-1.519655e+02	-4.058055e+01	+1.253716e+02	-3.420180e-02	+1.507251e+01
+4.700268e+08	+4.946187e-01	+1.777799e+02	-4.172805e+01	-1.412156e+02	-4.012889e+01	+1.322354e+02	-6.829363e-01	+7.714278e-01
+4.777157e+08	+2.033873e-01	+1.773686e+02	-4.161982e+01	-1.227742e+02	-3.929213e+01	+1.492106e+02	-1.593153e+00	-3.303198e+01
+4.854047e+08	+2.568791e-01	+1.779200e+02	-4.094015e+01	-1.326091e+02	-3.915308e+01	+1.596622e+02	-2.385684e+00	-1.855066e+01
+4.930936e+08	+2.383132e-01	+1.771874e+02	-4.023568e+01	-1.257265e+02	-3.757210e+01	+1.488287e+02	-3.376904e+00	-8.415946e+00
+5.007826e+08	+2.969979e-01	+1.764604e+02	-3.791560e+01	-1.268292e+02	-4.027446e+01	+1.314623e+02	-4.194236e+00	-8.670574e+00
+5.084716e+08	+1.393786e-01	+1.763211e+02	-3.725749e+01	+1.397922e+02	-4.015847e+01	+1.244284e+02	-4.844703e+00	-6.987232e+00
+5.161605e+08	+1.114175e-01	+1.757103e+02	-3.715224e+01	+1.667217e+02	-3.979694e+01	-1.250993e+01	-4.812677e+00	-2.683486e+00
+5.238495e+08	+9.180858e-02	+1.755189e+02	-3.660487e+01	+1.614070e+02	-4.025888e+01	+7.998041e+00	-4.453332e+00	+1.614157e+00
+5.315385e+08	-9.902521e-02	+1.756186e+02	-3.689847e+01	+1.654305e+02	-4.121341e+01	-1.369896e+01	-3.817788e+00	+2.411226e+00
+5.392274e+08	-5.359700e-02	+1.757786e+02	-3.695777e+01	-7.206280e+01	-4.009014e+01	-1.866110e+01	-2.431595e+00	-5.657532e+00
+5.469164e+08	-4.275701e-01	+1.762721e+02	-3.704445e+01	-5.694759e+01	-4.008068e+01	+1.717484e+02	-1.673065e+00	-5.094079e+00
+5.546054e+08	-1.584737e-01	+1.763619e+02	-3.716238e+01	-5.307307e+01	-4.114730e+01	+1.792116e+02	-1.136631e+00	-3.091085e+01
+5.622943e+08	-2.054252e-01	+1.764153e+02	-3.686417e+01	-1.546257e+02	-4.003946e+01	-1.719284e+02	+7.736893e-01	+5.697476e+00
+5.699833e+08	-2.139272e-01	+1.766019e+02	-3.651517e+01	-1.408988e+02	-4.035983e+01	+1.179977e+01	+1.495441e+00	+2.518193e+01
+5.776722e+08	-2.391344e-01	+1.770205e+02	-3.629852e+01	-1.392865e+02	-4.085310e+01	+1.341565e+01	+1.246739e+00	+2.478688e+01
+5.853612e+08	-6.044063e-01	+1.784709e+02	-3.619009e+01	-1.483600e+02	-4.146316e+01	+1.965274e+01	+9.180550e-01	+2.249334e+01
+5.930502e+08	-1.840078e-01	+1.779374e+02	-3.649907e+01	-1.483962e+02	-4.162774e+01	-1.346905e+02	+9.073490e-01	+1.676940e+01
+6.007391e+08	-1.334751e-01	+1.779912e+02	-3.713558e+01	-1.461136e+02	-4.126592e+01	-1.199271e+02	+1.068659e+00	+1.161202e+01
+6.084281e+08	-1.424444e-01	+1.778915e+02	-3.778762e+01	-1.397545e+02	-4.337689e+01	-1.028059e+02	-9.538922e-01	+3.217653e+00
+6.161171e+08	-3.185223e-02	+1.779507e+02	-3.780235e+01	-1.311163e+02	-4.330531e+01	-8.226299e+01	-1.593165e+00	-2.546962e+01
+6.238060e+08	-4.319469e-03	+1.782767e+02	-3.812719e+01	-1.249339e+02	-4.197100e+01	-9.030935e+01	-1.389058e+00	+4.395672e+00
+6.314950e+08	-6.744069e-03	+1.797119e+02	-3.815613e+01	-1.118387e+02	-4.067638e+01	-8.762831e+01	-1.475309e+00	+9.784067e+00
+6.391839e+08	+7.390349e-03	+1.790307e+02	-3.747806e+01	-9.127710e+01	-4.092819e+01	-8.605399e+01	-1.287465e+00	+1.089611e+01
+6.468729e+08	+1.585149e-01	-1.776614e+02	-3.718301e+01	-1.796015e+02	-4.052456e+01	-8.302651e+01	-8.839751e-01	+1.255648e+01
+6.545619e+08	+1.438114e-01	-1.762601e+02	-3.818429e+01	-1.736989e+02	-4.038606e+01	-7.882904e+01	-5.670028e-01	+1.510717e+01
+6.622508e+08	+1.627859e-01	-1.775992e+02	-3.636461e+01	-1.404436e+02	-4.040271e+01	-8.461231e+01	-2.924366e-01	+1.321810e+01
+6.699398e+08	+1.188392e-01	-1.775565e+02	-3.745425e+01	-1.282020e+02	-4.030436e+01	-8.288946e+01	+2.554480e-03	+6.579494e+00
+6.776288e+08	+5.768146e-02	-1.772588e+02	-3.793673e+01	-1.259758e+02	-3.979450e+01	+1.547527e+02	+5.348811e-01	+3.542625e+00
+6.853177e+08	+4.451003e-02	-1.770570e+02	-3.834556e+01	-1.251003e+02	-3.986730e+01	+1.636965e+02	+2.097080e-01	+3.976822e+00
+6.930067e+08	+4.849980e-03	-1.768500e+02	-3.939024e+01	-1.164798e+02	-4.142925e+01	+1.754770e+02	-7.799859e-01	-3.157544e+01
+7.006957e+08	-4.898440e-02	-1.763546e+02	-3.943608e+01	-1.074767e+02	-4.047244e+01	-1.768958e+02	-4.146909e-01	+4.321166e+00
+7.083846e+08	-5.507910e-03	-1.764464e+02	-3.857819e+01	+4.841945e+01	-4.045859e+01	-1.676272e+02	-5.103832e-01	+1.409975e+01
+7.160736e+08	-6.444370e-02	-1.761053e+02	-3.940247e+01	-8.042166e+01	-4.154652e+01	-1.604025e+02	-9.409490e-01	+1.216502e+01
+7.237625e+08	-1.468136e-01	-1.757792e+02	-3.907952e+01	-7.790035e+01	-4.207932e+01	-1.698646e+02	-1.315046e+00	+1.170644e+01
+7.314515e+08	-1.491681e-01	-1.754424e+02	-3.946045e+01	-5.010765e+01	-3.863638e+01	+1.334359e+01	-1.385972e+00	+1.017528e+01
+7.391405e+08	-1.475333e-01	-1.751480e+02	-3.950820e+01	-3.757483e+01	-4.271417e+01	+2.747563e+01	-1.960760e+00	-4.631834e-01
+7.468294e+08	-1.274991e-01	-1.747861e+02	-3.940593e+01	-2.679199e+01	-4.242703e+01	+3.469977e+01	-1.614629e+00	+1.703576e+00
+7.545184e+08	-1.099579e-01	-1.748182e+02	-3.928057e+01	-1.537641e+01	-4.221963e+01	+4.055049e+01	-1.271278e+00	+3.905403e+00
+7.622074e+08	-1.209511e-01	-1.746067e+02	-3.764514e+01	-7.051860e-01	-4.256731e+01	+4.768863e+01	-1.460984e+00	-2.622223e+01
+7.698963e+08	-1.456152e-01	-1.744179e+02	-3.892000e+01	+1.884006e+01	-4.212332e+01	-1.154873e+02	-7.893054e-01	+6.027602e+00
+7.775853e+08	-1.129420e-01	-1.741610e+02	-3.780206e+01	+1.223991e+01	-4.177903e+01	-1.067446e+02	-5.685135e-01	+1.814183e+01
+7.852742e+08	-5.171047e-02	-1.738874e+02	-3.852474e+01	+1.828336e+01	-4.163936e+01	-9.965834e+01	-5.404507e-01	+1.791381e+01
+7.929632e+08	+3.221970e-02	-1.738848e+02	-3.808002e+01	+2.804940e+01	-3.423435e+01	-9.136818e+01	-1.671485e+00	+1.981696e+01
+8.006522e+08	+5.461060e-02	-1.740627e+02	-3.721160e+01	+3.565208e+01	-4.049799e+01	-8.093385e+01	-1.151981e-01	+1.041149e+01
+8.083411e+08	+7.586082e-03	-1.741937e+02	-3.719830e+01	+4.549466e+01	-4.144970e+01	-7.261994e+01	-7.524139e-01	+2.006043e+00
+8.160301e+08	+6.017802e-02	-1.741290e+02	-3.680306e+01	+5.628511e+01	-4.121523e+01	-6.461743e+01	-5.665361e-01	+6.480493e-01
+8.237191e+08	+6.907495e-02	-1.740640e+02	-3.668719e+01	+6.715798e+01	-4.098281e+01	-5.659728e+01	-4.224189e-01	+2.899034e-01
+8.314080e+08	+1.600575e-02	-1.737942e+02	-3.694751e+01	+7.422786e+01	-4.189176e+01	-5.075905e+01	-5.821665e-01	-1.856615e+01
+8.390970e+08	+4.688822e-02	-1.741663e+02	-3.619696e+01	+8.062345e+01	-4.155835e+01	+1.513800e+02	-1.360637e-01	+1.280907e+01
+8.467860e+08	+1.033331e-01	-1.739445e+02	-3.571024e+01	+8.440831e+01	-4.160961e+01	+1.619883e+02	-2.527769e-02	+2.388122e+01
+8.544749e+08	+1.064512e-01	-1.741425e+02	-3.638483e+01	+1.477727e-01	-3.699815e+01	+1.657102e+02	+1.195294e-01	+2.418381e+01
+8.621639e+08	+2.176906e-01	-1.745194e+02	-3.719386e+01	+1.541073e+01	-4.137504e+01	+1.734169e+02	+4.677318e-01	+2.708979e+01
+8.698528e+08	+1.697836e-01	-1.756620e+02	-3.784027e+01	+3.443950e+01	-4.158543e+01	+1.661236e+02	-8.675616e-01	+8.147672e+00
+8.775418e+08	+2.312744e-01	-1.682388e+02	-3.575416e+01	+1.544549e+02	-4.268844e+01	+1.687770e+02	-7.896672e-01	+6.099488e+00
+8.852308e+08	-3.354882e-02	-1.726047e+02	-3.833458e+01	+4.211719e+01	-4.256311e+01	+1.743764e+02	-9.776561e-01	+6.034513e+00
+8.929197e+08	-2.904248e-01	-1.759764e+02	-3.613235e+01	+5.889415e+01	-4.166363e+01	+1.505783e+01	-1.144647e+00	+4.819586e+00
+9.006087e+08	-3.094583e-01	-1.783133e+02	-3.847738e+01	+7.157751e+01	-4.134511e+01	+2.747246e+01	-1.344475e+00	+3.943294e+00
+9.082977e+08	-3.645704e-01	-1.793713e+02	-3.871351e+01	+8.199698e+01	-4.117349e+01	+3.903607e+01	-1.551814e+00	-5.623514e+00
+9.159866e+08	-3.272114e-01	+1.796170e+02	-3.856969e+01	+9.072409e+01	-4.019503e+01	+4.641096e+01	-1.451048e+00	+1.359346e+01
+9.236756e+08	-2.674726e-01	+1.793185e+02	-3.902669e+01	+9.852654e+01	-3.941785e+01	+5.182750e+01	-1.434257e+00	+1.523614e+01
+9.313645e+08	-2.098378e-01	+1.792564e+02	-3.882472e+01	+1.110652e+02	-4.007300e+01	+5.724515e+01	-6.285662e-01	+2.248115e+01
+9.390535e+08	-1.739863e-01	+1.790326e+02	-3.834754e+01	+1.201270e+02	-3.934614e+01	+6.629152e+01	-4.093423e-01	+6.305987e+00
+9.467425e+08	-1.593078e-01	+1.793150e+02	-3.746804e+01	+1.305174e+02	-4.060026e+01	+7.170469e+01	-6.435559e-01	+5.515359e+00
+9.544314e+08	-1.389737e-01	+1.796877e+02	-3.793425e+01	+1.394533e+02	-4.105635e+01	-8.232158e+01	+1.667749e-01	+9.585062e+00
+9.621204e+08	-2.063081e-01	+1.796877e+02	-3.816252e+01	+1.469802e+02	-4.175816e+01	-7.535093e+01	+5.758031e-01	+1.342933e+01
+9.698094e+08	-1.778703e-01	+1.798621e+02	-3.845154e+01	+1.462414e+02	-4.229253e+01	-7.265301e+01	+6.180021e-01	+1.561261e+01
+9.774983e+08	-1.194696e-01	+1.795012e+02	-3.912273e+01	-2.823031e+01	-4.345508e+01	-6.753525e+01	+2.400531e-01	+2.604582e+00
+9.851873e+08	-9.331884e-02	+1.796320e+02	-3.932151e+01	-1.456224e+01	-4.272440e+01	-6.289430e+01	+5.288787e-01	+2.789749e+01
+9.928763e+08	-1.623379e-01	+1.797656e+02	-3.974391e+01	-9.515712e-01	-4.286890e+01	-5.959165e+01	+2.462043e-01	+3.170291e+01
+1.000565e+09	-1.892003e-01	+1.798224e+02	-4.014021e+01	+1.149677e+01	-4.179174e+01	-2.196814e+01	+1.442841e+00	+3.303857e+01
+1.008254e+09	-1.798145e-01	+1.799784e+02	-3.868812e+01	+2.494480e+01	-4.345306e+01	+1.520864e+02	-4.358750e-01	+1.178492e+01
+1.015943e+09	-1.531601e-01	-1.798897e+02	-4.017539e+01	+3.679187e+01	-4.130806e+01	+1.577734e+02	-7.087864e-01	+9.224960e+00
+1.023632e+09	-1.660109e-01	-1.795355e+02	-4.125615e+01	+4.869458e+01	-4.226788e+01	+1.686781e+02	-7.059150e-01	+8.741216e+00
+1.031321e+09	-1.641579e-01	-1.794678e+02	-4.005056e+01	+6.156461e+01	-4.258292e+01	-1.732359e+02	-7.651532e-01	+7.648752e+00
+1.039010e+09	-2.168071e-01	-1.788027e+02	-3.985099e+01	+7.443827e+01	-4.167312e+01	-1.749392e+02	-8.033681e-01	-2.314245e+01
+1.046699e+09	-3.624554e-01	-1.772346e+02	-3.961673e+01	+9.174192e+01	-4.110132e+01	-1.673512e+02	-8.995410e-01	+7.758190e+00
+1.054388e+09	-1.862831e-01	-1.783376e+02	-3.959271e+01	+1.103080e+02	-4.108395e+01	-1.581676e+02	-6.680893e-01	+2.263527e+01
+1.062077e+09	-1.400144e-01	-1.778453e+02	-3.930480e+01	+1.279064e+02	-4.096653e+01	+3.828958e+01	-2.197786e-01	+3.430112e+01
+1.069766e+09	-2.027737e-01	-1.795331e+02	-3.931508e+01	+1.399469e+02	-4.049739e+01	+4.322573e+01	-7.256766e-01	+1.088606e+01
+1.077455e+09	-1.712609e-01	-1.794066e+02	-3.935604e+01	+1.487877e+02	-4.136363e+01	+4.920359e+01	-5.270548e-01	+7.507409e+00
+1.085144e+09	-1.584330e-01	-1.793980e+02	-3.932889e+01	+1.649062e+02	-4.175421e+01	+5.443923e+01	-3.992618e-01	+7.950687e+00
+1.092833e+09	-1.145235e-01	-1.798206e+02	-3.937568e+01	+5.304594e+01	-4.045250e+01	+5.858292e+01	-3.275405e-01	+6.583735e+00
+1.100522e+09	-1.336022e-01	+1.799212e+02	-4.025170e+01	-1.589204e+02	-4.138415e+01	+6.378513e+01	-4.652294e-01	+3.954397e+00
+1.108211e+09	-1.314456e-01	+1.795333e+02	-4.038280e+01	-1.445284e+02	-4.033127e+01	+7.160851e+01	-5.789048e-01	+1.523196e+00
+1.115900e+09	-1.134613e-01	+1.794060e+02	-3.993660e+01	-1.280394e+02	-4.000866e+01	-8.209417e+01	-1.596905e+00	-2.164166e+01
+1.123589e+09	-1.647842e-01	+1.794134e+02	-3.995747e+01	-1.165664e+02	-3.934632e+01	-7.101078e+01	-5.306512e-01	+1.542329e+01
+1.131278e+09	-1.954324e-01	+1.794054e+02	-3.933261e+01	-1.035185e+02	-3.877132e+01	+1.138101e+02	-6.831037e-01	+2.112088e+01
+1.138967e+09	-2.055573e-01	+1.796049e+02	-3.870504e+01	-9.039840e+01	-4.007211e+01	+1.265531e+02	-1.266489e+00	+5.435200e+00
+1.146656e+09	-2.430312e-01	+1.798374e+02	-3.886380e+01	-7.936085e+01	-3.256762e+01	+1.541667e+02	-8.922207e-01	+7.913030e+00
+1.154344e+09	-2.917388e-01	+1.799143e+02	-3.866446e+01	-6.823579e+01	-4.002623e+01	-1.592340e+01	-6.365515e-01	+1.125974e+01
+1.162033e+09	-1.375626e-01	+1.796071e+02	-3.837660e+01	-1.794402e+02	-4.034849e+01	-1.122292e+01	-2.930617e-01	+1.425226e+01
+1.169722e+09	-1.541217e-01	+1.793306e+02	-3.816479e+01	+1.792162e+02	-3.339762e+01	-1.911638e+00	+8.644636e-01	+1.263864e+01
+1.177411e+09	-1.373452e-01	+1.793528e+02	-3.803362e+01	-1.717317e+02	-4.090439e+01	-4.811746e+00	+6.235001e-02	+1.843692e+01
+1.185100e+09	-1.821723e-01	+1.793706e+02	-3.802226e+01	-1.640414e+02	-4.207413e+01	-7.899814e+00	-3.096455e-01	-6.436079e+00
+1.192789e+09	-1.907452e-01	+1.797907e+02	-3.733201e+01	-1.522162e+02	-4.163908e+01	-8.637123e+00	-7.669188e-02	+2.020936e+01
+1.200478e+09	-1.492825e-01	+1.796974e+02	-3.813886e+01	-1.411735e+02	-4.149025e+01	-1.643361e+02	+9.527876e-01	+4.844090e+01
+1.208167e+09	-1.778356e-01	-1.799831e+02	-3.888727e+01	-1.331086e+02	-4.185903e+01	-1.705830e+02	+2.286206e-01	+2.512957e+01
