# Hz S RI R 50.000000
+1.000000e+06	+1.798240e+00	+1.284457e+00
+8.688963e+06	+1.562463e+00	+1.671554e+00
+1.637793e+07	+1.557185e+00	+1.689150e+00
+2.406689e+07	+1.551906e+00	+1.699707e+00
+3.175585e+07	+1.548387e+00	+1.699707e+00
+3.944482e+07	+1.544868e+00	+1.706745e+00
+4.713378e+07	+1.541349e+00	+1.701466e+00
+5.482274e+07	+1.541349e+00	+1.704985e+00
+6.251171e+07	+1.539589e+00	+1.703226e+00
+7.020067e+07	+1.539589e+00	+1.703226e+00
+7.788963e+07	+1.539589e+00	+1.685630e+00
+8.557860e+07	+1.536070e+00	+1.694428e+00
+9.326756e+07	+1.539589e+00	+1.687390e+00
+1.009565e+08	+1.534311e+00	+1.680352e+00
+1.086455e+08	+1.537830e+00	+1.675073e+00
+1.163344e+08	+1.537830e+00	+1.668035e+00
+1.240234e+08	+1.537830e+00	+1.657478e+00
+1.317124e+08	+1.537830e+00	+1.653959e+00
+1.394013e+08	+1.536070e+00	+1.653959e+00
+1.470903e+08	+1.536070e+00	+1.650440e+00
+1.547793e+08	+1.525513e+00	+1.648680e+00
+1.624682e+08	+1.511437e+00	+1.648680e+00
+1.701572e+08	+1.507918e+00	+1.632845e+00
+1.778462e+08	+1.485044e+00	+1.555425e+00
+1.855351e+08	+1.514956e+00	+1.514956e+00
+1.932241e+08	+1.523754e+00	+1.520235e+00
+2.009130e+08	+1.518475e+00	+1.516716e+00
+2.086020e+08	+1.516716e+00	+1.502639e+00
+2.162910e+08	+1.509677e+00	+1.470968e+00
+2.239799e+08	+1.520235e+00	+1.435777e+00
+2.316689e+08	+1.527273e+00	+1.419941e+00
+2.393579e+08	+1.530792e+00	+1.400587e+00
+2.470468e+08	+1.536070e+00	+1.381232e+00
+2.547358e+08	+1.548387e+00	+1.365396e+00
+2.624247e+08	+1.548387e+00	+1.377713e+00
+2.701137e+08	+1.544868e+00	+1.342522e+00
+2.778027e+08	+1.553666e+00	+1.347801e+00
+2.854916e+08	+1.550147e+00	+1.331965e+00
+2.931806e+08	+1.551906e+00	+1.303812e+00
+3.008696e+08	+1.558944e+00	+1.279179e+00
+3.085585e+08	+1.567742e+00	+1.272141e+00
+3.162475e+08	+1.571261e+00	+1.263343e+00
+3.239365e+08	+1.569501e+00	+1.263343e+00
+3.316254e+08	+1.565982e+00	+1.228152e+00
+3.393144e+08	+1.573021e+00	+1.205279e+00
+3.470033e+08	+1.581818e+00	+1.171848e+00
+3.546923e+08	+1.590616e+00	+1.157771e+00
+3.623813e+08	+1.597654e+00	+1.119062e+00
+3.700702e+08	+1.624047e+00	+1.108504e+00
+3.777592e+08	+1.639883e+00	+1.143695e+00
+3.854482e+08	+1.639883e+00	+1.177126e+00
+3.931371e+08	+1.627566e+00	+1.212317e+00
+4.008261e+08	+1.615249e+00	+1.184164e+00
+4.085151e+08	+1.617009e+00	+1.147214e+00
+4.162040e+08	+1.622287e+00	+1.138416e+00
+4.238930e+08	+1.622287e+00	+1.131378e+00
+4.315819e+08	+1.618768e+00	+1.108504e+00
+4.392709e+08	+1.629326e+00	+1.126100e+00
+4.469599e+08	+1.613490e+00	+1.124340e+00
+4.546488e+08	+1.602933e+00	+1.094428e+00
+4.623378e+08	+1.594135e+00	+1.052199e+00
+4.700268e+08	+1.588856e+00	+1.002933e+00
+4.777157e+08	+1.583578e+00	+9.395894e-01
+4.854047e+08	+1.590616e+00	+8.762463e-01
+4.930936e+08	+1.587097e+00	+8.410557e-01
+5.007826e+08	+1.574780e+00	+7.689150e-01
+5.084716e+08	+1.574780e+00	+7.671554e-01
+5.161605e+08	+1.564223e+00	+6.281525e-01
+5.238495e+08	+1.597654e+00	+4.486804e-01
+5.315385e+08	+1.660997e+00	+4.750733e-01
+5.392274e+08	+1.696188e+00	+4.574780e-01
+5.469164e+08	+1.710264e+00	+5.014663e-01
+5.546054e+08	+1.733138e+00	+5.401760e-01
+5.622943e+08	+1.741935e+00	+5.472141e-01
+5.699833e+08	+1.750733e+00	+5.489736e-01
+5.776722e+08	+1.768328e+00	+5.630499e-01
+5.853612e+08	+1.777126e+00	+5.912023e-01
+5.930502e+08	+1.792962e+00	+6.580645e-01
+6.007391e+08	+1.771848e+00	+6.791789e-01
+6.084281e+08	+1.791202e+00	+6.967742e-01
+6.161171e+08	+1.789443e+00	+6.932551e-01
+6.238060e+08	+1.764809e+00	+6.721408e-01
+6.314950e+08	+1.784164e+00	+6.334311e-01
+6.391839e+08	+1.775367e+00	+6.105572e-01
+6.468729e+08	+1.763050e+00	+5.612903e-01
+6.545619e+08	+1.754252e+00	+5.331378e-01
+6.622508e+08	+1.757771e+00	+4.926686e-01
+6.699398e+08	+1.748974e+00	+4.961877e-01
+6.776288e+08	+1.740176e+00	+5.155425e-01
+6.853177e+08	+1.729619e+00	+5.419355e-01
+6.930067e+08	+1.712023e+00	+5.595308e-01
+7.006957e+08	+1.720821e+00	+5.824047e-01
+7.083846e+08	+1.620528e+00	+6.439883e-01
+7.160736e+08	+1.676833e+00	+7.090909e-01
+7.237625e+08	+1.662757e+00	+7.689150e-01
+7.314515e+08	+1.650440e+00	+8.304985e-01
+7.391405e+08	+1.638123e+00	+8.903226e-01
+7.468294e+08	+1.636364e+00	+9.343109e-01
+7.545184e+08	+1.625806e+00	+9.695015e-01
+7.622074e+08	+1.613490e+00	+1.002933e+00
+7.698963e+08	+1.599413e+00	+1.031085e+00
+7.775853e+08	+1.587097e+00	+1.083871e+00
+7.852742e+08	+1.576540e+00	+1.129619e+00
+7.929632e+08	+1.573021e+00	+1.164809e+00
+8.006522e+08	+1.565982e+00	+1.189443e+00
+8.083411e+08	+1.557185e+00	+1.207038e+00
+8.160301e+08	+1.546628e+00	+1.229912e+00
+8.237191e+08	+1.532551e+00	+1.259824e+00
+8.314080e+08	+1.518475e+00	+1.295015e+00
+8.390970e+08	+1.509677e+00	+1.337243e+00
+8.467860e+08	+1.507918e+00	+1.377713e+00
+8.544749e+08	+1.507918e+00	+1.400587e+00
+8.621639e+08	+1.506158e+00	+1.412903e+00
+8.698528e+08	+1.504399e+00	+1.428739e+00
+8.775418e+08	+1.500880e+00	+1.439296e+00
+8.852308e+08	+1.497361e+00	+1.395308e+00
+8.929197e+08	+1.490323e+00	+1.451613e+00
+9.006087e+08	+1.483284e+00	+1.458651e+00
+9.082977e+08	+1.472727e+00	+1.470968e+00
+9.159866e+08	+1.463930e+00	+1.485044e+00
+9.236756e+08	+1.456891e+00	+1.502639e+00
+9.313645e+08	+1.448094e+00	+1.520235e+00
+9.390535e+08	+1.442815e+00	+1.532551e+00
+9.467425e+08	+1.435777e+00	+1.550147e+00
+9.544314e+08	+1.428739e+00	+1.562463e+00
+9.621204e+08	+1.421701e+00	+1.576540e+00
+9.698094e+08	+1.414663e+00	+1.594135e+00
+9.774983e+08	+1.407625e+00	+1.609971e+00
+9.851873e+08	+1.400587e+00	+1.604692e+00
+9.928763e+08	+1.393548e+00	+1.643402e+00
+1.000565e+09	+1.395308e+00	+1.641642e+00
+1.008254e+09	+1.391789e+00	+1.653959e+00
+1.015943e+09	+1.386510e+00	+1.664516e+00
+1.023632e+09	+1.384751e+00	+1.641642e+00
+1.031321e+09	+1.377713e+00	+1.685630e+00
+1.039010e+09	+1.365396e+00	+1.690909e+00
+1.046699e+09	+1.360117e+00	+1.699707e+00
+1.054388e+09	+1.356598e+00	+1.696188e+00
+1.062077e+09	+1.349560e+00	+1.676833e+00
+1.069766e+09	+1.344282e+00	+1.713783e+00
+1.077455e+09	+1.339003e+00	+1.713783e+00
+1.085144e+09	+1.333724e+00	+1.713783e+00
+1.092833e+09	+1.330205e+00	+1.708504e+00
+1.100522e+09	+1.324927e+00	+1.701466e+00
+1.108211e+09	+1.323167e+00	+1.692669e+00
+1.115900e+09	+1.319648e+00	+1.680352e+00
+1.123589e+09	+1.317889e+00	+1.675073e+00
+1.131278e+09	+1.316129e+00	+1.662757e+00
+1.138967e+09	+1.316129e+00	+1.653959e+00
+1.146656e+09	+1.312610e+00	+1.641642e+00
+1.154344e+09	+1.310850e+00	+1.627566e+00
+1.162033e+09	+1.310850e+00	+1.601173e+00
+1.169722e+09	+1.312610e+00	+1.601173e+00
+1.177411e+09	+1.310850e+00	+1.599413e+00
+1.185100e+09	+1.307331e+00	+1.594135e+00
+1.192789e+09	+1.302053e+00	+1.583578e+00
+1.200478e+09	+1.298534e+00	+1.565982e+00
+1.208167e+09	+1.298534e+00	+1.553666e+00
+1.215856e+09	+1.298534e+00	+1.539589e+00
+1.223545e+09	+1.296774e+00	+1.529032e+00
+1.231234e+09	+1.295015e+00	+1.521994e+00
+1.238923e+09	+1.293255e+00	+1.518475e+00
+1.246612e+09	+1.289736e+00	+1.511437e+00
+1.254301e+09	+1.286217e+00	+1.507918e+00
+1.261990e+09	+1.280938e+00	+1.506158e+00
+1.269679e+09	+1.275660e+00	+1.500880e+00
+1.277368e+09	+1.268622e+00	+1.493842e+00
+1.285057e+09	+1.261584e+00	+1.481525e+00
+1.292746e+09	+1.256305e+00	+1.472727e+00
+1.300435e+09	+1.252786e+00	+1.458651e+00
+1.308124e+09	+1.247507e+00	+1.448094e+00
+1.315813e+09	+1.242229e+00	+1.434018e+00
+1.323502e+09	+1.236950e+00	+1.419941e+00
+1.331191e+09	+1.231672e+00	+1.409384e+00
+1.338880e+09	+1.226393e+00	+1.397067e+00
+1.346569e+09	+1.221114e+00	+1.381232e+00
+1.354258e+09	+1.217595e+00	+1.367155e+00
+1.361946e+09	+1.212317e+00	+1.351320e+00
+1.369635e+09	+1.210557e+00	+1.337243e+00
+1.377324e+09	+1.207038e+00	+1.323167e+00
+1.385013e+09	+1.203519e+00	+1.314370e+00
+1.392702e+09	+1.201760e+00	+1.303812e+00
+1.400391e+09	+1.194721e+00	+1.291496e+00
+1.408080e+09	+1.189443e+00	+1.273900e+00
+1.415769e+09	+1.185924e+00	+1.256305e+00
+1.423458e+09	+1.184164e+00	+1.236950e+00
+1.431147e+09	+1.182405e+00	+1.221114e+00
+1.438836e+09	+1.182405e+00	+1.203519e+00
+1.446525e+09	+1.184164e+00	+1.189443e+00
+1.454214e+09	+1.184164e+00	+1.184164e+00
+1.461903e+09	+1.185924e+00	+1.184164e+00
+1.469592e+09	+1.182405e+00	+1.182405e+00
+1.477281e+09	+1.177126e+00	+1.180645e+00
+1.484970e+09	+1.175367e+00	+1.173607e+00
+1.492659e+09	+1.173607e+00	+1.166569e+00
+1.500348e+09	+1.171848e+00	+1.157771e+00
+1.508037e+09	+1.170088e+00	+1.156012e+00
+1.515726e+09	+1.166569e+00	+1.150733e+00
+1.523415e+09	+1.159531e+00	+1.140176e+00
+1.531104e+09	+1.157771e+00	+1.136657e+00
+1.538793e+09	+1.152493e+00	+1.127859e+00
+1.546482e+09	+1.148974e+00	+1.120821e+00
+1.554171e+09	+1.145455e+00	+1.115543e+00
+1.561860e+09	+1.141935e+00	+1.112023e+00
+1.569548e+09	+1.134897e+00	+1.108504e+00
+1.577237e+09	+1.129619e+00	+1.099707e+00
+1.584926e+09	+1.122581e+00	+1.089150e+00
+1.592615e+09	+1.117302e+00	+1.073314e+00
+1.600304e+09	+1.112023e+00	+1.059238e+00
+1.607993e+09	+1.108504e+00	+1.041642e+00
+1.615682e+09	+1.104985e+00	+1.027566e+00
+1.623371e+09	+1.101466e+00	+1.013490e+00
+1.631060e+09	+1.099707e+00	+9.976540e-01
+1.638749e+09	+1.097947e+00	+9.818182e-01
+1.646438e+09	+1.096188e+00	+9.712610e-01
+1.654127e+09	+1.094428e+00	+9.589443e-01
+1.661816e+09	+1.090909e+00	+9.466276e-01
+1.669505e+09	+1.089150e+00	+9.360704e-01
+1.677194e+09	+1.087390e+00	+9.237537e-01
+1.684883e+09	+1.085630e+00	+9.114370e-01
+1.692572e+09	+1.082111e+00	+9.026393e-01
+1.700261e+09	+1.080352e+00	+8.920821e-01
+1.707950e+09	+1.076833e+00	+8.832845e-01
+1.715639e+09	+1.073314e+00	+8.727273e-01
+1.723328e+09	+1.069795e+00	+8.621701e-01
+1.731017e+09	+1.066276e+00	+8.498534e-01
+1.738706e+09	+1.060997e+00	+8.375367e-01
+1.746395e+09	+1.057478e+00	+8.252199e-01
+1.754084e+09	+1.052199e+00	+8.111437e-01
+1.761773e+09	+1.046921e+00	+7.953079e-01
+1.769462e+09	+1.043402e+00	+7.777126e-01
+1.777151e+09	+1.038123e+00	+7.583578e-01
+1.784839e+09	+1.034604e+00	+7.372434e-01
+1.792528e+09	+1.031085e+00	+7.161290e-01
+1.800217e+09	+1.027566e+00	+6.914956e-01
+1.807906e+09	+1.025806e+00	+6.686217e-01
+1.815595e+09	+1.024047e+00	+6.422287e-01
+1.823284e+09	+1.022287e+00	+6.175953e-01
+1.830973e+09	+1.024047e+00	+5.912023e-01
+1.838662e+09	+1.024047e+00	+5.665689e-01
+1.846351e+09	+1.025806e+00	+5.419355e-01
+1.854040e+09	+1.027566e+00	+5.225806e-01
+1.861729e+09	+1.029326e+00	+4.997067e-01
+1.869418e+09	+1.032845e+00	+4.821114e-01
+1.877107e+09	+1.032845e+00	+4.821114e-01
+1.884796e+09	+1.036364e+00	+4.504399e-01
+1.892485e+09	+1.039883e+00	+4.381232e-01
+1.900174e+09	+1.043402e+00	+4.275660e-01
+1.907863e+09	+1.045161e+00	+4.134897e-01
+1.915552e+09	+1.046921e+00	+4.082111e-01
+1.923241e+09	+1.046921e+00	+4.082111e-01
+1.930930e+09	+1.048680e+00	+3.976540e-01
+1.938619e+09	+1.048680e+00	+3.923754e-01
+1.946308e+09	+1.046921e+00	+3.870968e-01
+1.953997e+09	+1.046921e+00	+3.835777e-01
+1.961686e+09	+1.045161e+00	+3.782991e-01
+1.969375e+09	+1.043402e+00	+3.747801e-01
+1.977064e+09	+1.041642e+00	+3.712610e-01
+1.984753e+09	+1.038123e+00	+3.659824e-01
+1.992441e+09	+1.036364e+00	+3.607038e-01
+2.000130e+09	+1.032845e+00	+3.571848e-01
+2.007819e+09	+1.027566e+00	+3.501466e-01
+2.015508e+09	+1.024047e+00	+3.431085e-01
+2.023197e+09	+1.018768e+00	+3.360704e-01
+2.030886e+09	+1.015249e+00	+3.272727e-01
+2.038575e+09	+1.011730e+00	+3.184751e-01
+2.046264e+09	+1.008211e+00	+3.079179e-01
+2.053953e+09	+1.004692e+00	+2.973607e-01
+2.061642e+09	+1.001173e+00	+2.868035e-01
+2.069331e+09	+9.976540e-01	+2.744868e-01
+2.077020e+09	+9.958944e-01	+2.639296e-01
+2.084709e+09	+9.941349e-01	+2.533724e-01
+2.092398e+09	+9.923754e-01	+2.428152e-01
+2.100087e+09	+9.923754e-01	+2.428152e-01
+2.107776e+09	+9.888563e-01	+2.252199e-01
+2.115465e+09	+9.888563e-01	+2.164223e-01
+2.123154e+09	+9.888563e-01	+2.111437e-01
+2.130843e+09	+9.870968e-01	+2.076246e-01
+2.138532e+09	+9.870968e-01	+2.023460e-01
+2.146221e+09	+9.853372e-01	+1.988270e-01
+2.153910e+09	+9.853372e-01	+1.970674e-01
+2.161599e+09	+9.818182e-01	+1.953079e-01
+2.169288e+09	+9.800587e-01	+1.953079e-01
+2.176977e+09	+9.782991e-01	+1.935484e-01
+2.184666e+09	+9.747801e-01	+1.935484e-01
+2.192355e+09	+9.695015e-01	+1.917889e-01
+2.200043e+09	+9.149560e-01	+1.917889e-01
+2.207732e+09	+9.624633e-01	+1.900293e-01
+2.215421e+09	+9.571848e-01	+1.900293e-01
+2.223110e+09	+9.519062e-01	+1.865103e-01
+2.230799e+09	+9.448680e-01	+1.865103e-01
+2.238488e+09	+9.395894e-01	+1.829912e-01
+2.246177e+09	+9.343109e-01	+1.794721e-01
+2.253866e+09	+9.272727e-01	+1.759531e-01
+2.261555e+09	+9.202346e-01	+1.724340e-01
+2.269244e+09	+9.131965e-01	+1.671554e-01
+2.276933e+09	+9.061584e-01	+1.618768e-01
+2.284622e+09	+8.991202e-01	+1.565982e-01
+2.292311e+09	+8.920821e-01	+1.513196e-01
+2.300000e+09	+8.850440e-01	+1.460411e-01
