# Hz S RI R 50.000000
+1.000000e+06	+1.567742e+00	+1.738416e+00
+8.688963e+06	+1.555425e+00	+1.727859e+00
+1.637793e+07	+1.532551e+00	+1.752493e+00
+2.406689e+07	+1.514956e+00	+1.750733e+00
+3.175585e+07	+1.502639e+00	+1.722581e+00
+3.944482e+07	+1.497361e+00	+1.675073e+00
+4.713378e+07	+1.497361e+00	+1.595894e+00
+5.482274e+07	+1.504399e+00	+1.518475e+00
+6.251171e+07	+1.516716e+00	+1.444575e+00
+7.020067e+07	+1.534311e+00	+1.374194e+00
+7.788963e+07	+1.557185e+00	+1.314370e+00
+8.557860e+07	+1.587097e+00	+1.270381e+00
+9.326756e+07	+1.615249e+00	+1.252786e+00
+1.009565e+08	+1.648680e+00	+1.268622e+00
+1.086455e+08	+1.668035e+00	+1.321408e+00
+1.163344e+08	+1.666276e+00	+1.400587e+00
+1.240234e+08	+1.650440e+00	+1.486804e+00
+1.317124e+08	+1.615249e+00	+1.536070e+00
+1.394013e+08	+1.576540e+00	+1.537830e+00
+1.470903e+08	+1.534311e+00	+1.509677e+00
+1.547793e+08	+1.502639e+00	+1.455132e+00
+1.624682e+08	+1.472727e+00	+1.382991e+00
+1.701572e+08	+1.451613e+00	+1.300293e+00
+1.778462e+08	+1.432258e+00	+1.210557e+00
+1.855351e+08	+1.419941e+00	+1.110264e+00
+1.932241e+08	+1.411144e+00	+1.006452e+00
+2.009130e+08	+1.405865e+00	+8.973607e-01
+2.086020e+08	+1.405865e+00	+7.882698e-01
+2.162910e+08	+1.411144e+00	+6.809384e-01
+2.239799e+08	+1.423460e+00	+5.859238e-01
+2.316689e+08	+1.430499e+00	+4.979472e-01
+2.393579e+08	+1.444575e+00	+3.923754e-01
+2.470468e+08	+1.467449e+00	+3.026393e-01
+2.547358e+08	+1.490323e+00	+2.516129e-01
+2.624247e+08	+1.485044e+00	+1.530792e-01
+2.701137e+08	+1.550147e+00	+1.073314e-01
+2.778027e+08	+1.625806e+00	+1.724340e-01
+2.854916e+08	+1.697947e+00	+3.114370e-01
+2.931806e+08	+1.756012e+00	+4.856305e-01
+3.008696e+08	+1.771848e+00	+6.826979e-01
+3.085585e+08	+1.719062e+00	+7.565982e-01
+3.162475e+08	+1.638123e+00	+7.460411e-01
+3.239365e+08	+1.576540e+00	+6.756598e-01
+3.316254e+08	+1.527273e+00	+5.788856e-01
+3.393144e+08	+1.488563e+00	+4.680352e-01
+3.470033e+08	+1.465689e+00	+3.536657e-01
+3.546923e+08	+1.448094e+00	+2.410557e-01
+3.623813e+08	+1.441056e+00	+1.442815e-01
+3.700702e+08	+1.439296e+00	+7.917889e-02
+3.777592e+08	+1.434018e+00	+5.454545e-02
+3.854482e+08	+1.430499e+00	+8.797654e-02
+3.931371e+08	+1.435777e+00	+1.601173e-01
+4.008261e+08	+1.442815e+00	+2.674487e-01
+4.085151e+08	+1.467449e+00	+3.712610e-01
+4.162040e+08	+1.485044e+00	+4.222874e-01
+4.238930e+08	+1.499120e+00	+5.278592e-01
+4.315819e+08	+1.560704e+00	+6.527859e-01
+4.392709e+08	+1.631085e+00	+6.140762e-01
+4.469599e+08	+1.660997e+00	+5.665689e-01
+4.546488e+08	+1.689150e+00	+4.944282e-01
+4.623378e+08	+1.683871e+00	+3.466276e-01
+4.700268e+08	+1.627566e+00	+2.357771e-01
+4.777157e+08	+1.565982e+00	+1.882698e-01
+4.854047e+08	+1.507918e+00	+1.970674e-01
+4.930936e+08	+1.455132e+00	+2.621701e-01
+5.007826e+08	+1.416422e+00	+3.624633e-01
+5.084716e+08	+1.390029e+00	+4.715543e-01
+5.161605e+08	+1.370674e+00	+5.876833e-01
+5.238495e+08	+1.365396e+00	+7.020528e-01
+5.315385e+08	+1.363636e+00	+7.917889e-01
+5.392274e+08	+1.358358e+00	+8.797654e-01
+5.469164e+08	+1.349560e+00	+9.712610e-01
+5.546054e+08	+1.344282e+00	+1.076833e+00
+5.622943e+08	+1.344282e+00	+1.184164e+00
+5.699833e+08	+1.346041e+00	+1.296774e+00
+5.776722e+08	+1.354839e+00	+1.418182e+00
+5.853612e+08	+1.368915e+00	+1.543109e+00
+5.930502e+08	+1.388270e+00	+1.660997e+00
+6.007391e+08	+1.412903e+00	+1.770088e+00
+6.084281e+08	+1.442815e+00	+1.798240e+00
+6.161171e+08	+1.486804e+00	+1.713783e+00
+6.238060e+08	+1.546628e+00	+1.576540e+00
+6.314950e+08	+1.629326e+00	+1.404106e+00
+6.391839e+08	+1.736657e+00	+1.140176e+00
+6.468729e+08	+1.800000e+00	+7.319648e-01
+6.545619e+08	+1.773607e+00	+4.785924e-01
+6.622508e+08	+1.668035e+00	+5.876833e-01
+6.699398e+08	+1.569501e+00	+7.812317e-01
+6.776288e+08	+1.499120e+00	+9.483871e-01
+6.853177e+08	+1.448094e+00	+1.096188e+00
+6.930067e+08	+1.411144e+00	+1.236950e+00
+7.006957e+08	+1.384751e+00	+1.365396e+00
+7.083846e+08	+1.361877e+00	+1.488563e+00
+7.160736e+08	+1.344282e+00	+1.620528e+00
+7.237625e+08	+1.337243e+00	+1.747214e+00
+7.314515e+08	+1.333724e+00	+1.800000e+00
+7.391405e+08	+1.335484e+00	+1.773607e+00
+7.468294e+08	+1.342522e+00	+1.673314e+00
+7.545184e+08	+1.353079e+00	+1.551906e+00
+7.622074e+08	+1.368915e+00	+1.430499e+00
+7.698963e+08	+1.391789e+00	+1.310850e+00
+7.775853e+08	+1.425220e+00	+1.191202e+00
+7.852742e+08	+1.469208e+00	+1.076833e+00
+7.929632e+08	+1.530792e+00	+9.765396e-01
+8.006522e+08	+1.608211e+00	+9.061584e-01
+8.083411e+08	+1.699707e+00	+8.903226e-01
+8.160301e+08	+1.778886e+00	+9.906158e-01
+8.237191e+08	+1.778886e+00	+1.295015e+00
+8.314080e+08	+1.678592e+00	+1.546628e+00
+8.390970e+08	+1.576540e+00	+1.682111e+00
+8.467860e+08	+1.502639e+00	+1.748974e+00
+8.544749e+08	+1.448094e+00	+1.701466e+00
+8.621639e+08	+1.411144e+00	+1.594135e+00
+8.698528e+08	+1.381232e+00	+1.472727e+00
+8.775418e+08	+1.358358e+00	+1.353079e+00
+8.852308e+08	+1.339003e+00	+1.233431e+00
+8.929197e+08	+1.323167e+00	+1.110264e+00
+9.006087e+08	+1.310850e+00	+9.853372e-01
+9.082977e+08	+1.303812e+00	+8.533724e-01
+9.159866e+08	+1.302053e+00	+7.161290e-01
+9.236756e+08	+1.302053e+00	+5.806452e-01
+9.313645e+08	+1.309091e+00	+4.469208e-01
+9.390535e+08	+1.321408e+00	+3.061584e-01
+9.467425e+08	+1.337243e+00	+1.724340e-01
+9.544314e+08	+1.358358e+00	+8.269795e-02
+9.621204e+08	+1.390029e+00	+8.797654e-02
+9.698094e+08	+1.428739e+00	+1.882698e-01
+9.774983e+08	+1.481525e+00	+3.431085e-01
+9.851873e+08	+1.543109e+00	+5.507331e-01
+9.928763e+08	+1.617009e+00	+8.023460e-01
+1.000565e+09	+1.685630e+00	+1.089150e+00
+1.008254e+09	+1.708504e+00	+1.314370e+00
+1.015943e+09	+1.662757e+00	+1.314370e+00
+1.023632e+09	+1.594135e+00	+1.103226e+00
+1.031321e+09	+1.525513e+00	+8.885630e-01
+1.039010e+09	+1.469208e+00	+7.161290e-01
+1.046699e+09	+1.428739e+00	+5.472141e-01
+1.054388e+09	+1.395308e+00	+3.994135e-01
+1.062077e+09	+1.370674e+00	+2.568915e-01
+1.069766e+09	+1.354839e+00	+1.354839e-01
+1.077455e+09	+1.342522e+00	+7.390029e-02
+1.085144e+09	+1.335484e+00	+1.055718e-01
+1.092833e+09	+1.333724e+00	+2.076246e-01
+1.100522e+09	+1.333724e+00	+3.431085e-01
+1.108211e+09	+1.337243e+00	+4.891496e-01
+1.115900e+09	+1.342522e+00	+6.387097e-01
+1.123589e+09	+1.353079e+00	+7.882698e-01
+1.131278e+09	+1.365396e+00	+9.431085e-01
+1.138967e+09	+1.381232e+00	+1.103226e+00
+1.146656e+09	+1.402346e+00	+1.266862e+00
+1.154344e+09	+1.432258e+00	+1.434018e+00
+1.162033e+09	+1.465689e+00	+1.590616e+00
+1.169722e+09	+1.516716e+00	+1.675073e+00
+1.177411e+09	+1.580059e+00	+1.595894e+00
+1.185100e+09	+1.631085e+00	+1.342522e+00
+1.192789e+09	+1.655718e+00	+1.034604e+00
+1.200478e+09	+1.668035e+00	+7.249267e-01
+1.208167e+09	+1.646921e+00	+4.434018e-01
+1.215856e+09	+1.601173e+00	+3.043988e-01
+1.223545e+09	+1.558944e+00	+3.818182e-01
+1.231234e+09	+1.521994e+00	+5.577713e-01
+1.238923e+09	+1.488563e+00	+7.689150e-01
+1.246612e+09	+1.456891e+00	+9.571848e-01
+1.254301e+09	+1.430499e+00	+1.122581e+00
+1.261990e+09	+1.428739e+00	+1.279179e+00
+1.269679e+09	+1.398827e+00	+1.428739e+00
+1.277368e+09	+1.393548e+00	+1.569501e+00
+1.285057e+09	+1.395308e+00	+1.680352e+00
+1.292746e+09	+1.407625e+00	+1.724340e+00
+1.300435e+09	+1.419941e+00	+1.652199e+00
+1.308124e+09	+1.435777e+00	+1.465689e+00
+1.315813e+09	+1.437537e+00	+1.236950e+00
+1.323502e+09	+1.435777e+00	+1.027566e+00
+1.331191e+09	+1.434018e+00	+8.445748e-01
+1.338880e+09	+1.430499e+00	+6.739003e-01
+1.346569e+09	+1.439296e+00	+4.997067e-01
+1.354258e+09	+1.444575e+00	+3.325513e-01
+1.361946e+09	+1.449853e+00	+2.023460e-01
+1.369635e+09	+1.451613e+00	+1.741935e-01
+1.377324e+09	+1.446334e+00	+2.621701e-01
+1.385013e+09	+1.441056e+00	+4.205279e-01
+1.392702e+09	+1.435777e+00	+5.912023e-01
+1.400391e+09	+1.439296e+00	+7.530792e-01
+1.408080e+09	+1.444575e+00	+8.956012e-01
+1.415769e+09	+1.462170e+00	+1.034604e+00
+1.423458e+09	+1.483284e+00	+1.170088e+00
+1.431147e+09	+1.518475e+00	+1.305572e+00
+1.438836e+09	+1.562463e+00	+1.432258e+00
+1.446525e+09	+1.620528e+00	+1.502639e+00
+1.454214e+09	+1.694428e+00	+1.455132e+00
+1.461903e+09	+1.764809e+00	+1.212317e+00
+1.469592e+09	+1.768328e+00	+7.935484e-01
+1.477281e+09	+1.715543e+00	+4.574780e-01
+1.484970e+09	+1.620528e+00	+3.307918e-01
+1.492659e+09	+1.536070e+00	+3.782991e-01
+1.500348e+09	+1.469208e+00	+4.838710e-01
+1.508037e+09	+1.418182e+00	+6.017595e-01
+1.515726e+09	+1.379472e+00	+7.161290e-01
+1.523415e+09	+1.349560e+00	+8.287390e-01
+1.531104e+09	+1.323167e+00	+9.360704e-01
+1.538793e+09	+1.303812e+00	+1.041642e+00
+1.546482e+09	+1.287977e+00	+1.145455e+00
+1.554171e+09	+1.277419e+00	+1.245748e+00
+1.561860e+09	+1.270381e+00	+1.346041e+00
+1.569548e+09	+1.265103e+00	+1.441056e+00
+1.577237e+09	+1.265103e+00	+1.534311e+00
+1.584926e+09	+1.266862e+00	+1.615249e+00
+1.592615e+09	+1.273900e+00	+1.682111e+00
+1.600304e+09	+1.279179e+00	+1.726100e+00
+1.607993e+09	+1.289736e+00	+1.752493e+00
+1.615682e+09	+1.298534e+00	+1.763050e+00
+1.623371e+09	+1.307331e+00	+1.761290e+00
+1.631060e+09	+1.314370e+00	+1.770088e+00
+1.638749e+09	+1.314370e+00	+1.768328e+00
+1.646438e+09	+1.309091e+00	+1.768328e+00
+1.654127e+09	+1.296774e+00	+1.770088e+00
+1.661816e+09	+1.280938e+00	+1.770088e+00
+1.669505e+09	+1.261584e+00	+1.771848e+00
+1.677194e+09	+1.238710e+00	+1.766569e+00
+1.684883e+09	+1.217595e+00	+1.763050e+00
+1.692572e+09	+1.198240e+00	+1.750733e+00
+1.700261e+09	+1.178886e+00	+1.720821e+00
+1.707950e+09	+1.164809e+00	+1.678592e+00
+1.715639e+09	+1.148974e+00	+1.625806e+00
+1.723328e+09	+1.136657e+00	+1.558944e+00
+1.731017e+09	+1.127859e+00	+1.488563e+00
+1.738706e+09	+1.119062e+00	+1.414663e+00
+1.746395e+09	+1.115543e+00	+1.344282e+00
+1.754084e+09	+1.108504e+00	+1.272141e+00
+1.761773e+09	+1.104985e+00	+1.203519e+00
+1.769462e+09	+1.104985e+00	+1.136657e+00
+1.777151e+09	+1.104985e+00	+1.073314e+00
+1.784839e+09	+1.106745e+00	+1.013490e+00
+1.792528e+09	+1.108504e+00	+9.589443e-01
+1.800217e+09	+1.112023e+00	+9.114370e-01
+1.807906e+09	+1.113783e+00	+8.709677e-01
+1.815595e+09	+1.113783e+00	+8.322581e-01
+1.823284e+09	+1.115543e+00	+7.970674e-01
+1.830973e+09	+1.112023e+00	+7.671554e-01
+1.838662e+09	+1.108504e+00	+7.354839e-01
+1.846351e+09	+1.101466e+00	+7.073314e-01
+1.854040e+09	+1.092669e+00	+6.774194e-01
+1.861729e+09	+1.082111e+00	+6.439883e-01
+1.869418e+09	+1.071554e+00	+6.035191e-01
+1.877107e+09	+1.060997e+00	+5.595308e-01
+1.884796e+09	+1.048680e+00	+5.102639e-01
+1.892485e+09	+1.039883e+00	+4.539589e-01
+1.900174e+09	+1.029326e+00	+3.958944e-01
+1.907863e+09	+1.018768e+00	+3.343109e-01
+1.915552e+09	+1.011730e+00	+2.797654e-01
+1.923241e+09	+1.004692e+00	+2.234604e-01
+1.930930e+09	+9.976540e-01	+1.741935e-01
+1.938619e+09	+9.923754e-01	+1.337243e-01
+1.946308e+09	+9.888563e-01	+1.090909e-01
+1.953997e+09	+9.853372e-01	+9.677419e-02
+1.961686e+09	+9.818182e-01	+9.677419e-02
+1.969375e+09	+9.800587e-01	+1.108504e-01
+1.977064e+09	+9.765396e-01	+1.372434e-01
+1.984753e+09	+9.747801e-01	+1.706745e-01
+1.992441e+09	+9.712610e-01	+2.146628e-01
+2.000130e+09	+9.695015e-01	+2.621701e-01
+2.007819e+09	+9.677419e-01	+3.167155e-01
+2.015508e+09	+9.642229e-01	+3.730205e-01
+2.023197e+09	+9.642229e-01	+3.730205e-01
+2.030886e+09	+9.589443e-01	+4.926686e-01
+2.038575e+09	+9.571848e-01	+5.524927e-01
+2.046264e+09	+9.554252e-01	+6.140762e-01
+2.053953e+09	+9.519062e-01	+6.739003e-01
+2.061642e+09	+9.501466e-01	+7.319648e-01
+2.069331e+09	+9.466276e-01	+7.917889e-01
+2.077020e+09	+9.448680e-01	+8.516129e-01
+2.084709e+09	+9.413490e-01	+9.131965e-01
+2.092398e+09	+9.413490e-01	+9.730205e-01
+2.100087e+09	+9.395894e-01	+1.036364e+00
+2.107776e+09	+9.378299e-01	+1.097947e+00
+2.115465e+09	+9.360704e-01	+1.163050e+00
+2.123154e+09	+9.360704e-01	+1.226393e+00
+2.130843e+09	+9.360704e-01	+1.293255e+00
+2.138532e+09	+9.360704e-01	+1.358358e+00
+2.146221e+09	+9.378299e-01	+1.421701e+00
+2.153910e+09	+9.395894e-01	+1.481525e+00
+2.161599e+09	+9.413490e-01	+1.541349e+00
+2.169288e+09	+9.448680e-01	+1.592375e+00
+2.176977e+09	+9.483871e-01	+1.638123e+00
+2.184666e+09	+9.519062e-01	+1.675073e+00
+2.192355e+09	+9.554252e-01	+1.703226e+00
+2.200043e+09	+9.589443e-01	+1.724340e+00
+2.207732e+09	+9.624633e-01	+1.736657e+00
+2.215421e+09	+9.642229e-01	+1.741935e+00
+2.223110e+09	+9.659824e-01	+1.741935e+00
+2.230799e+09	+9.677419e-01	+1.738416e+00
+2.238488e+09	+9.677419e-01	+1.729619e+00
+2.246177e+09	+9.659824e-01	+1.719062e+00
+2.253866e+09	+9.642229e-01	+1.699707e+00
+2.261555e+09	+9.607038e-01	+1.683871e+00
+2.269244e+09	+9.571848e-01	+1.659238e+00
+2.276933e+09	+9.536657e-01	+1.631085e+00
+2.284622e+09	+9.483871e-01	+1.599413e+00
+2.292311e+09	+9.448680e-01	+1.562463e+00
+2.300000e+09	+9.395894e-01	+1.523754e+00
