# Hz S RI R 50.000000
+1.000000e+06	+6.686217e-01	+1.800000e+00
+8.688963e+06	+6.580645e-01	+1.690909e+00
+1.637793e+07	+6.475073e-01	+1.500880e+00
+2.406689e+07	+6.334311e-01	+1.296774e+00
+3.175585e+07	+6.123167e-01	+1.068035e+00
+3.944482e+07	+5.964809e-01	+8.129032e-01
+4.713378e+07	+5.876833e-01	+5.331378e-01
+5.482274e+07	+5.964809e-01	+2.480938e-01
+6.251171e+07	+6.123167e-01	+3.167155e-02
+7.020067e+07	+6.351906e-01	+1.741935e-01
+7.788963e+07	+6.527859e-01	+3.976540e-01
+8.557860e+07	+6.756598e-01	+6.035191e-01
+9.326756e+07	+6.844575e-01	+7.988270e-01
+1.009565e+08	+6.879765e-01	+9.853372e-01
+1.086455e+08	+6.809384e-01	+1.168328e+00
+1.163344e+08	+6.668622e-01	+1.363636e+00
+1.240234e+08	+6.492669e-01	+1.565982e+00
+1.317124e+08	+6.281525e-01	+1.787683e+00
+1.394013e+08	+6.087977e-01	+1.745455e+00
+1.470903e+08	+5.947214e-01	+1.481525e+00
+1.547793e+08	+5.894428e-01	+1.203519e+00
+1.624682e+08	+6.123167e-01	+9.413490e-01
+1.701572e+08	+6.334311e-01	+7.055718e-01
+1.778462e+08	+6.545455e-01	+4.944282e-01
+1.855351e+08	+6.721408e-01	+2.973607e-01
+1.932241e+08	+6.862170e-01	+1.161290e-01
+2.009130e+08	+6.914956e-01	+2.287390e-02
+2.086020e+08	+6.897361e-01	+1.425220e-01
+2.162910e+08	+6.774194e-01	+3.272727e-01
+2.239799e+08	+6.598240e-01	+5.296188e-01
+2.316689e+08	+6.334311e-01	+7.601173e-01
+2.393579e+08	+6.070381e-01	+1.025806e+00
+2.470468e+08	+5.876833e-01	+1.324927e+00
+2.547358e+08	+5.859238e-01	+1.646921e+00
+2.624247e+08	+6.035191e-01	+1.800000e+00
+2.701137e+08	+6.369501e-01	+1.551906e+00
+2.778027e+08	+6.686217e-01	+1.330205e+00
+2.854916e+08	+6.914956e-01	+1.133138e+00
+2.931806e+08	+7.090909e-01	+9.571848e-01
+3.008696e+08	+7.196481e-01	+7.935484e-01
+3.085585e+08	+7.178886e-01	+6.351906e-01
+3.162475e+08	+7.108504e-01	+4.768328e-01
+3.239365e+08	+6.932551e-01	+3.079179e-01
+3.316254e+08	+6.686217e-01	+1.266862e-01
+3.393144e+08	+6.351906e-01	+2.639296e-02
+3.470033e+08	+6.017595e-01	+2.498534e-01
+3.546923e+08	+5.806452e-01	+5.577713e-01
+3.623813e+08	+5.859238e-01	+8.868035e-01
+3.700702e+08	+6.087977e-01	+1.196481e+00
+3.777592e+08	+6.492669e-01	+1.460411e+00
+3.854482e+08	+6.862170e-01	+1.682111e+00
+3.931371e+08	+7.143695e-01	+1.800000e+00
+4.008261e+08	+7.319648e-01	+1.720821e+00
+4.085151e+08	+7.407625e-01	+1.550147e+00
+4.162040e+08	+7.390029e-01	+1.384751e+00
+4.238930e+08	+7.284457e-01	+1.210557e+00
+4.315819e+08	+7.073314e-01	+1.032845e+00
+4.392709e+08	+6.756598e-01	+8.357771e-01
+4.469599e+08	+6.387097e-01	+6.017595e-01
+4.546488e+08	+6.052786e-01	+3.255132e-01
+4.623378e+08	+5.929619e-01	+5.982405e-02
+4.700268e+08	+5.964809e-01	+2.234604e-01
+4.777157e+08	+6.263930e-01	+5.067449e-01
+4.854047e+08	+6.615836e-01	+7.425220e-01
+4.930936e+08	+6.914956e-01	+9.448680e-01
+5.007826e+08	+7.178886e-01	+1.126100e+00
+5.084716e+08	+7.354839e-01	+1.293255e+00
+5.161605e+08	+7.460411e-01	+1.451613e+00
+5.238495e+08	+7.478006e-01	+1.611730e+00
+5.315385e+08	+7.425220e-01	+1.784164e+00
+5.392274e+08	+7.266862e-01	+1.800000e+00
+5.469164e+08	+7.038123e-01	+1.613490e+00
+5.546054e+08	+6.791789e-01	+1.375953e+00
+5.622943e+08	+6.527859e-01	+1.096188e+00
+5.699833e+08	+6.422287e-01	+7.794721e-01
+5.776722e+08	+6.510264e-01	+4.557185e-01
+5.853612e+08	+6.756598e-01	+1.653959e-01
+5.930502e+08	+7.055718e-01	+2.991202e-02
+6.007391e+08	+7.319648e-01	+2.023460e-01
+6.084281e+08	+7.530792e-01	+3.923754e-01
+6.161171e+08	+7.653959e-01	+5.648094e-01
+6.238060e+08	+7.671554e-01	+7.302053e-01
+6.314950e+08	+7.636364e-01	+8.938416e-01
+6.391839e+08	+7.530792e-01	+1.060997e+00
+6.468729e+08	+7.354839e-01	+1.236950e+00
+6.545619e+08	+7.126100e-01	+1.430499e+00
+6.622508e+08	+6.897361e-01	+1.648680e+00
+6.699398e+08	+6.686217e-01	+1.800000e+00
+6.776288e+08	+6.563050e-01	+1.608211e+00
+6.853177e+08	+6.598240e-01	+1.326686e+00
+6.930067e+08	+6.739003e-01	+1.055718e+00
+7.006957e+08	+6.950147e-01	+8.041056e-01
+7.083846e+08	+7.161290e-01	+5.753666e-01
+7.160736e+08	+7.337243e-01	+3.624633e-01
+7.237625e+08	+7.442815e-01	+1.530792e-01
+7.314515e+08	+7.478006e-01	+2.991202e-02
+7.391405e+08	+7.460411e-01	+1.495601e-01
+7.468294e+08	+7.390029e-01	+3.624633e-01
+7.545184e+08	+7.266862e-01	+5.788856e-01
+7.622074e+08	+7.143695e-01	+8.076246e-01
+7.698963e+08	+7.038123e-01	+1.045161e+00
+7.775853e+08	+6.985337e-01	+1.291496e+00
+7.852742e+08	+6.985337e-01	+1.534311e+00
+7.929632e+08	+7.038123e-01	+1.775367e+00
+8.006522e+08	+7.108504e-01	+1.792962e+00
+8.083411e+08	+7.178886e-01	+1.585337e+00
+8.160301e+08	+7.231672e-01	+1.388270e+00
+8.237191e+08	+7.266862e-01	+1.196481e+00
+8.314080e+08	+7.249267e-01	+1.002933e+00
+8.390970e+08	+7.214076e-01	+8.058651e-01
+8.467860e+08	+7.161290e-01	+5.964809e-01
+8.544749e+08	+7.090909e-01	+3.765396e-01
+8.621639e+08	+7.020528e-01	+1.354839e-01
+8.698528e+08	+6.967742e-01	+4.398827e-02
+8.775418e+08	+7.002933e-01	+2.727273e-01
+8.852308e+08	+7.090909e-01	+5.313783e-01
+8.929197e+08	+7.214076e-01	+7.759531e-01
+9.006087e+08	+7.354839e-01	+1.008211e+00
+9.082977e+08	+7.460411e-01	+1.222874e+00
+9.159866e+08	+7.513196e-01	+1.428739e+00
+9.236756e+08	+7.495601e-01	+1.636364e+00
+9.313645e+08	+7.425220e-01	+1.800000e+00
+9.390535e+08	+7.284457e-01	+1.759531e+00
+9.467425e+08	+7.108504e-01	+1.546628e+00
+9.544314e+08	+6.897361e-01	+1.317889e+00
+9.621204e+08	+6.703812e-01	+1.071554e+00
+9.698094e+08	+6.598240e-01	+8.023460e-01
+9.774983e+08	+6.598240e-01	+5.260997e-01
+9.851873e+08	+6.721408e-01	+2.568915e-01
+9.928763e+08	+6.914956e-01	+5.102639e-02
+1.000565e+09	+7.126100e-01	+1.020528e-01
+1.008254e+09	+7.302053e-01	+3.008798e-01
+1.015943e+09	+7.442815e-01	+4.926686e-01
+1.023632e+09	+7.530792e-01	+6.739003e-01
+1.031321e+09	+7.548387e-01	+8.551320e-01
+1.039010e+09	+7.495601e-01	+1.043402e+00
+1.046699e+09	+7.372434e-01	+1.240469e+00
+1.054388e+09	+7.178886e-01	+1.458651e+00
+1.062077e+09	+6.985337e-01	+1.710264e+00
+1.069766e+09	+6.809384e-01	+1.792962e+00
+1.077455e+09	+6.756598e-01	+1.514956e+00
+1.085144e+09	+6.844575e-01	+1.215836e+00
+1.092833e+09	+7.038123e-01	+9.431085e-01
+1.100522e+09	+7.266862e-01	+7.002933e-01
+1.108211e+09	+7.460411e-01	+4.891496e-01
+1.115900e+09	+7.618768e-01	+2.973607e-01
+1.123589e+09	+7.706745e-01	+1.178886e-01
+1.131278e+09	+7.724340e-01	+4.574780e-02
+1.138967e+09	+7.671554e-01	+1.108504e-01
+1.146656e+09	+7.548387e-01	+2.744868e-01
+1.154344e+09	+7.372434e-01	+4.574780e-01
+1.162033e+09	+7.108504e-01	+6.510264e-01
+1.169722e+09	+7.108504e-01	+6.510264e-01
+1.177411e+09	+6.545455e-01	+1.138416e+00
+1.185100e+09	+6.387097e-01	+1.442815e+00
+1.192789e+09	+6.439883e-01	+1.761290e+00
+1.200478e+09	+6.686217e-01	+1.731378e+00
+1.208167e+09	+7.002933e-01	+1.467449e+00
+1.215856e+09	+7.302053e-01	+1.238710e+00
+1.223545e+09	+7.548387e-01	+1.043402e+00
+1.231234e+09	+7.724340e-01	+8.586510e-01
+1.238923e+09	+7.812317e-01	+6.826979e-01
+1.246612e+09	+7.829912e-01	+5.085044e-01
+1.254301e+09	+7.759531e-01	+3.272727e-01
+1.261990e+09	+7.618768e-01	+1.407625e-01
+1.269679e+09	+7.425220e-01	+5.102639e-02
+1.277368e+09	+7.178886e-01	+1.671554e-01
+1.285057e+09	+6.932551e-01	+4.240469e-01
+1.292746e+09	+6.932551e-01	+7.090909e-01
+1.300435e+09	+6.703812e-01	+1.011730e+00
+1.308124e+09	+6.826979e-01	+1.303812e+00
+1.315813e+09	+7.038123e-01	+1.580059e+00
+1.323502e+09	+7.266862e-01	+1.778886e+00
+1.331191e+09	+7.495601e-01	+1.764809e+00
+1.338880e+09	+7.618768e-01	+1.594135e+00
+1.346569e+09	+7.706745e-01	+1.398827e+00
+1.354258e+09	+7.741935e-01	+1.214076e+00
+1.361946e+09	+7.706745e-01	+1.031085e+00
+1.369635e+09	+7.618768e-01	+8.392962e-01
+1.377324e+09	+7.478006e-01	+6.316716e-01
+1.385013e+09	+7.337243e-01	+4.046921e-01
+1.392702e+09	+7.196481e-01	+1.583578e-01
+1.400391e+09	+7.126100e-01	+6.334311e-02
+1.408080e+09	+7.126100e-01	+2.516129e-01
+1.415769e+09	+7.231672e-01	+5.102639e-01
+1.423458e+09	+7.372434e-01	+7.460411e-01
+1.431147e+09	+7.530792e-01	+9.589443e-01
+1.438836e+09	+7.671554e-01	+1.157771e+00
+1.446525e+09	+7.794721e-01	+1.351320e+00
+1.454214e+09	+7.794721e-01	+1.546628e+00
+1.461903e+09	+7.900293e-01	+1.720821e+00
+1.469592e+09	+7.882698e-01	+1.791202e+00
+1.477281e+09	+7.812317e-01	+1.694428e+00
+1.484970e+09	+7.706745e-01	+1.486804e+00
+1.492659e+09	+7.583578e-01	+1.252786e+00
+1.500348e+09	+7.442815e-01	+1.008211e+00
+1.508037e+09	+7.319648e-01	+7.478006e-01
+1.515726e+09	+7.266862e-01	+4.715543e-01
+1.523415e+09	+7.266862e-01	+1.935484e-01
+1.531104e+09	+7.319648e-01	+6.686217e-02
+1.538793e+09	+7.390029e-01	+1.865103e-01
+1.546482e+09	+7.460411e-01	+4.134897e-01
+1.554171e+09	+7.513196e-01	+6.316716e-01
+1.561860e+09	+7.548387e-01	+8.340176e-01
+1.569548e+09	+7.565982e-01	+1.029326e+00
+1.577237e+09	+7.565982e-01	+1.221114e+00
+1.584926e+09	+7.548387e-01	+1.419941e+00
+1.592615e+09	+7.548387e-01	+1.620528e+00
+1.600304e+09	+7.548387e-01	+1.761290e+00
+1.607993e+09	+7.583578e-01	+1.759531e+00
+1.615682e+09	+7.618768e-01	+1.608211e+00
+1.623371e+09	+7.671554e-01	+1.400587e+00
+1.631060e+09	+7.706745e-01	+1.192962e+00
+1.638749e+09	+7.741935e-01	+9.888563e-01
+1.646438e+09	+7.759531e-01	+7.794721e-01
+1.654127e+09	+7.724340e-01	+5.524927e-01
+1.661816e+09	+7.653959e-01	+3.026393e-01
+1.669505e+09	+7.530792e-01	+9.853372e-02
+1.677194e+09	+7.390029e-01	+1.319648e-01
+1.684883e+09	+7.284457e-01	+4.064516e-01
+1.692572e+09	+7.249267e-01	+7.178886e-01
+1.700261e+09	+7.266862e-01	+1.001173e+00
+1.707950e+09	+7.354839e-01	+1.263343e+00
+1.715639e+09	+7.442815e-01	+1.504399e+00
+1.723328e+09	+7.530792e-01	+1.690909e+00
+1.731017e+09	+7.565982e-01	+1.773607e+00
+1.738706e+09	+7.565982e-01	+1.771848e+00
+1.746395e+09	+7.565982e-01	+1.631085e+00
+1.754084e+09	+7.495601e-01	+1.485044e+00
+1.761773e+09	+7.372434e-01	+1.333724e+00
+1.769462e+09	+7.231672e-01	+1.171848e+00
+1.777151e+09	+7.038123e-01	+1.002933e+00
+1.784839e+09	+6.844575e-01	+8.093842e-01
+1.792528e+09	+6.826979e-01	+8.093842e-01
+1.800217e+09	+6.563050e-01	+2.850440e-01
+1.807906e+09	+6.651026e-01	+1.108504e-01
+1.815595e+09	+6.932551e-01	+2.023460e-01
+1.823284e+09	+7.319648e-01	+4.891496e-01
+1.830973e+09	+7.689150e-01	+7.636364e-01
+1.838662e+09	+7.970674e-01	+1.013490e+00
+1.846351e+09	+8.129032e-01	+1.258065e+00
+1.854040e+09	+8.146628e-01	+1.497361e+00
+1.861729e+09	+8.041056e-01	+1.692669e+00
+1.869418e+09	+7.812317e-01	+1.766569e+00
+1.877107e+09	+7.495601e-01	+1.697947e+00
+1.884796e+09	+7.126100e-01	+1.525513e+00
+1.892485e+09	+6.721408e-01	+1.307331e+00
+1.900174e+09	+6.351906e-01	+1.068035e+00
+1.907863e+09	+6.070381e-01	+8.111437e-01
+1.915552e+09	+5.982405e-01	+5.313783e-01
+1.923241e+09	+6.087977e-01	+2.674487e-01
+1.930930e+09	+6.299120e-01	+1.108504e-01
+1.938619e+09	+6.545455e-01	+1.073314e-01
+1.946308e+09	+6.791789e-01	+2.041056e-01
+1.953997e+09	+7.020528e-01	+3.483871e-01
+1.961686e+09	+7.214076e-01	+5.049853e-01
+1.969375e+09	+7.372434e-01	+6.615836e-01
+1.977064e+09	+7.495601e-01	+8.217009e-01
+1.984753e+09	+7.565982e-01	+9.941349e-01
+1.992441e+09	+7.583578e-01	+1.196481e+00
+2.000130e+09	+7.513196e-01	+1.441056e+00
+2.007819e+09	+7.319648e-01	+1.692669e+00
+2.015508e+09	+7.020528e-01	+1.719062e+00
+2.023197e+09	+6.668622e-01	+1.368915e+00
+2.030886e+09	+6.439883e-01	+9.219941e-01
+2.038575e+09	+6.475073e-01	+5.067449e-01
+2.046264e+09	+6.615836e-01	+2.058651e-01
+2.053953e+09	+6.774194e-01	+1.002933e-01
+2.061642e+09	+6.879765e-01	+1.706745e-01
+2.069331e+09	+6.950147e-01	+3.131965e-01
+2.077020e+09	+6.967742e-01	+4.662757e-01
+2.084709e+09	+6.967742e-01	+6.123167e-01
+2.092398e+09	+6.932551e-01	+7.495601e-01
+2.100087e+09	+6.862170e-01	+8.832845e-01
+2.107776e+09	+6.774194e-01	+1.024047e+00
+2.115465e+09	+6.686217e-01	+1.175367e+00
+2.123154e+09	+6.598240e-01	+1.349560e+00
+2.130843e+09	+6.545455e-01	+1.539589e+00
+2.138532e+09	+6.545455e-01	+1.703226e+00
+2.146221e+09	+6.651026e-01	+1.738416e+00
+2.153910e+09	+6.897361e-01	+1.585337e+00
+2.161599e+09	+7.249267e-01	+1.314370e+00
+2.169288e+09	+7.689150e-01	+1.017009e+00
+2.176977e+09	+8.146628e-01	+7.055718e-01
+2.184666e+09	+8.533724e-01	+3.607038e-01
+2.192355e+09	+8.709677e-01	+1.178886e-01
+2.200043e+09	+8.656891e-01	+2.041056e-01
+2.207732e+09	+8.410557e-01	+4.803519e-01
+2.215421e+09	+8.111437e-01	+7.478006e-01
+2.223110e+09	+7.829912e-01	+9.765396e-01
+2.230799e+09	+7.601173e-01	+1.185924e+00
+2.238488e+09	+7.425220e-01	+1.382991e+00
+2.246177e+09	+7.319648e-01	+1.553666e+00
+2.253866e+09	+7.249267e-01	+1.676833e+00
+2.261555e+09	+7.214076e-01	+1.734897e+00
+2.269244e+09	+7.178886e-01	+1.731378e+00
+2.276933e+09	+7.178886e-01	+1.671554e+00
+2.284622e+09	+7.161290e-01	+1.571261e+00
+2.292311e+09	+7.161290e-01	+1.441056e+00
+2.300000e+09	+7.161290e-01	+1.293255e+00
