# Hz S RI R 50.000000
+1.000000e+06	+1.455132e+00	+6.316716e-01	+6.351906e-01	+1.340762e+00	+1.097947e+00	+1.800000e+00	+1.736657e+00	+1.625806e+00
+8.688963e+06	+1.303812e+00	+6.281525e-01	+6.334311e-01	+1.324927e+00	+1.740176e+00	+1.713783e+00	+1.703226e+00	+1.683871e+00
+1.637793e+07	+1.317889e+00	+6.281525e-01	+6.316716e-01	+1.349560e+00	+1.520235e+00	+1.555425e+00	+1.608211e+00	+1.423460e+00
+2.406689e+07	+1.347801e+00	+6.299120e-01	+6.316716e-01	+1.398827e+00	+1.317889e+00	+1.398827e+00	+1.507918e+00	+1.152493e+00
+3.175585e+07	+1.398827e+00	+6.299120e-01	+6.316716e-01	+1.474487e+00	+1.104985e+00	+1.238710e+00	+1.407625e+00	+8.322581e-01
+3.944482e+07	+1.437537e+00	+6.316716e-01	+6.334311e-01	+1.583578e+00	+8.604106e-01	+1.080352e+00	+1.305572e+00	+3.747801e-01
+4.713378e+07	+1.592375e+00	+6.334311e-01	+6.351906e-01	+1.625806e+00	+5.190616e-01	+9.219941e-01	+1.203519e+00	+3.255132e-01
+5.482274e+07	+1.694428e+00	+6.351906e-01	+6.387097e-01	+1.520235e+00	+2.744868e-01	+7.671554e-01	+1.104985e+00	+9.343109e-01
+6.251171e+07	+1.609971e+00	+6.387097e-01	+6.404692e-01	+1.416422e+00	+7.882698e-01	+6.158358e-01	+1.008211e+00	+1.310850e+00
+7.020067e+07	+1.492082e+00	+6.387097e-01	+6.422287e-01	+1.342522e+00	+1.147214e+00	+4.627566e-01	+9.131965e-01	+1.602933e+00
+7.788963e+07	+1.411144e+00	+6.404692e-01	+6.422287e-01	+1.293255e+00	+1.391789e+00	+3.114370e-01	+8.181818e-01	+1.800000e+00
+8.557860e+07	+1.356598e+00	+6.404692e-01	+6.404692e-01	+1.261584e+00	+1.602933e+00	+1.636364e-01	+7.231672e-01	+1.671554e+00
+9.326756e+07	+1.321408e+00	+6.387097e-01	+6.387097e-01	+1.247507e+00	+1.771848e+00	+3.519062e-02	+6.228739e-01	+1.419941e+00
+1.009565e+08	+1.441056e+00	+6.387097e-01	+6.387097e-01	+1.240469e+00	+1.655718e+00	+5.806452e-02	+5.208211e-01	+1.156012e+00
+1.086455e+08	+1.295015e+00	+6.387097e-01	+6.387097e-01	+1.249267e+00	+1.462170e+00	+2.058651e-01	+4.187683e-01	+8.903226e-01
+1.163344e+08	+1.302053e+00	+6.387097e-01	+6.404692e-01	+1.273900e+00	+1.251026e+00	+3.624633e-01	+3.184751e-01	+6.000000e-01
+1.240234e+08	+1.312610e+00	+6.404692e-01	+6.404692e-01	+1.305572e+00	+1.032845e+00	+5.190616e-01	+2.199413e-01	+2.709677e-01
+1.317124e+08	+1.342522e+00	+6.422287e-01	+6.422287e-01	+1.335484e+00	+8.005865e-01	+6.686217e-01	+1.249267e-01	+5.102639e-02
+1.394013e+08	+1.382991e+00	+6.422287e-01	+6.439883e-01	+1.347801e+00	+5.313783e-01	+8.164223e-01	+4.222874e-02	+4.363636e-01
+1.470903e+08	+1.423460e+00	+6.404692e-01	+6.422287e-01	+1.326686e+00	+1.812317e-01	+9.677419e-01	+2.815249e-02	+8.551320e-01
+1.547793e+08	+1.437537e+00	+6.387097e-01	+6.387097e-01	+1.286217e+00	+1.935484e-01	+1.126100e+00	+9.677419e-02	+1.249267e+00
+1.624682e+08	+1.402346e+00	+6.387097e-01	+6.316716e-01	+1.236950e+00	+6.052786e-01	+1.286217e+00	+1.900293e-01	+1.587097e+00
+1.701572e+08	+1.335484e+00	+6.369501e-01	+6.211144e-01	+1.189443e+00	+9.571848e-01	+1.444575e+00	+3.079179e-01	+1.800000e+00
+1.778462e+08	+1.289736e+00	+6.369501e-01	+6.228739e-01	+1.157771e+00	+1.272141e+00	+1.604692e+00	+4.346041e-01	+1.615249e+00
+1.855351e+08	+1.258065e+00	+6.387097e-01	+6.316716e-01	+1.136657e+00	+1.500880e+00	+1.766569e+00	+5.454545e-01	+1.354839e+00
+1.932241e+08	+1.205279e+00	+6.422287e-01	+6.369501e-01	+1.129619e+00	+1.715543e+00	+1.800000e+00	+6.422287e-01	+1.101466e+00
+2.009130e+08	+1.178886e+00	+6.457478e-01	+6.404692e-01	+1.129619e+00	+1.720821e+00	+1.701466e+00	+7.390029e-01	+8.551320e-01
+2.086020e+08	+1.159531e+00	+6.492669e-01	+6.439883e-01	+1.136657e+00	+1.548387e+00	+1.548387e+00	+8.340176e-01	+6.070381e-01
+2.162910e+08	+1.159531e+00	+6.510264e-01	+6.439883e-01	+1.154252e+00	+1.367155e+00	+1.400587e+00	+9.272727e-01	+3.607038e-01
+2.239799e+08	+1.141935e+00	+6.527859e-01	+6.439883e-01	+1.182405e+00	+1.187683e+00	+1.254545e+00	+1.018768e+00	+1.266862e-01
+2.316689e+08	+1.143695e+00	+6.510264e-01	+6.422287e-01	+1.215836e+00	+1.001173e+00	+1.108504e+00	+1.112023e+00	+6.158358e-02
+2.393579e+08	+1.152493e+00	+6.475073e-01	+6.369501e-01	+1.265103e+00	+7.988270e-01	+9.589443e-01	+1.208798e+00	+3.272727e-01
+2.470468e+08	+1.171848e+00	+6.422287e-01	+6.334311e-01	+1.295015e+00	+5.824047e-01	+8.041056e-01	+1.312610e+00	+6.580645e-01
+2.547358e+08	+1.171848e+00	+6.351906e-01	+6.316716e-01	+1.382991e+00	+3.589443e-01	+6.404692e-01	+1.423460e+00	+1.034604e+00
+2.624247e+08	+1.203519e+00	+6.351906e-01	+6.334311e-01	+1.397067e+00	+1.249267e-01	+4.486804e-01	+1.532551e+00	+1.483284e+00
+2.701137e+08	+1.291496e+00	+6.439883e-01	+6.351906e-01	+1.377713e+00	+9.677419e-02	+2.850440e-01	+1.639883e+00	+1.785924e+00
+2.778027e+08	+1.342522e+00	+6.510264e-01	+6.404692e-01	+1.342522e+00	+4.328446e-01	+1.372434e-01	+1.743695e+00	+1.377713e+00
+2.854916e+08	+1.372434e+00	+6.563050e-01	+6.457478e-01	+1.309091e+00	+8.445748e-01	+2.815249e-02	+1.794721e+00	+1.045161e+00
+2.931806e+08	+1.354839e+00	+6.598240e-01	+6.492669e-01	+1.293255e+00	+1.242229e+00	+6.510264e-02	+1.712023e+00	+7.636364e-01
+3.008696e+08	+1.314370e+00	+6.598240e-01	+6.510264e-01	+1.282698e+00	+1.573021e+00	+2.041056e-01	+1.620528e+00	+5.049853e-01
+3.085585e+08	+1.261584e+00	+6.563050e-01	+6.510264e-01	+1.280938e+00	+1.773607e+00	+3.501466e-01	+1.529032e+00	+2.498534e-01
+3.162475e+08	+1.217595e+00	+6.510264e-01	+6.510264e-01	+1.293255e+00	+1.564223e+00	+5.049853e-01	+1.432258e+00	+4.046921e-02
+3.239365e+08	+1.177126e+00	+6.492669e-01	+6.492669e-01	+1.323167e+00	+1.346041e+00	+6.615836e-01	+1.333724e+00	+1.865103e-01
+3.316254e+08	+1.150733e+00	+6.475073e-01	+6.492669e-01	+1.377713e+00	+1.134897e+00	+8.269795e-01	+1.231672e+00	+4.909091e-01
+3.393144e+08	+1.138416e+00	+6.492669e-01	+6.492669e-01	+1.455132e+00	+9.360704e-01	+9.923754e-01	+1.127859e+00	+8.744868e-01
+3.470033e+08	+1.131378e+00	+6.527859e-01	+6.527859e-01	+1.529032e+00	+7.442815e-01	+1.154252e+00	+1.025806e+00	+1.398827e+00
+3.546923e+08	+1.138416e+00	+6.563050e-01	+6.563050e-01	+1.532551e+00	+5.630499e-01	+1.310850e+00	+9.272727e-01	+1.708504e+00
+3.623813e+08	+1.150733e+00	+6.615836e-01	+6.580645e-01	+1.451613e+00	+3.888563e-01	+1.463930e+00	+8.322581e-01	+1.215836e+00
+3.700702e+08	+1.168328e+00	+6.668622e-01	+6.598240e-01	+1.375953e+00	+2.111437e-01	+1.615249e+00	+7.407625e-01	+8.832845e-01
+3.777592e+08	+1.196481e+00	+6.668622e-01	+6.598240e-01	+1.312610e+00	+1.319648e-01	+1.757771e+00	+6.492669e-01	+6.070381e-01
+3.854482e+08	+1.229912e+00	+6.686217e-01	+6.580645e-01	+1.266862e+00	+1.002933e-01	+1.800000e+00	+5.560117e-01	+3.659824e-01
+3.931371e+08	+1.279179e+00	+6.668622e-01	+6.545455e-01	+1.229912e+00	+2.920821e-01	+1.733138e+00	+4.609971e-01	+1.214076e-01
+4.008261e+08	+1.349560e+00	+6.633431e-01	+6.510264e-01	+1.210557e+00	+5.032258e-01	+1.580059e+00	+3.607038e-01	+6.334311e-02
+4.085151e+08	+1.455132e+00	+6.633431e-01	+6.475073e-01	+1.215836e+00	+7.636364e-01	+1.423460e+00	+2.568915e-01	+2.991202e-01
+4.162040e+08	+1.592375e+00	+6.615836e-01	+6.457478e-01	+1.229912e+00	+1.222874e+00	+1.266862e+00	+1.478006e-01	+5.436950e-01
+4.238930e+08	+1.629326e+00	+6.651026e-01	+6.457478e-01	+1.259824e+00	+1.583578e+00	+1.108504e+00	+4.574780e-02	+8.041056e-01
+4.315819e+08	+1.520235e+00	+6.651026e-01	+6.492669e-01	+1.307331e+00	+1.168328e+00	+9.536657e-01	+3.167155e-02	+1.075073e+00
+4.392709e+08	+1.419941e+00	+6.651026e-01	+6.527859e-01	+1.365396e+00	+8.973607e-01	+7.953079e-01	+1.126100e-01	+1.388270e+00
+4.469599e+08	+1.351320e+00	+6.686217e-01	+6.545455e-01	+1.426979e+00	+6.950147e-01	+6.404692e-01	+2.111437e-01	+1.764809e+00
+4.546488e+08	+1.309091e+00	+6.703812e-01	+6.545455e-01	+1.465689e+00	+5.190616e-01	+4.926686e-01	+3.079179e-01	+1.492082e+00
+4.623378e+08	+1.296774e+00	+6.686217e-01	+6.527859e-01	+1.432258e+00	+3.554252e-01	+3.448680e-01	+4.064516e-01	+9.554252e-01
+4.700268e+08	+1.270381e+00	+6.651026e-01	+6.510264e-01	+1.365396e+00	+2.357771e-01	+1.970674e-01	+5.120235e-01	+5.067449e-01
+4.777157e+08	+1.272141e+00	+6.651026e-01	+6.510264e-01	+1.314370e+00	+5.454545e-02	+3.519062e-02	+6.228739e-01	+1.530792e-01
+4.854047e+08	+1.293255e+00	+6.668622e-01	+6.545455e-01	+1.280938e+00	+8.797654e-02	+5.806452e-02	+7.319648e-01	+1.002933e-01
+4.930936e+08	+1.339003e+00	+6.703812e-01	+6.598240e-01	+1.258065e+00	+2.956012e-01	+2.181818e-01	+8.392962e-01	+4.961877e-01
+5.007826e+08	+1.398827e+00	+6.756598e-01	+6.651026e-01	+1.254545e+00	+2.252199e-01	+3.782991e-01	+9.413490e-01	+5.472141e-01
+5.084716e+08	+1.460411e+00	+6.809384e-01	+6.703812e-01	+1.265103e+00	+1.636364e-01	+5.313783e-01	+1.038123e+00	+7.724340e-01
+5.161605e+08	+1.469208e+00	+6.862170e-01	+6.756598e-01	+1.291496e+00	+1.002933e-01	+6.826979e-01	+1.131378e+00	+9.870968e-01
+5.238495e+08	+1.426979e+00	+6.897361e-01	+6.774194e-01	+1.333724e+00	+1.143695e-01	+8.304985e-01	+1.222874e+00	+1.207038e+00
+5.315385e+08	+1.351320e+00	+6.932551e-01	+6.791789e-01	+1.402346e+00	+1.478006e-01	+9.800587e-01	+1.312610e+00	+1.432258e+00
+5.392274e+08	+1.282698e+00	+6.950147e-01	+6.791789e-01	+1.525513e+00	+1.002933e-01	+1.131378e+00	+1.405865e+00	+1.669795e+00
+5.469164e+08	+1.231672e+00	+6.967742e-01	+6.791789e-01	+1.775367e+00	+1.038123e-01	+1.284457e+00	+1.500880e+00	+1.379472e+00
+5.546054e+08	+1.189443e+00	+6.985337e-01	+6.791789e-01	+1.699707e+00	+7.038123e-02	+1.437537e+00	+1.597654e+00	+2.692082e-01
+5.622943e+08	+1.159531e+00	+7.020528e-01	+6.809384e-01	+1.479765e+00	+1.935484e-01	+1.585337e+00	+1.699707e+00	+2.146628e-01
+5.699833e+08	+1.141935e+00	+7.055718e-01	+6.826979e-01	+1.354839e+00	+3.290323e-01	+1.738416e+00	+1.777126e+00	+4.539589e-01
+5.776722e+08	+1.134897e+00	+7.090909e-01	+6.862170e-01	+1.279179e+00	+4.680352e-01	+1.800000e+00	+1.761290e+00	+6.686217e-01
+5.853612e+08	+1.134897e+00	+7.108504e-01	+6.879765e-01	+1.231672e+00	+6.070381e-01	+1.768328e+00	+1.676833e+00	+8.744868e-01
+5.930502e+08	+1.141935e+00	+7.108504e-01	+6.897361e-01	+1.198240e+00	+7.442815e-01	+1.624047e+00	+1.590616e+00	+1.078592e+00
+6.007391e+08	+1.157771e+00	+7.090909e-01	+6.879765e-01	+1.171848e+00	+8.832845e-01	+1.483284e+00	+1.506158e+00	+1.286217e+00
+6.084281e+08	+1.182405e+00	+7.055718e-01	+6.844575e-01	+1.156012e+00	+1.027566e+00	+1.340762e+00	+1.419941e+00	+1.506158e+00
+6.161171e+08	+1.219355e+00	+7.002933e-01	+6.774194e-01	+1.143695e+00	+1.184164e+00	+1.194721e+00	+1.326686e+00	+1.743695e+00
+6.238060e+08	+1.279179e+00	+6.967742e-01	+6.703812e-01	+1.138416e+00	+1.367155e+00	+1.041642e+00	+1.226393e+00	+1.787683e+00
+6.314950e+08	+1.351320e+00	+6.914956e-01	+6.651026e-01	+1.141935e+00	+1.606452e+00	+8.832845e-01	+1.117302e+00	+1.507918e+00
+6.391839e+08	+1.530792e+00	+6.897361e-01	+6.615836e-01	+1.147214e+00	+1.569501e+00	+7.231672e-01	+1.001173e+00	+1.208798e+00
+6.468729e+08	+1.580059e+00	+6.897361e-01	+6.633431e-01	+1.161290e+00	+7.178886e-01	+5.577713e-01	+8.832845e-01	+8.797654e-01
+6.545619e+08	+1.578299e+00	+6.897361e-01	+6.668622e-01	+1.177126e+00	+7.178886e-01	+5.577713e-01	+7.724340e-01	+5.313783e-01
+6.622508e+08	+1.578299e+00	+6.950147e-01	+6.739003e-01	+1.184164e+00	+3.360704e-01	+2.410557e-01	+6.668622e-01	+1.900293e-01
+6.699398e+08	+1.207038e+00	+7.002933e-01	+6.791789e-01	+1.178886e+00	+1.565982e-01	+8.973607e-02	+5.683284e-01	+6.158358e-02
+6.776288e+08	+1.154252e+00	+7.038123e-01	+6.844575e-01	+1.164809e+00	+3.202346e-01	+3.870968e-02	+4.768328e-01	+3.290323e-01
+6.853177e+08	+1.117302e+00	+7.038123e-01	+6.879765e-01	+1.143695e+00	+4.750733e-01	+9.853372e-02	+3.870968e-01	+6.035191e-01
+6.930067e+08	+1.089150e+00	+7.020528e-01	+6.897361e-01	+1.124340e+00	+6.281525e-01	+2.480938e-01	+2.991202e-01	+8.674487e-01
+7.006957e+08	+1.071554e+00	+7.002933e-01	+6.879765e-01	+1.104985e+00	+7.777126e-01	+4.011730e-01	+2.076246e-01	+1.119062e+00
+7.083846e+08	+1.062757e+00	+7.002933e-01	+6.879765e-01	+1.092669e+00	+9.307918e-01	+5.560117e-01	+1.108504e-01	+1.363636e+00
+7.160736e+08	+1.062757e+00	+7.002933e-01	+6.879765e-01	+1.085630e+00	+1.083871e+00	+7.126100e-01	+4.398827e-02	+1.604692e+00
+7.237625e+08	+1.062757e+00	+7.002933e-01	+6.862170e-01	+1.089150e+00	+1.083871e+00	+7.126100e-01	+4.398827e-02	+1.800000e+00
+7.314515e+08	+1.094428e+00	+7.038123e-01	+6.879765e-01	+1.099707e+00	+1.395308e+00	+1.020528e+00	+1.231672e-01	+1.715543e+00
+7.391405e+08	+1.129619e+00	+7.073314e-01	+6.897361e-01	+1.122581e+00	+1.543109e+00	+1.171848e+00	+2.234604e-01	+1.481525e+00
+7.468294e+08	+1.185924e+00	+7.090909e-01	+6.897361e-01	+1.154252e+00	+1.715543e+00	+1.321408e+00	+3.184751e-01	+1.261584e+00
+7.545184e+08	+1.256305e+00	+7.090909e-01	+6.914956e-01	+1.192962e+00	+1.741935e+00	+1.469208e+00	+4.117302e-01	+1.039883e+00
+7.622074e+08	+1.377713e+00	+7.090909e-01	+6.914956e-01	+1.242229e+00	+1.558944e+00	+1.618768e+00	+5.032258e-01	+8.164223e-01
+7.698963e+08	+1.611730e+00	+7.073314e-01	+6.897361e-01	+1.303812e+00	+1.191202e+00	+1.768328e+00	+5.964809e-01	+5.841642e-01
+7.775853e+08	+1.611730e+00	+7.055718e-01	+6.879765e-01	+1.381232e+00	+2.217009e-01	+1.800000e+00	+6.914956e-01	+3.431085e-01
+7.852742e+08	+1.381232e+00	+7.073314e-01	+6.862170e-01	+1.481525e+00	+3.923754e-01	+1.710264e+00	+7.882698e-01	+1.618768e-01
+7.929632e+08	+1.263343e+00	+7.073314e-01	+6.862170e-01	+1.602933e+00	+5.947214e-01	+1.546628e+00	+8.850440e-01	+2.727273e-01
+8.006522e+08	+1.200000e+00	+7.108504e-01	+6.844575e-01	+1.680352e+00	+7.618768e-01	+1.391789e+00	+9.835777e-01	+8.111437e-01
+8.083411e+08	+1.141935e+00	+7.126100e-01	+6.826979e-01	+1.676833e+00	+9.167155e-01	+1.240469e+00	+1.083871e+00	+1.258065e+00
+8.160301e+08	+1.110264e+00	+7.161290e-01	+6.809384e-01	+1.673314e+00	+1.062757e+00	+1.092669e+00	+1.184164e+00	+1.504399e+00
+8.237191e+08	+1.110264e+00	+7.161290e-01	+6.809384e-01	+1.678592e+00	+1.207038e+00	+9.448680e-01	+1.284457e+00	+1.521994e+00
+8.314080e+08	+1.080352e+00	+7.161290e-01	+6.809384e-01	+1.694428e+00	+1.339003e+00	+7.988270e-01	+1.382991e+00	+1.478006e+00
+8.390970e+08	+1.078592e+00	+7.143695e-01	+6.791789e-01	+1.613490e+00	+1.481525e+00	+6.510264e-01	+1.483284e+00	+1.456891e+00
+8.467860e+08	+1.089150e+00	+7.126100e-01	+6.791789e-01	+1.495601e+00	+1.625806e+00	+5.049853e-01	+1.587097e+00	+1.507918e+00
+8.544749e+08	+1.112023e+00	+7.090909e-01	+6.791789e-01	+1.393548e+00	+1.745455e+00	+3.571848e-01	+1.689150e+00	+1.622287e+00
+8.621639e+08	+1.147214e+00	+7.038123e-01	+6.791789e-01	+1.316129e+00	+1.740176e+00	+2.005865e-01	+1.759531e+00	+1.759531e+00
+8.698528e+08	+1.205279e+00	+7.020528e-01	+6.809384e-01	+1.252786e+00	+1.629326e+00	+5.806452e-02	+1.754252e+00	+1.800000e+00
+8.775418e+08	+1.293255e+00	+6.985337e-01	+6.826979e-01	+1.203519e+00	+1.518475e+00	+4.398827e-02	+1.680352e+00	+1.666276e+00
+8.852308e+08	+1.441056e+00	+6.985337e-01	+6.809384e-01	+1.161290e+00	+1.463930e+00	+1.706745e-01	+1.583578e+00	+1.465689e+00
+8.929197e+08	+1.631085e+00	+6.985337e-01	+6.809384e-01	+1.129619e+00	+1.390029e+00	+3.343109e-01	+1.485044e+00	+1.263343e+00
+9.006087e+08	+1.458651e+00	+6.985337e-01	+6.791789e-01	+1.101466e+00	+1.048680e+00	+4.926686e-01	+1.388270e+00	+1.052199e+00
+9.082977e+08	+1.302053e+00	+6.985337e-01	+6.774194e-01	+1.082111e+00	+1.092669e+00	+6.492669e-01	+1.289736e+00	+8.322581e-01
+9.159866e+08	+1.215836e+00	+6.985337e-01	+6.756598e-01	+1.068035e+00	+1.207038e+00	+8.093842e-01	+1.185924e+00	+6.035191e-01
+9.236756e+08	+1.159531e+00	+7.002933e-01	+6.756598e-01	+1.062757e+00	+1.335484e+00	+9.677419e-01	+1.080352e+00	+3.642229e-01
+9.313645e+08	+1.126100e+00	+7.038123e-01	+6.756598e-01	+1.066276e+00	+1.472727e+00	+1.126100e+00	+9.730205e-01	+1.161290e-01
+9.390535e+08	+1.108504e+00	+7.055718e-01	+6.791789e-01	+1.076833e+00	+1.611730e+00	+1.280938e+00	+8.692082e-01	+6.862170e-02
+9.467425e+08	+1.103226e+00	+7.108504e-01	+6.809384e-01	+1.092669e+00	+1.682111e+00	+1.432258e+00	+7.689150e-01	+3.272727e-01
+9.544314e+08	+1.108504e+00	+7.126100e-01	+6.862170e-01	+1.108504e+00	+1.743695e+00	+1.581818e+00	+6.756598e-01	+6.193548e-01
+9.621204e+08	+1.126100e+00	+7.143695e-01	+6.879765e-01	+1.122581e+00	+1.662757e+00	+1.731378e+00	+5.859238e-01	+9.219941e-01
+9.698094e+08	+1.154252e+00	+7.161290e-01	+6.879765e-01	+1.129619e+00	+1.539589e+00	+1.800000e+00	+4.997067e-01	+1.233431e+00
+9.774983e+08	+1.198240e+00	+7.143695e-01	+6.862170e-01	+1.127859e+00	+1.416422e+00	+1.775367e+00	+4.117302e-01	+1.544868e+00
+9.851873e+08	+1.261584e+00	+7.108504e-01	+6.809384e-01	+1.119062e+00	+1.307331e+00	+1.634604e+00	+3.184751e-01	+1.800000e+00
+9.928763e+08	+1.365396e+00	+7.090909e-01	+6.756598e-01	+1.103226e+00	+1.214076e+00	+1.478006e+00	+2.146628e-01	+1.604692e+00
+1.000565e+09	+1.548387e+00	+7.055718e-01	+6.703812e-01	+1.087390e+00	+1.031085e+00	+1.323167e+00	+1.090909e-01	+1.289736e+00
+1.008254e+09	+1.564223e+00	+7.038123e-01	+6.686217e-01	+1.071554e+00	+1.298534e+00	+1.164809e+00	+4.926686e-02	+9.941349e-01
+1.015943e+09	+1.404106e+00	+7.055718e-01	+6.686217e-01	+1.062757e+00	+1.296774e+00	+1.006452e+00	+6.862170e-02	+7.108504e-01
+1.023632e+09	+1.286217e+00	+7.038123e-01	+6.721408e-01	+1.062757e+00	+1.391789e+00	+8.498534e-01	+1.583578e-01	+4.416422e-01
+1.031321e+09	+1.219355e+00	+7.055718e-01	+6.774194e-01	+1.068035e+00	+1.523754e+00	+6.985337e-01	+2.656891e-01	+1.777126e-01
+1.039010e+09	+1.171848e+00	+7.055718e-01	+6.844575e-01	+1.076833e+00	+1.648680e+00	+5.489736e-01	+3.659824e-01	+4.750733e-02
+1.046699e+09	+1.143695e+00	+7.038123e-01	+6.879765e-01	+1.090909e+00	+1.734897e+00	+4.011730e-01	+4.574780e-01	+2.041056e-01
+1.054388e+09	+1.129619e+00	+7.002933e-01	+6.897361e-01	+1.108504e+00	+1.719062e+00	+2.445748e-01	+5.436950e-01	+4.539589e-01
+1.062077e+09	+1.124340e+00	+6.950147e-01	+6.879765e-01	+1.129619e+00	+1.601173e+00	+9.501466e-02	+6.334311e-01	+7.002933e-01
+1.069766e+09	+1.133138e+00	+6.914956e-01	+6.844575e-01	+1.157771e+00	+1.441056e+00	+4.222874e-02	+7.266862e-01	+9.624633e-01
+1.077455e+09	+1.156012e+00	+6.879765e-01	+6.809384e-01	+1.191202e+00	+1.272141e+00	+1.266862e-01	+8.269795e-01	+1.249267e+00
+1.085144e+09	+1.200000e+00	+6.862170e-01	+6.791789e-01	+1.229912e+00	+1.085630e+00	+2.991202e-01	+9.325513e-01	+1.569501e+00
+1.092833e+09	+1.270381e+00	+6.879765e-01	+6.791789e-01	+1.268622e+00	+8.674487e-01	+4.733138e-01	+1.041642e+00	+1.785924e+00
+1.100522e+09	+1.384751e+00	+6.914956e-01	+6.809384e-01	+1.309091e+00	+5.718475e-01	+6.387097e-01	+1.150733e+00	+1.529032e+00
+1.108211e+09	+1.500880e+00	+6.967742e-01	+6.862170e-01	+1.344282e+00	+1.970674e-01	+7.970674e-01	+1.254545e+00	+1.119062e+00
+1.115900e+09	+1.407625e+00	+7.020528e-01	+6.897361e-01	+1.349560e+00	+7.214076e-01	+9.483871e-01	+1.353079e+00	+7.073314e-01
+1.123589e+09	+1.287977e+00	+7.038123e-01	+6.950147e-01	+1.340762e+00	+1.015249e+00	+1.096188e+00	+1.449853e+00	+3.501466e-01
+1.131278e+09	+1.205279e+00	+7.055718e-01	+6.967742e-01	+1.335484e+00	+1.258065e+00	+1.243988e+00	+1.544868e+00	+8.797654e-02
+1.138967e+09	+1.150733e+00	+7.055718e-01	+6.985337e-01	+1.331965e+00	+1.439296e+00	+1.393548e+00	+1.636364e+00	+1.284457e-01
+1.146656e+09	+1.113783e+00	+7.038123e-01	+6.967742e-01	+1.340762e+00	+1.615249e+00	+1.551906e+00	+1.712023e+00	+3.360704e-01
+1.154344e+09	+1.090909e+00	+7.038123e-01	+6.950147e-01	+1.363636e+00	+1.734897e+00	+1.713783e+00	+1.748974e+00	+5.260997e-01
+1.162033e+09	+1.083871e+00	+7.038123e-01	+6.932551e-01	+1.402346e+00	+1.701466e+00	+1.800000e+00	+1.727859e+00	+6.879765e-01
+1.169722e+09	+1.090909e+00	+7.073314e-01	+6.932551e-01	+1.444575e+00	+1.548387e+00	+1.763050e+00	+1.657478e+00	+8.234604e-01
+1.177411e+09	+1.110264e+00	+7.108504e-01	+6.914956e-01	+1.500880e+00	+1.374194e+00	+1.618768e+00	+1.558944e+00	+9.043988e-01
+1.185100e+09	+1.141935e+00	+7.161290e-01	+6.914956e-01	+1.536070e+00	+1.205279e+00	+1.462170e+00	+1.458651e+00	+8.304985e-01
+1.192789e+09	+1.189443e+00	+7.178886e-01	+6.914956e-01	+1.479765e+00	+1.020528e+00	+1.316129e+00	+1.361877e+00	+7.126100e-01
+1.200478e+09	+1.259824e+00	+7.196481e-01	+6.897361e-01	+1.398827e+00	+7.900293e-01	+1.175367e+00	+1.266862e+00	+7.460411e-01
+1.208167e+09	+1.346041e+00	+7.161290e-01	+6.879765e-01	+1.331965e+00	+4.645161e-01	+1.031085e+00	+1.170088e+00	+8.797654e-01
